;$FILEVERSION=2.0
;$STARTTIME=44637.6835977083
;$COLUMNS=N,O,T,I,d,l,D
;
;   C:\Users\bayerld\Documents\Tesla\20220317-chassiscan-licht-app.trc
;   Start time: 17.03.2022 16:24:22.842.0
;   Generated by PCAN-View v4.2.5.569
;-------------------------------------------------------------------------------
;   Connection                 Bit rate
;   PCANLight_USB_15@pcan_usb  500 kBit/s
;-------------------------------------------------------------------------------
;   Message   Time    Type ID     Rx/Tx
;   Number    Offset  |    [hex]  |  Data Length
;   |         [ms]    |    |      |  |  Data [hex] ...
;   |         |       |    |      |  |  |
;---+-- ------+------ +- --+----- +- +- +- +- -- -- -- -- -- -- --
      1         3.321 DT     0103 Rx 8  11 30 00 00 96 12 11 02 
      2         4.891 DT     0129 Rx 8  ED 25 4F 20 00 20 FF 3F 
      3         6.905 DT     02E1 Rx 8  10 21 04 00 00 00 26 08 
      4         9.169 DT     024E Rx 8  01 80 00 04 00 00 00 00 
      5         9.435 DT     025E Rx 8  01 20 00 81 00 20 00 81 
      6         9.697 DT     026E Rx 8  06 00 FE EF FF FE EF FF 
      7         9.904 DT     032E Rx 5  00 5D 30 D1 8F 
      8        10.118 DT     033E Rx 5  00 FF FF D1 10 
      9        10.322 DT     034E Rx 5  59 9E 21 0D 76 
     10        10.530 DT     035E Rx 5  28 25 26 0D E1 
     11        10.762 DT     039E Rx 6  FF FF FF FF AD 0A 
     12        11.020 DT     03FE Rx 8  00 40 00 00 00 00 E1 22 
     13        11.188 DT     0488 Rx 4  40 00 0B D7 
     14        12.612 DT     02A8 Rx 8  C2 00 00 00 00 80 40 2C 
     15        13.070 DT     039D Rx 5  62 59 41 28 00 
     16        14.887 DT     0129 Rx 8  9A 26 4F 20 01 20 FF 3F 
     17        15.837 DT     0249 Rx 4  AF 0E 00 00 
     18        16.049 DT     010A Rx 7  1B A9 52 62 61 51 01 
     19        16.263 DT     010B Rx 7  13 09 00 00 F0 FF 0F 
     20        16.481 DT     010C Rx 7  87 F9 A0 30 21 90 00 
     21        16.701 DT     010D Rx 7  D6 E9 70 71 F0 FF 0F 
     22        16.850 DT     0219 Rx 3  0E 00 29 
     23        21.043 DT     02B9 Rx 8  00 00 D8 25 2A 9A DA 56 
     24        23.751 DT     025F Rx 8  DF 8C 01 C3 44 C1 0A E0 
     25        23.987 DT     02E1 Rx 8  29 0A A3 6A 17 00 00 00 
     26        24.449 DT     03C2 Rx 8  00 55 55 55 00 00 55 45 
     27        25.015 DT     0129 Rx 8  8D 27 4F 20 01 20 FF 3F 
     28        25.667 DT     0545 Rx 8  80 01 31 80 A1 07 AA CE 
     29        29.153 DT     020E Rx 8  98 C6 E8 62 05 E2 05 A4 
     30        29.420 DT     021E Rx 8  00 00 00 00 00 00 80 88 
     31        29.672 DT     022E Rx 8  6E 66 A0 48 41 C3 10 00 
     32        29.924 DT     023E Rx 8  28 C6 63 95 01 6E 86 1B 
     33        30.186 DT     026E Rx 8  07 00 FE EF FF FE EF FF 
     34        30.989 DT     0488 Rx 4  40 00 0C D8 
     35        34.893 DT     0129 Rx 8  F7 28 4F 20 00 20 FF 3F 
     36        37.153 DT     0221 Rx 8  40 41 05 05 00 50 11 0F 
     37        38.027 DT     0228 Rx 2  20 4A 
     38        38.263 DT     07FF Rx 8  03 31 08 A1 E0 42 16 41 
     39        38.497 DT     0318 Rx 8  16 03 17 0F 11 18 05 88 
     40        38.634 DT     0418 Rx 2  22 06 
     41        38.750 DT     0128 Rx 1  00 
     42        38.994 DT     02E1 Rx 8  02 00 00 00 00 00 01 00 
     43        43.334 DT     03C3 Rx 8  55 55 55 01 00 00 00 00 
     44        44.938 DT     0129 Rx 8  A2 29 4F 20 00 20 FF 3F 
     45        47.684 DT     02D1 Rx 2  7F 01 
     46        49.168 DT     026E Rx 8  08 00 FE EF FF FE EF FF 
     47        51.025 DT     03FE Rx 8  00 40 00 00 00 00 F1 32 
     48        51.191 DT     0488 Rx 4  40 00 0D D9 
     49        53.053 DT     039D Rx 5  63 5A 41 28 00 
     50        54.895 DT     0129 Rx 8  7D 2A 4F 20 00 20 FF 3F 
     51        55.133 DT     02E1 Rx 8  03 6C 00 02 2C 45 00 00 
     52        55.991 DT     010A Rx 7  1C AA 52 62 61 51 01 
     53        56.207 DT     010B Rx 7  14 0A 00 00 F0 FF 0F 
     54        56.427 DT     010C Rx 7  88 FA A0 30 21 90 00 
     55        56.645 DT     010D Rx 7  D7 EA 70 71 F0 FF 0F 
     56        56.798 DT     0219 Rx 3  0F 00 2A 
     57        57.928 DT     0545 Rx 8  01 00 00 00 00 10 B0 0B 
     58        61.044 DT     02B9 Rx 8  00 00 D8 25 2A 9A FA 76 
     59        63.082 DT     0419 Rx 1  00 
     60        64.894 DT     0129 Rx 8  8C 2B 4F 20 00 20 FF 3F 
     61        65.416 DT     0249 Rx 4  CE 0F 00 00 
     62        66.026 DT     03CA Rx 8  00 00 00 00 00 00 00 06 
     63        67.312 DT     02E8 Rx 8  C2 00 00 00 00 80 40 6C 
     64        68.978 DT     027D Rx 3  01 06 86 
     65        69.205 DT     020E Rx 8  98 C6 E8 62 05 E2 45 E4 
     66        69.471 DT     021E Rx 8  00 00 00 00 00 00 80 99 
     67        69.723 DT     022E Rx 8  6E 66 A0 48 41 C3 50 40 
     68        69.977 DT     023E Rx 8  28 C6 63 95 01 6E 96 2B 
     69        70.237 DT     026E Rx 8  09 00 FE EF FF FE EF FF 
     70        70.999 DT     0488 Rx 4  40 00 0E DA 
     71        71.333 DT     02E1 Rx 8  FC 19 13 0A 9E 12 0A 00 
     72        74.220 DT     03C2 Rx 8  29 55 00 00 00 00 00 00 
     73        74.887 DT     0129 Rx 8  EC 2C 4F 20 00 20 FF 3F 
     74        80.045 DT     0420 Rx 6  28 01 40 4B 00 60 
     75        81.021 DT     0259 Rx 8  D3 C0 02 00 00 00 10 00 
     76        81.253 DT     0399 Rx 8  F0 20 C0 E0 B0 C8 67 2B 
     77        81.399 DT     0413 Rx 3  49 49 4B 
     78        83.067 DT     03CB Rx 5  00 00 00 00 01 
     79        84.892 DT     0129 Rx 8  FE 2D 4F 20 00 20 FF 3F 
     80        87.150 DT     0221 Rx 8  41 01 55 00 00 00 20 DA 
     81        87.404 DT     02E1 Rx 8  05 00 00 00 00 00 00 00 
     82        88.148 DT     0405 Rx 8  12 43 33 37 39 34 34 35 
     83        89.166 DT     026E Rx 8  0A 00 FE EF FF FE EF FF 
     84        90.898 DT     0545 Rx 8  02 00 19 00 00 00 C0 25 
     85        91.144 DT     03FE Rx 8  00 40 00 00 00 00 01 42 
     86        91.265 DT     0409 Rx 1  00 
     87        91.379 DT     0415 Rx 1  45 
     88        91.547 DT     0488 Rx 4  40 00 0F DB 
     89        91.797 DT     0720 Rx 8  00 00 00 00 00 00 00 00 
     90        93.095 DT     039D Rx 5  64 5B 41 28 00 
     91        94.887 DT     0129 Rx 8  8C 2E 4F 20 01 20 FF 3F 
     92        95.989 DT     010A Rx 7  1D AB 52 62 61 51 01 
     93        96.205 DT     010B Rx 7  15 0B 00 00 F0 FF 0F 
     94        96.427 DT     010C Rx 7  89 FB A0 30 21 90 00 
     95        96.646 DT     010D Rx 7  D8 EB 70 71 F0 FF 0F 
     96        96.796 DT     0219 Rx 3  00 00 1B 
     97        97.040 DT     0239 Rx 8  00 00 64 7D 7D 7D F0 E0 
     98        97.284 DT     0247 Rx 8  03 00 1B 00 00 40 FC 00 
     99        97.532 DT     024A Rx 8  00 00 01 0F 1F 00 00 00 
    100        98.954 DT     0102 Rx 8  22 33 00 00 E8 38 11 08 
    101       101.034 DT     02B9 Rx 8  00 00 D8 25 2A 9A 1A 96 
    102       102.990 DT     02E1 Rx 8  10 21 04 00 00 00 26 08 
    103       103.333 DT     0103 Rx 8  11 30 00 00 96 12 11 02 
    104       104.893 DT     0129 Rx 8  D0 2F 4F 20 00 20 FF 3F 
    105       109.149 DT     020E Rx 8  98 C6 E8 62 05 E2 85 24 
    106       109.417 DT     021E Rx 8  00 00 00 00 00 00 80 AA 
    107       109.669 DT     022E Rx 8  6E 66 A0 48 41 C3 90 80 
    108       109.923 DT     023E Rx 8  28 C6 63 95 05 6E A6 3F 
    109       110.191 DT     024E Rx 8  02 80 00 04 00 00 00 00 
    110       110.453 DT     025E Rx 8  02 20 00 81 00 20 00 81 
    111       110.716 DT     026E Rx 8  0B 00 FE EF FF FE EF FF 
    112       110.924 DT     032E Rx 5  00 5D 30 E1 9F 
    113       111.094 DT     0488 Rx 4  40 00 00 CC 
    114       111.282 DT     033E Rx 5  00 FF FF E1 20 
    115       111.488 DT     034E Rx 5  59 9E 21 0E 77 
    116       111.696 DT     035E Rx 5  28 25 26 0E E2 
    117       111.931 DT     039E Rx 6  FF FF FF FF BE 0A 
    118       112.613 DT     02A8 Rx 8  C2 00 00 00 00 80 50 3C 
    119       115.107 DT     0129 Rx 8  5C 20 4F 20 FF 1F FF 3F 
    120       116.029 DT     03FE Rx 8  00 40 00 00 00 00 10 51 
    121       116.195 DT     0249 Rx 4  9B 00 00 00 
    122       116.441 DT     05D9 Rx 8  10 03 03 00 00 00 00 00 
    123       119.161 DT     02E1 Rx 8  29 0A A3 6A 17 00 00 00 
    124       123.766 DT     025F Rx 8  DF 8C 01 C3 44 C1 0A E0 
    125       124.230 DT     03C2 Rx 8  00 55 55 55 00 00 55 45 
    126       125.046 DT     0129 Rx 8  4B 21 4F 20 FF 1F FF 3F 
    127       125.618 DT     0545 Rx 8  40 01 31 80 A1 0B DA C2 
    128       129.163 DT     026E Rx 8  20 00 7A 77 84 7B 17 7B 
    129       131.005 DT     0488 Rx 4  40 00 01 CD 
    130       133.143 DT     039D Rx 5  65 5C 41 28 00 
    131       134.887 DT     0129 Rx 8  6B 22 4F 20 00 20 FF 3F 
    132       135.142 DT     02E1 Rx 8  02 00 00 00 00 00 01 00 
    133       135.990 DT     010A Rx 7  1E AC 52 62 61 51 01 
    134       136.208 DT     010B Rx 7  16 0C 00 00 F0 FF 0F 
    135       136.426 DT     010C Rx 7  8A FC A0 30 21 90 00 
    136       136.644 DT     010D Rx 7  D9 EC 70 71 F0 FF 0F 
    137       136.794 DT     0219 Rx 3  01 00 1C 
    138       137.148 DT     0221 Rx 8  40 41 05 05 00 50 31 2F 
    139       138.035 DT     0228 Rx 2  30 5A 
    140       138.267 DT     07FF Rx 8  04 CC 16 54 61 12 B4 2A 
    141       138.499 DT     0318 Rx 8  16 03 17 0F 11 18 07 8A 
    142       138.633 DT     0418 Rx 2  32 06 
    143       138.749 DT     0128 Rx 1  00 
    144       141.037 DT     02B9 Rx 8  00 00 D8 25 2A 9A 3A B6 
    145       143.490 DT     03C3 Rx 8  00 00 00 00 00 49 00 00 
    146       144.916 DT     0129 Rx 8  15 23 4F 20 FF 1F FF 3F 
    147       147.686 DT     02D1 Rx 2  7F 01 
    148       149.140 DT     020E Rx 8  99 C6 E8 62 05 E2 C5 65 
    149       149.406 DT     021E Rx 8  00 00 00 00 00 00 80 BB 
    150       149.655 DT     022E Rx 8  6E 66 A0 48 41 C3 D0 C0 
    151       149.907 DT     023E Rx 8  28 C6 63 95 01 6E B6 4B 
    152       150.159 DT     026E Rx 8  21 00 0F EA 79 36 DA 85 
    153       150.899 DT     02E1 Rx 8  03 6C 00 02 2C 45 00 00 
    154       151.067 DT     0488 Rx 4  40 00 02 CE 
    155       154.889 DT     0129 Rx 8  FA 24 4F 20 00 20 FF 3F 
    156       156.029 DT     03FE Rx 8  00 40 00 00 00 00 20 61 
    157       157.152 DT     0545 Rx 8  01 00 00 00 00 10 E0 3B 
    158       163.086 DT     0419 Rx 1  00 
    159       164.888 DT     0129 Rx 8  40 25 4F 20 01 20 FF 3F 
    160       165.414 DT     0249 Rx 4  E8 01 00 00 
    161       167.124 DT     02E1 Rx 8  FC 19 13 0A 9E 14 0A 00 
    162       167.368 DT     02E8 Rx 8  C2 00 00 00 00 80 50 7C 
    163       168.985 DT     027D Rx 3  01 07 87 
    164       169.215 DT     026E Rx 8  22 00 B1 D9 87 84 19 8A 
    165       171.009 DT     0488 Rx 4  40 00 03 CF 
    166       173.079 DT     039D Rx 5  66 5D 41 28 00 
    167       174.147 DT     03C2 Rx 8  29 55 00 00 00 00 00 00 
    168       174.909 DT     0129 Rx 8  37 26 4F 20 00 20 FF 3F 
    169       175.991 DT     010A Rx 7  1F AD 52 62 61 51 01 
    170       176.205 DT     010B Rx 7  17 0D 00 00 F0 FF 0F 
    171       176.425 DT     010C Rx 7  8B FD A0 30 21 90 00 
    172       176.641 DT     010D Rx 7  DA ED 70 71 F0 FF 0F 
    173       176.792 DT     0219 Rx 3  02 00 1D 
    174       180.050 DT     0420 Rx 6  28 01 40 4B 00 70 
    175       181.044 DT     0259 Rx 8  D3 C0 02 00 00 00 20 10 
    176       181.274 DT     02B9 Rx 8  00 00 D8 25 2A 9A 5A D6 
    177       182.994 DT     02E1 Rx 8  05 00 00 00 00 00 00 00 
    178       183.185 DT     03CB Rx 5  00 00 00 00 01 
    179       184.893 DT     0129 Rx 8  20 27 4F 20 00 20 FF 3F 
    180       186.902 DT     0221 Rx 8  41 01 55 00 00 00 40 FA 
    181       189.142 DT     020E Rx 8  99 C6 E8 62 05 E2 05 A5 
    182       189.410 DT     021E Rx 8  00 00 00 00 00 00 80 CC 
    183       189.660 DT     022E Rx 8  6E 66 A0 48 41 C3 10 00 
    184       189.912 DT     0545 Rx 8  02 00 17 00 00 00 F0 53 
    185       190.142 DT     023E Rx 8  28 C6 63 95 01 6E C6 5B 
    186       190.402 DT     026E Rx 8  03 00 FE EF FF FE EF FF 
    187       190.949 DT     0409 Rx 1  00 
    188       191.115 DT     0488 Rx 4  40 00 04 D0 
    189       191.365 DT     0720 Rx 8  00 00 00 00 00 00 00 00 
    190       194.881 DT     0129 Rx 8  9E 28 4F 20 FF 1F FF 3F 
    191       195.989 DT     0334 Rx 8  3F 3F C8 00 E2 3F 50 EE 
    192       196.235 DT     0239 Rx 8  00 00 64 7D 7D 7D F0 F0 
    193       196.480 DT     0247 Rx 8  03 00 1B 00 00 40 FC 00 
    194       196.728 DT     024A Rx 8  00 00 01 0F 1F 00 00 00 
    195       196.974 DT     03FE Rx 8  00 40 00 00 00 00 30 71 
    196       198.958 DT     0102 Rx 8  22 33 00 00 E8 38 11 08 
    197       199.522 DT     02E1 Rx 8  10 21 04 00 00 00 26 08 
    198       203.316 DT     0103 Rx 8  11 30 00 00 96 12 11 02 
    199       204.888 DT     0129 Rx 8  A2 29 4F 20 00 20 FF 3F 
    200       209.164 DT     024E Rx 8  03 80 00 04 00 00 00 00 
    201       209.433 DT     025E Rx 8  03 20 00 81 00 20 00 81 
    202       209.695 DT     026E Rx 8  04 00 FE EF FF FE EF FF 
    203       209.963 DT     030E Rx 8  00 00 05 01 00 00 10 27 
    204       210.187 DT     031E Rx 6  01 10 7F 15 1A 1E 
    205       210.393 DT     032E Rx 5  00 5D 30 F1 AF 
    206       210.610 DT     033E Rx 5  00 FF FF F1 30 
    207       210.816 DT     034E Rx 5  59 9E 21 0F 78 
    208       210.988 DT     0488 Rx 4  40 00 05 D1 
    209       211.170 DT     035E Rx 5  28 25 26 0F E3 
    210       211.402 DT     039E Rx 6  FF FF FF FF CF 0A 
    211       212.648 DT     02A8 Rx 8  C2 00 00 00 00 80 60 4C 
    212       213.082 DT     039D Rx 5  67 5E 41 28 00 
    213       215.109 DT     0129 Rx 8  7D 2A 4F 20 00 20 FF 3F 
    214       215.817 DT     0249 Rx 4  2A 02 00 00 
    215       216.031 DT     010A Rx 7  20 AE 52 62 61 51 01 
    216       216.249 DT     010B Rx 7  18 0E 00 00 F0 FF 0F 
    217       216.469 DT     010C Rx 7  8C FE A0 30 21 90 00 
    218       216.689 DT     010D Rx 7  DB EE 70 71 F0 FF 0F 
    219       216.839 DT     0219 Rx 3  03 00 1E 
    220       217.234 DT     02E1 Rx 8  29 0A A3 6A 17 00 00 00 
    221       221.040 DT     02B9 Rx 8  00 00 D8 25 2A 9A 7A F6 
    222       221.284 DT     0389 Rx 8  00 00 00 60 00 80 1F 8B 
    223       224.120 DT     03C2 Rx 8  00 55 55 55 00 00 55 45 
    224       224.792 DT     025F Rx 8  DF 8C 01 C3 44 C1 0A E0 
    225       225.034 DT     0129 Rx 8  8C 2B 4F 20 00 20 FF 3F 
    226       225.644 DT     0545 Rx 8  80 01 2C 80 A1 07 0A 29 
    227       229.146 DT     020E Rx 8  99 C6 E8 62 05 E2 45 E5 
    228       229.415 DT     021E Rx 8  00 00 00 00 00 00 80 DD 
    229       229.669 DT     022E Rx 8  6E 66 A0 48 41 C3 50 40 
    230       229.923 DT     023E Rx 8  28 C6 63 95 01 6E D6 6B 
    231       230.185 DT     026E Rx 8  05 00 FE EF FF FE EF FF 
    232       230.989 DT     0488 Rx 4  40 00 06 D2 
    233       231.233 DT     02E1 Rx 8  02 00 00 00 00 00 01 00 
    234       234.880 DT     0129 Rx 8  85 2C 4F 20 FF 1F FF 3F 
    235       236.030 DT     03FE Rx 8  00 40 00 00 00 00 40 81 
    236       237.148 DT     0221 Rx 8  40 41 05 05 00 50 51 4F 
    237       238.035 DT     0228 Rx 2  40 6A 
    238       238.281 DT     07FF Rx 8  05 08 A0 40 00 00 00 00 
    239       238.513 DT     0318 Rx 8  16 03 17 0F 11 18 09 8C 
    240       238.649 DT     0418 Rx 2  42 06 
    241       238.766 DT     0128 Rx 1  00 
    242       241.030 DT     05D9 Rx 8  01 00 00 00 00 08 00 00 
    243       243.154 DT     035D Rx 8  02 00 00 00 00 C1 07 00 
    244       243.390 DT     03C3 Rx 8  55 55 55 01 00 00 00 00 
    245       244.888 DT     0129 Rx 8  FE 2D 4F 20 00 20 FF 3F 
    246       246.916 DT     02E1 Rx 8  03 6C 00 02 2C 45 00 00 
    247       247.696 DT     02D1 Rx 2  7F 01 
    248       249.166 DT     026E Rx 8  06 00 FE EF FF FE EF FF 
    249       250.993 DT     0488 Rx 4  40 00 07 D3 
    250       253.096 DT     039D Rx 5  68 5F 41 28 00 
    251       254.893 DT     0129 Rx 8  21 2E 4F 20 00 20 FF 3F 
    252       255.925 DT     0545 Rx 8  01 00 00 00 00 10 10 6B 
    253       256.137 DT     010A Rx 7  21 AF 52 62 61 51 01 
    254       256.353 DT     010B Rx 7  19 0F 00 00 F0 FF 0F 
    255       256.573 DT     010C Rx 7  8D FF A0 30 21 90 00 
    256       256.791 DT     010D Rx 7  DC EF 70 71 F0 FF 0F 
    257       256.944 DT     0219 Rx 3  04 00 1F 
    258       261.038 DT     02B9 Rx 8  00 00 D8 25 2A 9A 9A 16 
    259       263.188 DT     02E1 Rx 8  FC 19 12 1A 9E 14 0A 00 
    260       263.304 DT     0419 Rx 1  00 
    261       264.892 DT     0129 Rx 8  D0 2F 4F 20 00 20 FF 3F 
    262       265.408 DT     0249 Rx 4  D3 03 00 00 
    263       267.316 DT     02E8 Rx 8  C2 00 00 00 00 80 60 8C 
    264       268.978 DT     027D Rx 3  01 08 88 
    265       269.205 DT     020E Rx 8  99 C6 E8 62 05 E2 85 25 
    266       269.473 DT     021E Rx 8  00 00 00 00 00 00 80 EE 
    267       269.723 DT     022E Rx 8  6E 66 A0 48 41 C3 90 80 
    268       269.975 DT     023E Rx 8  28 C6 63 95 01 6E E6 7B 
    269       270.237 DT     026E Rx 8  07 00 FE EF FF FE EF FF 
    270       270.994 DT     0488 Rx 4  40 00 08 D4 
    271       274.220 DT     03C2 Rx 8  29 55 00 00 00 00 00 00 
    272       274.896 DT     0129 Rx 8  35 20 4F 20 00 20 FF 3F 
    273       276.028 DT     03FE Rx 8  00 40 00 00 00 00 50 91 
    274       278.930 DT     02E1 Rx 8  05 00 00 00 00 00 00 00 
    275       280.046 DT     0420 Rx 6  28 01 40 4B 00 80 
    276       281.022 DT     0259 Rx 8  D3 C0 02 00 00 00 30 20 
    277       283.070 DT     03CB Rx 5  00 00 00 00 01 
    278       284.889 DT     0129 Rx 8  22 21 4F 20 00 20 FF 3F 
    279       287.141 DT     0221 Rx 8  41 01 55 00 00 00 60 1A 
    280       289.165 DT     026E Rx 8  08 00 FE EF FF FE EF FF 
    281       289.407 DT     0545 Rx 8  02 00 16 00 00 00 20 82 
    282       290.951 DT     0409 Rx 1  00 
    283       291.117 DT     0488 Rx 4  40 00 09 D5 
    284       291.367 DT     0720 Rx 8  00 00 00 00 00 00 00 00 
    285       293.108 DT     039D Rx 5  59 50 41 28 00 
    286       294.884 DT     0129 Rx 8  6B 22 4F 20 00 20 FF 3F 
    287       295.135 DT     02E1 Rx 8  10 21 04 00 00 00 26 08 
    288       295.995 DT     010A Rx 7  12 A0 52 62 61 51 01 
    289       296.219 DT     010B Rx 7  0A 00 00 00 F0 FF 0F 
    290       296.437 DT     010C Rx 7  7E F0 A0 30 21 90 00 
    291       296.657 DT     010D Rx 7  CD E0 70 71 F0 FF 0F 
    292       296.811 DT     0219 Rx 3  05 00 20 
    293       297.055 DT     0239 Rx 8  00 00 64 7D 7D 7D F0 00 
    294       297.299 DT     0247 Rx 8  03 00 1B 00 00 40 FC 00 
    295       297.548 DT     024A Rx 8  00 00 01 0F 1F 00 00 00 
    296       298.964 DT     0102 Rx 8  22 33 00 00 E8 38 11 08 
    297       301.038 DT     02B9 Rx 8  00 00 D8 25 2A 9A BA 36 
    298       303.342 DT     0103 Rx 8  11 30 00 00 96 12 11 02 
    299       304.896 DT     0129 Rx 8  7C 23 4F 20 00 20 FF 3F 
    300       309.148 DT     020E Rx 8  99 C6 E8 62 05 E2 C5 65 
    301       309.418 DT     021E Rx 8  00 00 00 00 00 00 80 FF 
    302       309.668 DT     022E Rx 8  6E 66 A0 48 41 C3 D0 C0 
    303       309.923 DT     023E Rx 8  28 C6 63 95 01 6E F6 8B 
    304       310.191 DT     024E Rx 8  00 80 00 04 00 00 00 00 
    305       310.455 DT     025E Rx 8  00 20 00 81 00 20 00 81 
    306       310.715 DT     026E Rx 8  09 00 FE EF FF FE EF FF 
    307       310.925 DT     032E Rx 5  00 5D 30 01 BF 
    308       311.092 DT     0488 Rx 4  40 00 0A D6 
    309       311.282 DT     033E Rx 5  00 FF FF 01 40 
    310       311.488 DT     034E Rx 5  59 9E 21 00 69 
    311       311.722 DT     02E1 Rx 8  29 0A A3 6A 17 00 00 00 
    312       311.902 DT     035E Rx 5  28 25 26 00 D4 
    313       312.136 DT     039E Rx 6  FF FF FF FF D0 09 
    314       312.662 DT     02A8 Rx 8  C2 00 00 00 00 80 70 5C 
    315       315.060 DT     03C9 Rx 7  03 11 C3 05 30 38 00 
    316       315.293 DT     0129 Rx 8  57 24 4F 20 01 20 FF 3F 
    317       315.825 DT     0249 Rx 4  D3 04 00 00 
    318       316.071 DT     03FE Rx 8  00 40 00 00 00 00 60 A1 
    319       321.887 DT     0545 Rx 8  80 01 2C B0 A1 0E 3A 90 
    320       323.941 DT     025F Rx 8  DF 8C 01 C3 44 C1 0A E0 
    321       324.414 DT     03C2 Rx 8  00 55 55 55 00 00 55 45 
    322       324.908 DT     0129 Rx 8  ED 25 4F 20 00 20 FF 3F 
    323       326.986 DT     02E1 Rx 8  02 00 00 00 00 00 01 00 
    324       329.164 DT     026E Rx 8  0A 00 FE EF FF FE EF FF 
    325       330.994 DT     0488 Rx 4  40 00 0B D7 
    326       333.138 DT     039D Rx 5  5A 51 41 28 00 
    327       334.886 DT     0129 Rx 8  37 26 4F 20 00 20 FF 3F 
    328       335.992 DT     010A Rx 7  13 A1 52 62 61 51 01 
    329       336.210 DT     010B Rx 7  0B 01 00 00 F0 FF 0F 
    330       336.432 DT     010C Rx 7  7F F1 A0 30 21 90 00 
    331       336.649 DT     010D Rx 7  CE E1 70 71 F0 FF 0F 
    332       336.801 DT     0219 Rx 3  06 00 21 
    333       337.149 DT     0221 Rx 8  40 41 05 05 00 50 71 6F 
    334       338.185 DT     0405 Rx 8  10 00 00 00 00 4C 52 57 
    335       338.319 DT     0228 Rx 2  50 7A 
    336       338.555 DT     07FF Rx 8  01 91 45 44 42 4C 7A 00 
    337       338.790 DT     0318 Rx 8  16 03 17 0F 11 18 0B 8E 
    338       338.924 DT     0418 Rx 2  52 06 
    339       339.040 DT     0128 Rx 1  00 
    340       341.040 DT     02B9 Rx 8  00 00 D8 25 2A 9A DA 56 
    341       343.066 DT     02E1 Rx 8  03 6C 00 02 2C 45 00 00 
    342       343.280 DT     025A Rx 6  00 00 00 00 00 00 
    343       343.530 DT     03C3 Rx 8  00 00 00 00 00 49 00 00 
    344       344.925 DT     0129 Rx 8  8D 27 4F 20 01 20 FF 3F 
    345       346.076 DT     0238 Rx 8  80 3F 14 C1 1F 00 E4 D1 
    346       346.270 DT     0284 Rx 5  10 00 00 00 00 
    347       347.698 DT     02D1 Rx 2  7F 01 
    348       349.140 DT     020E Rx 8  99 C6 E8 62 05 E2 05 A5 
    349       349.410 DT     021E Rx 8  00 00 00 00 00 00 80 00 
    350       349.660 DT     022E Rx 8  6E 66 A0 48 41 C3 10 00 
    351       349.914 DT     023E Rx 8  28 C6 63 95 01 6E 06 9B 
    352       350.181 DT     026E Rx 8  0B 00 FE EF FF FE EF FF 
    353       351.005 DT     0488 Rx 4  40 00 0C D8 
    354       354.881 DT     0129 Rx 8  5A 28 4F 20 01 20 FF 3F 
    355       355.137 DT     0545 Rx 8  01 00 00 00 00 10 40 9B 
    356       356.027 DT     03FE Rx 8  00 40 00 00 00 00 70 B1 
    357       359.321 DT     02E1 Rx 8  FC 19 12 1A 9E 0E 0A 00 
    358       363.085 DT     0419 Rx 1  00 
    359       364.888 DT     0129 Rx 8  A2 29 4F 20 00 20 FF 3F 
    360       365.414 DT     0249 Rx 4  83 05 00 00 
    361       366.030 DT     05D9 Rx 8  03 00 FF 00 00 00 00 00 
    362       367.318 DT     02E8 Rx 8  C2 00 00 00 00 80 70 9C 
    363       368.980 DT     027D Rx 3  01 09 89 
    364       369.208 DT     026E Rx 8  20 00 7A 77 84 7B 17 7B 
    365       370.994 DT     0488 Rx 4  40 00 0D D9 
    366       373.080 DT     039D Rx 5  5B 52 41 28 00 
    367       373.992 DT     03C2 Rx 8  29 55 00 00 00 00 00 00 
    368       374.890 DT     0129 Rx 8  14 2A 4F 20 FF 1F FF 3F 
    369       375.153 DT     02E1 Rx 8  05 00 00 00 00 00 00 00 
    370       375.993 DT     010A Rx 7  14 A2 52 62 61 51 01 
    371       376.211 DT     010B Rx 7  0C 02 00 00 F0 FF 0F 
    372       376.431 DT     010C Rx 7  80 F2 A0 30 21 90 00 
    373       376.651 DT     010D Rx 7  CF E2 70 71 F0 FF 0F 
    374       376.803 DT     0219 Rx 3  07 00 22 
    375       380.049 DT     0420 Rx 6  28 01 40 4B 00 90 
    376       381.050 DT     0259 Rx 8  D3 C0 02 00 00 00 40 30 
    377       381.282 DT     02B9 Rx 8  00 00 D8 25 2A 9A FA 76 
    378       383.072 DT     03CB Rx 5  00 00 00 00 01 
    379       385.060 DT     0129 Rx 8  8C 2B 4F 20 00 20 FF 3F 
    380       386.902 DT     0221 Rx 8  41 01 55 00 00 00 80 3A 
    381       387.906 DT     0545 Rx 8  02 00 15 00 00 00 50 B1 
    382       389.138 DT     020E Rx 8  99 C6 E8 62 05 E2 45 E5 
    383       389.404 DT     021E Rx 8  00 00 00 00 00 00 80 11 
    384       389.657 DT     022E Rx 8  6E 66 A0 48 41 C3 50 40 
    385       389.909 DT     023E Rx 8  28 C6 63 95 01 6E 16 AB 
    386       390.161 DT     026E Rx 8  21 00 0F EA 79 36 DA 85 
    387       390.931 DT     02E1 Rx 8  10 21 04 00 00 00 26 08 
    388       391.051 DT     0409 Rx 1  00 
    389       391.217 DT     0488 Rx 4  40 00 0E DA 
    390       391.467 DT     0720 Rx 8  00 00 00 00 00 00 00 00 
    391       394.883 DT     0129 Rx 8  41 2C 4F 20 01 20 FF 3F 
    392       396.050 DT     0239 Rx 8  00 00 64 7D 7D 7D F0 10 
    393       396.294 DT     0247 Rx 8  03 00 1B 00 00 40 FC 00 
    394       396.542 DT     024A Rx 8  00 00 01 0F 1F 00 00 00 
    395       396.788 DT     03FE Rx 8  00 40 00 00 00 00 80 C1 
    396       398.964 DT     0102 Rx 8  22 33 00 00 E8 38 11 08 
    397       403.519 DT     0103 Rx 8  11 30 00 00 96 12 11 02 
    398       404.886 DT     0129 Rx 8  FE 2D 4F 20 00 20 FF 3F 
    399       407.148 DT     02E1 Rx 8  29 0A A3 6A 17 00 00 00 
    400       409.168 DT     024E Rx 8  01 80 00 04 00 00 00 00 
    401       409.434 DT     025E Rx 8  01 20 00 81 00 20 00 81 
    402       409.686 DT     026E Rx 8  22 00 B1 D9 87 84 19 8A 
    403       409.894 DT     032E Rx 5  00 5D 30 11 CF 
    404       410.107 DT     033E Rx 5  00 FF FF 11 50 
    405       410.315 DT     034E Rx 5  59 9E 21 01 6A 
    406       410.523 DT     035E Rx 5  28 25 26 01 D5 
    407       410.759 DT     039E Rx 6  FF FF FF FF E1 09 
    408       411.023 DT     0488 Rx 4  40 00 0F DB 
    409       412.629 DT     02A8 Rx 8  C2 00 00 00 00 80 80 6C 
    410       413.059 DT     039D Rx 5  5C 53 41 28 00 
    411       414.892 DT     0129 Rx 8  21 2E 4F 20 00 20 FF 3F 
    412       415.588 DT     0249 Rx 4  4C 06 00 00 
    413       415.998 DT     010A Rx 7  15 A3 52 62 61 51 01 
    414       416.214 DT     010B Rx 7  0D 03 00 00 F0 FF 0F 
    415       416.434 DT     010C Rx 7  81 F3 A0 30 21 90 00 
    416       416.650 DT     010D Rx 7  D0 E3 70 71 F0 FF 0F 
    417       416.800 DT     0219 Rx 3  08 00 23 
    418       417.045 DT     03FE Rx 8  00 40 00 00 00 00 91 D2 
    419       420.897 DT     0545 Rx 8  40 01 31 B0 A1 0A 6A 81 
    420       421.127 DT     02B9 Rx 8  00 00 D8 25 2A 9A 1A 96 
    421       423.719 DT     02E1 Rx 8  02 00 00 00 00 00 01 00 
    422       424.177 DT     03C2 Rx 8  00 55 55 55 00 00 55 45 
    423       424.909 DT     0129 Rx 8  D0 2F 4F 20 00 20 FF 3F 
    424       425.337 DT     025F Rx 8  DF 8C 01 C3 44 C1 0A E0 
    425       429.137 DT     020E Rx 8  99 C6 E8 62 05 E2 85 25 
    426       429.402 DT     021E Rx 8  00 00 00 00 00 00 80 22 
    427       429.652 DT     022E Rx 8  6E 66 A0 48 41 C3 90 80 
    428       429.904 DT     023E Rx 8  28 C6 63 95 01 6E 26 BB 
    429       430.164 DT     026E Rx 8  03 00 FE EF FF FE EF FF 
    430       431.002 DT     0488 Rx 4  40 00 00 CC 
    431       434.891 DT     0129 Rx 8  98 20 4F 20 01 20 FF 3F 
    432       437.401 DT     0221 Rx 8  40 41 05 05 00 50 91 8F 
    433       438.045 DT     0228 Rx 2  60 8A 
    434       438.279 DT     07FF Rx 8  02 5F 4E AC DE CD D6 30 
    435       438.513 DT     0318 Rx 8  16 03 17 0F 11 18 0D 90 
    436       438.648 DT     0418 Rx 2  62 06 
    437       438.764 DT     0128 Rx 1  00 
    438       439.188 DT     02E1 Rx 8  03 6C 00 02 2C 45 00 00 
    439       443.348 DT     03C3 Rx 8  55 55 55 01 00 00 00 00 
    440       444.884 DT     0129 Rx 8  22 21 4F 20 00 20 FF 3F 
    441       447.747 DT     02D1 Rx 2  7F 01 
    442       449.165 DT     026E Rx 8  04 00 FE EF FF FE EF FF 
    443       450.999 DT     0488 Rx 4  40 00 01 CD 
    444       453.065 DT     039D Rx 5  5D 54 41 28 00 
    445       453.309 DT     032D Rx 8  0B 00 04 03 00 02 00 00 
    446       454.404 DT     0545 Rx 8  01 00 00 00 00 10 70 CB 
    447       454.882 DT     0129 Rx 8  6B 22 4F 20 00 20 FF 3F 
    448       455.354 DT     02E1 Rx 8  FC 19 11 1A 9E 13 0A 00 
    449       455.994 DT     010A Rx 7  16 A4 52 62 61 51 01 
    450       456.213 DT     010B Rx 7  0E 04 00 00 F0 FF 0F 
    451       456.433 DT     010C Rx 7  82 F4 A0 30 21 90 00 
    452       456.651 DT     010D Rx 7  D1 E4 70 71 F0 FF 0F 
    453       456.799 DT     0219 Rx 3  09 00 24 
    454       457.041 DT     03FE Rx 8  00 40 00 00 00 00 A1 E2 
    455       459.145 DT     030E Rx 8  00 00 05 01 00 00 20 37 
    456       461.039 DT     02B9 Rx 8  00 00 D8 25 2A 9A 3A B6 
    457       463.101 DT     0419 Rx 1  00 
    458       464.894 DT     0129 Rx 8  7C 23 4F 20 00 20 FF 3F 
    459       465.420 DT     0249 Rx 4  5E 07 00 00 
    460       467.362 DT     02E8 Rx 8  C2 00 00 00 00 80 80 AC 
    461       468.982 DT     027D Rx 3  01 0A 8A 
    462       469.208 DT     020E Rx 8  99 C6 E8 62 05 E2 C5 65 
    463       469.472 DT     021E Rx 8  00 00 00 00 00 00 80 33 
    464       469.720 DT     022E Rx 8  6E 66 A0 48 41 C3 D0 C0 
    465       469.975 DT     023E Rx 8  28 C6 63 95 01 6E 36 CB 
    466       470.223 DT     032B Rx 8  00 00 00 00 00 00 00 00 
    467       470.463 DT     026E Rx 8  05 00 FE EF FF FE EF FF 
    468       470.713 DT     036C Rx 8  00 00 00 00 00 00 00 00 
    469       470.961 DT     0459 Rx 8  00 00 00 00 00 00 00 00 
    470       471.211 DT     0350 Rx 8  00 00 00 00 00 00 00 00 
    471       471.459 DT     02E1 Rx 8  05 00 00 00 00 00 00 00 
    472       471.704 DT     05D9 Rx 8  24 07 00 00 00 00 F0 1F 
    473       471.872 DT     0488 Rx 4  40 00 02 CE 
    474       474.228 DT     03C2 Rx 8  29 55 00 00 00 00 00 00 
    475       474.894 DT     0129 Rx 8  57 24 4F 20 01 20 FF 3F 
    476       480.052 DT     0420 Rx 6  28 01 40 4B 00 A0 
    477       481.028 DT     0259 Rx 8  D3 C0 02 00 00 00 50 40 
    478       483.072 DT     03CB Rx 5  00 00 00 00 01 
    479       484.876 DT     0129 Rx 8  84 25 4F 20 FF 1F FF 3F 
    480       486.931 DT     02E1 Rx 8  10 21 04 00 00 00 26 08 
    481       487.169 DT     0221 Rx 8  41 01 55 00 00 00 A0 5A 
    482       487.411 DT     0545 Rx 8  02 00 15 00 00 00 80 E1 
    483       489.273 DT     026E Rx 8  06 00 FE EF FF FE EF FF 
    484       491.087 DT     0329 Rx 8  00 00 00 00 00 00 00 00 
    485       491.335 DT     0369 Rx 8  00 00 00 00 00 00 00 00 
    486       491.455 DT     0409 Rx 1  00 
    487       491.703 DT     0425 Rx 8  00 00 00 00 00 00 00 00 
    488       491.954 DT     0429 Rx 8  00 00 00 00 00 00 00 00 
    489       492.204 DT     0439 Rx 8  00 00 00 00 00 00 00 00 
    490       492.452 DT     0449 Rx 8  00 00 00 00 00 00 00 00 
    491       492.702 DT     0479 Rx 8  00 00 00 00 00 00 00 00 
    492       492.876 DT     0488 Rx 4  40 00 03 CF 
    493       493.126 DT     0720 Rx 8  00 00 00 00 00 00 00 00 
    494       493.308 DT     039D Rx 5  5E 55 41 28 00 
    495       494.876 DT     0129 Rx 8  5E 26 4F 20 FF 1F FF 3F 
    496       496.059 DT     010A Rx 7  17 A5 52 62 61 51 01 
    497       496.279 DT     010B Rx 7  0F 05 00 00 F0 FF 0F 
    498       496.499 DT     010C Rx 7  83 F5 A0 30 21 90 00 
    499       496.717 DT     010D Rx 7  D2 E5 70 71 F0 FF 0F 
    500       496.869 DT     0219 Rx 3  0A 00 25 
    501       497.113 DT     0239 Rx 8  00 00 64 7D 7D 7D F0 20 
    502       497.357 DT     0247 Rx 8  03 00 1B 00 00 40 FC 00 
    503       497.605 DT     024A Rx 8  00 00 01 0F 1F 00 00 00 
    504       497.724 DT     025B Rx 1  00 
    505       497.934 DT     025D Rx 6  00 00 FF 00 00 00 
    506       498.128 DT     03DF Rx 5  00 00 04 00 01 
    507       498.338 DT     03F4 Rx 6  07 FE 60 02 C8 01 
    508       498.564 DT     0293 Rx 8  01 0C 55 91 55 15 A4 96 
    509       498.808 DT     03FA Rx 8  01 01 02 02 04 02 05 FF 
    510       499.044 DT     0102 Rx 8  22 33 00 00 E8 38 11 08 
    511       499.290 DT     03FE Rx 8  00 40 00 00 00 00 B1 F2 
    512       499.424 DT     0410 Rx 2  45 00 
    513       499.675 DT     0428 Rx 8  00 00 00 00 00 38 1F 00 
    514       499.899 DT     0499 Rx 8  76 77 77 6B 6C 71 71 6D 
    515       500.145 DT     0549 Rx 8  00 03 00 00 00 00 00 00 
    516       501.039 DT     02B9 Rx 8  00 00 D8 25 2A 9A 5A D6 
    517       503.197 DT     02E1 Rx 8  29 0A A3 6A 17 00 00 00 
    518       503.433 DT     0103 Rx 8  11 30 00 00 96 12 11 02 
    519       504.889 DT     0129 Rx 8  20 27 4F 20 00 20 FF 3F 
    520       509.150 DT     020E Rx 8  99 C6 E8 62 05 E2 05 A5 
    521       509.418 DT     021E Rx 8  00 00 00 00 00 00 80 44 
    522       509.671 DT     022E Rx 8  6E 66 A0 48 41 C3 10 00 
    523       509.923 DT     023E Rx 8  28 C6 63 95 01 6E 46 DB 
    524       510.191 DT     024E Rx 8  02 80 00 04 00 00 00 00 
    525       510.453 DT     025E Rx 8  02 20 00 81 00 20 00 81 
    526       510.715 DT     026E Rx 8  07 00 FE EF FF FE EF FF 
    527       510.924 DT     032E Rx 5  00 5D 30 21 DF 
    528       511.090 DT     0488 Rx 4  40 00 04 D0 
    529       511.280 DT     033E Rx 5  00 FF FF 21 60 
    530       511.484 DT     034E Rx 5  59 9E 21 02 6B 
    531       511.690 DT     035E Rx 5  28 25 26 02 D6 
    532       511.926 DT     039E Rx 6  FF FF FF FF F2 09 
    533       512.633 DT     02A8 Rx 8  C2 00 00 00 00 80 90 7C 
    534       515.093 DT     0129 Rx 8  F7 28 4F 20 00 20 FF 3F 
    535       515.805 DT     0249 Rx 4  3F 08 00 00 
    536       518.947 DT     02E1 Rx 8  02 00 00 00 00 00 01 00 
    537       519.892 DT     0545 Rx 8  80 01 31 B0 A1 0E 9A F5 
    538       524.102 DT     03C2 Rx 8  00 55 55 55 00 00 55 45 
    539       524.744 DT     025F Rx 8  DF 8C 01 C3 44 C1 0A E0 
    540       524.978 DT     0129 Rx 8  CB 29 4F 20 FF 1F FF 3F 
    541       529.164 DT     026E Rx 8  08 00 FE EF FF FE EF FF 
    542       530.994 DT     0488 Rx 4  40 00 05 D1 
    543       533.088 DT     039D Rx 5  5F 56 41 28 00 
    544       534.880 DT     0129 Rx 8  14 2A 4F 20 FF 1F FF 3F 
    545       535.357 DT     02E1 Rx 8  03 6C 00 02 2C 45 00 00 
    546       535.997 DT     010A Rx 7  18 A6 52 62 61 51 01 
    547       536.213 DT     010B Rx 7  10 06 00 00 F0 FF 0F 
    548       536.429 DT     010C Rx 7  84 F6 A0 30 21 90 00 
    549       536.647 DT     010D Rx 7  D3 E6 70 71 F0 FF 0F 
    550       536.795 DT     0219 Rx 3  0B 00 26 
    551       537.041 DT     03FE Rx 8  00 40 00 00 00 00 C1 02 
    552       537.277 DT     0221 Rx 8  40 41 05 05 00 50 B1 AF 
    553       538.046 DT     0228 Rx 2  70 9A 
    554       538.282 DT     07FF Rx 8  03 31 08 A1 E0 42 16 41 
    555       538.516 DT     0318 Rx 8  16 03 17 0F 11 18 0F 92 
    556       538.650 DT     0418 Rx 2  72 06 
    557       538.766 DT     0128 Rx 1  00 
    558       541.046 DT     02B9 Rx 8  00 00 D8 25 2A 9A 7A F6 
    559       543.624 DT     03C3 Rx 8  00 00 00 00 00 49 00 00 
    560       544.889 DT     0129 Rx 8  8C 2B 4F 20 00 20 FF 3F 
    561       547.701 DT     02D1 Rx 2  7F 01 
    562       549.137 DT     020E Rx 8  99 C6 E8 62 05 E2 45 E5 
    563       549.403 DT     021E Rx 8  00 00 00 00 00 00 80 55 
    564       549.655 DT     022E Rx 8  6E 66 A0 48 41 C3 50 40 
    565       549.907 DT     023E Rx 8  28 C6 63 95 01 6E 56 EB 
    566       550.167 DT     026E Rx 8  09 00 FE EF FF FE EF FF 
    567       550.996 DT     0488 Rx 4  40 00 06 D2 
    568       551.226 DT     02E1 Rx 8  FC 19 11 0A 9E 11 0A 00 
    569       552.982 DT     0545 Rx 8  01 00 00 00 00 10 A0 FB 
    570       554.880 DT     0129 Rx 8  EC 2C 4F 20 00 20 FF 3F 
    571       563.089 DT     0419 Rx 1  00 
    572       564.886 DT     0129 Rx 8  FE 2D 4F 20 00 20 FF 3F 
    573       565.410 DT     0249 Rx 4  5E 09 00 00 
    574       566.928 DT     02E1 Rx 8  05 00 00 00 00 00 00 00 
    575       567.368 DT     02E8 Rx 8  C2 00 00 00 00 80 90 BC 
    576       568.984 DT     027D Rx 3  01 0B 8B 
    577       569.222 DT     026E Rx 8  0A 00 FE EF FF FE EF FF 
    578       570.996 DT     0488 Rx 4  40 00 07 D3 
    579       573.072 DT     039D Rx 5  60 57 41 28 00 
    580       573.321 DT     035D Rx 8  00 00 00 00 00 00 00 00 
    581       573.988 DT     03C2 Rx 8  29 55 00 00 00 00 00 00 
    582       574.909 DT     0129 Rx 8  21 2E 4F 20 00 20 FF 3F 
    583       575.997 DT     010A Rx 7  19 A7 52 62 61 51 01 
    584       576.215 DT     010B Rx 7  11 07 00 00 F0 FF 0F 
    585       576.435 DT     010C Rx 7  85 F7 A0 30 21 90 00 
    586       576.651 DT     010D Rx 7  D4 E7 70 71 F0 FF 0F 
    587       576.799 DT     0219 Rx 3  0C 00 27 
    588       577.041 DT     03FE Rx 8  00 40 00 00 00 00 D1 12 
    589       580.052 DT     0420 Rx 6  28 01 40 4B 00 B0 
    590       581.056 DT     0259 Rx 8  D3 C0 02 00 00 00 60 50 
    591       581.286 DT     02B9 Rx 8  00 00 D8 25 2A 9A 9A 16 
    592       581.516 DT     0399 Rx 8  F0 20 C0 E0 B0 C8 77 3B 
    593       581.662 DT     0413 Rx 3  49 49 4B 
    594       582.978 DT     02E1 Rx 8  10 21 04 00 00 00 26 08 
    595       583.168 DT     03CB Rx 5  00 00 00 00 01 
    596       584.889 DT     0129 Rx 8  D0 2F 4F 20 00 20 FF 3F 
    597       585.935 DT     0545 Rx 8  02 00 14 00 00 00 B0 10 
    598       587.163 DT     0221 Rx 8  41 01 55 00 00 00 C0 7A 
    599       588.171 DT     0405 Rx 8  11 33 45 37 46 41 30 4D 
    600       589.137 DT     020E Rx 8  99 C6 E8 62 05 E2 85 25 
    601       589.401 DT     021E Rx 8  00 00 00 00 00 00 80 66 
    602       589.651 DT     022E Rx 8  6E 66 A0 48 41 C3 90 80 
    603       589.907 DT     023E Rx 8  28 C6 63 95 01 6E 66 FB 
    604       590.170 DT     026E Rx 8  0B 00 FE EF FF FE EF FF 
    605       590.952 DT     0409 Rx 1  00 
    606       591.066 DT     0415 Rx 1  45 
    607       591.232 DT     0488 Rx 4  40 00 08 D4 
    608       591.482 DT     0720 Rx 8  00 00 00 00 00 00 00 00 
    609       594.888 DT     0129 Rx 8  35 20 4F 20 00 20 FF 3F 
    610       596.048 DT     0239 Rx 8  00 00 64 7D 7D 7D F0 30 
    611       596.293 DT     0247 Rx 8  03 00 1B 00 00 40 FC 00 
    612       596.541 DT     024A Rx 8  00 00 01 0F 1F 00 00 00 
    613       598.969 DT     0102 Rx 8  22 33 00 00 E8 38 11 08 
    614       599.267 DT     02E1 Rx 8  29 0A A3 6A 17 00 00 00 
    615       603.543 DT     0103 Rx 8  11 30 00 00 96 12 11 02 
    616       604.883 DT     0129 Rx 8  22 21 4F 20 00 20 FF 3F 
    617       609.161 DT     024E Rx 8  03 80 00 04 00 00 00 00 
    618       609.427 DT     025E Rx 8  03 20 00 81 00 20 00 81 
    619       609.680 DT     026E Rx 8  20 00 7A 77 84 7B 17 7B 
    620       609.888 DT     032E Rx 5  00 5D 30 31 EF 
    621       610.100 DT     033E Rx 5  00 FF FF 31 70 
    622       610.306 DT     034E Rx 5  59 9E 21 03 6C 
    623       610.516 DT     035E Rx 5  28 25 26 03 D7 
    624       610.751 DT     039E Rx 6  FF FF FF FF 03 0A 
    625       611.029 DT     0488 Rx 4  40 00 09 D5 
    626       612.635 DT     02A8 Rx 8  C2 00 00 00 00 80 A0 8C 
    627       613.099 DT     039D Rx 5  61 58 41 28 00 
    628       614.879 DT     0129 Rx 8  6B 22 4F 20 00 20 FF 3F 
    629       615.841 DT     0249 Rx 4  E2 0A 00 00 
    630       616.053 DT     010A Rx 7  1A A8 52 62 61 51 01 
    631       616.274 DT     010B Rx 7  12 08 00 00 F0 FF 0F 
    632       616.496 DT     010C Rx 7  86 F8 A0 30 21 90 00 
    633       616.715 DT     010D Rx 7  D5 E8 70 71 F0 FF 0F 
    634       616.863 DT     0219 Rx 3  0D 00 28 
    635       617.107 DT     02E1 Rx 8  02 00 00 00 00 00 01 00 
    636       617.349 DT     03FE Rx 8  00 40 00 00 00 00 E1 22 
    637       619.243 DT     0545 Rx 8  D0 01 31 80 A1 0B CA 42 
    638       621.047 DT     02B9 Rx 8  00 00 D8 25 2A 9A BA 36 
    639       623.528 DT     025F Rx 8  DF 8C 01 C3 44 C1 0A E0 
    640       624.444 DT     03C2 Rx 8  00 55 55 55 00 00 55 45 
    641       625.024 DT     0129 Rx 8  7C 23 4F 20 00 20 FF 3F 
    642       629.136 DT     020E Rx 8  99 C6 E8 62 05 E2 C5 65 
    643       629.400 DT     021E Rx 8  00 00 00 00 00 00 80 77 
    644       629.648 DT     022E Rx 8  6E 66 A0 48 41 C3 D0 C0 
    645       629.902 DT     023E Rx 8  28 C6 63 95 01 6E 76 0B 
    646       630.155 DT     026E Rx 8  21 00 0F EA 79 36 DA 85 
    647       630.939 DT     02E1 Rx 8  03 6C 00 02 2C 45 00 00 
    648       631.105 DT     0488 Rx 4  40 00 0A D6 
    649       634.885 DT     0129 Rx 8  FA 24 4F 20 00 20 FF 3F 
    650       637.159 DT     0221 Rx 8  40 41 05 05 00 50 D1 CF 
    651       638.051 DT     0228 Rx 2  80 AA 
    652       638.284 DT     07FF Rx 8  04 CC 16 54 61 12 B4 2A 
    653       638.516 DT     0318 Rx 8  16 03 17 0F 11 18 11 94 
    654       638.656 DT     0418 Rx 2  82 06 
    655       638.772 DT     0128 Rx 1  00 
    656       643.356 DT     03C3 Rx 8  55 55 55 01 00 00 00 00 
    657       644.883 DT     0129 Rx 8  ED 25 4F 20 00 20 FF 3F 
    658       646.223 DT     03F3 Rx 3  10 1B 00 
    659       646.461 DT     03F8 Rx 8  03 28 80 00 59 29 15 20 
    660       647.451 DT     02E1 Rx 8  FC 19 13 0A 9E 16 0A 00 
    661       647.733 DT     02D1 Rx 2  7F 01 
    662       649.154 DT     026E Rx 8  22 00 B1 D9 87 84 19 8A 
    663       651.000 DT     0488 Rx 4  40 00 0B D7 
    664       651.936 DT     0545 Rx 8  01 00 00 00 00 10 D0 2B 
    665       653.066 DT     039D Rx 5  62 59 41 28 00 
    666       654.874 DT     0129 Rx 8  5E 26 4F 20 FF 1F FF 3F 
    667       656.000 DT     010A Rx 7  1B A9 52 62 61 51 01 
    668       656.214 DT     010B Rx 7  13 09 00 00 F0 FF 0F 
    669       656.432 DT     010C Rx 7  87 F9 A0 30 21 90 00 
    670       656.652 DT     010D Rx 7  D6 E9 70 71 F0 FF 0F 
    671       656.801 DT     0219 Rx 3  0E 00 29 
    672       657.045 DT     03FE Rx 8  00 40 00 00 00 00 F1 32 
    673       661.045 DT     02B9 Rx 8  00 00 D8 25 2A 9A DA 56 
    674       662.993 DT     02E1 Rx 8  05 00 00 00 00 00 00 00 
    675       663.109 DT     0419 Rx 1  00 
    676       664.887 DT     0129 Rx 8  20 27 4F 20 00 20 FF 3F 
    677       665.403 DT     0249 Rx 4  28 0B 00 00 
    678       667.333 DT     02E8 Rx 8  C2 00 00 00 00 80 A0 CC 
    679       668.986 DT     027D Rx 3  01 0C 8C 
    680       669.214 DT     020E Rx 8  99 C6 E8 62 05 E2 05 A5 
    681       669.478 DT     021E Rx 8  00 00 00 00 00 00 80 88 
    682       669.728 DT     022E Rx 8  6E 66 A0 48 41 C3 10 00 
    683       669.980 DT     023E Rx 8  28 C6 63 95 01 6E 86 1B 
    684       670.240 DT     026E Rx 8  03 00 FE EF FF FE EF FF 
    685       671.006 DT     0488 Rx 4  40 00 0C D8 
    686       674.242 DT     03C2 Rx 8  29 55 00 00 00 00 00 00 
    687       674.912 DT     0129 Rx 8  F7 28 4F 20 00 20 FF 3F 
    688       678.956 DT     02E1 Rx 8  10 21 04 00 00 00 26 08 
    689       680.054 DT     0420 Rx 6  28 01 40 4B 00 C0 
    690       681.030 DT     0259 Rx 8  D3 C0 02 00 00 00 70 60 
    691       683.078 DT     03CB Rx 5  00 00 00 00 01 
    692       684.883 DT     0129 Rx 8  A2 29 4F 20 00 20 FF 3F 
    693       685.131 DT     0545 Rx 8  02 00 1C 00 00 00 E0 48 
    694       687.157 DT     0221 Rx 8  41 01 55 00 00 00 E0 9A 
    695       689.163 DT     026E Rx 8  04 00 FE EF FF FE EF FF 
    696       690.955 DT     0409 Rx 1  00 
    697       691.121 DT     0488 Rx 4  40 00 0D D9 
    698       691.372 DT     0720 Rx 8  00 00 00 00 00 00 00 00 
    699       693.104 DT     039D Rx 5  63 5A 41 28 00 
    700       694.884 DT     0129 Rx 8  D0 2A 4F 20 01 20 FF 3F 
    701       695.568 DT     02E1 Rx 8  29 0A A3 6A 17 00 00 00 
    702       696.012 DT     004F Rx 8  1B 1E E8 02 9C E7 0A 96 
    703       696.226 DT     010A Rx 7  1C AA 52 62 61 51 01 
    704       696.442 DT     010B Rx 7  14 0A 00 00 F0 FF 0F 
    705       696.662 DT     010C Rx 7  88 FA A0 30 21 90 00 
    706       696.880 DT     010D Rx 7  D7 EA 70 71 F0 FF 0F 
    707       697.033 DT     0219 Rx 3  0F 00 2A 
    708       697.279 DT     03B8 Rx 8  00 00 74 74 00 00 00 00 
    709       697.525 DT     03FE Rx 8  00 40 00 00 00 00 01 42 
    710       697.771 DT     0239 Rx 8  00 00 64 7D 7D 7D F0 40 
    711       698.015 DT     0247 Rx 8  03 00 1B 00 00 40 FC 00 
    712       698.263 DT     024A Rx 8  00 00 01 0F 1F 00 00 00 
    713       698.503 DT     0334 Rx 8  3F 3F C8 00 E2 3F 60 FE 
    714       698.750 DT     03FD Rx 8  00 00 00 42 60 01 02 80 
    715       698.988 DT     0102 Rx 8  22 33 00 00 E8 38 11 08 
    716       701.048 DT     02B9 Rx 8  00 00 D8 25 2A 9A FA 76 
    717       703.350 DT     0103 Rx 8  11 30 00 00 96 14 11 02 
    718       704.886 DT     0129 Rx 8  8C 2B 4F 20 00 20 FF 3F 
    719       709.152 DT     020E Rx 8  99 C6 E8 62 05 02 46 06 
    720       709.426 DT     021E Rx 8  00 00 00 00 00 00 80 99 
    721       709.680 DT     022E Rx 8  6E 66 A0 48 41 C3 50 40 
    722       709.935 DT     023E Rx 8  28 C6 63 95 01 6E 96 2B 
    723       710.203 DT     024E Rx 8  00 80 00 04 00 00 00 00 
    724       710.467 DT     025E Rx 8  00 20 00 81 00 20 00 81 
    725       710.729 DT     026E Rx 8  05 00 FE EF FF FE EF FF 
    726       710.997 DT     030E Rx 8  00 00 05 01 00 00 30 47 
    727       711.241 DT     02E1 Rx 8  02 00 00 00 00 00 01 00 
    728       711.440 DT     031E Rx 6  01 20 8F 15 1A 1E 
    729       711.606 DT     0488 Rx 4  40 00 0E DA 
    730       711.840 DT     0326 Rx 8  0D 00 00 00 07 14 43 64 
    731       712.134 DT     032E Rx 5  00 5D 30 41 FF 
    732       712.400 DT     033E Rx 5  00 FF FF 41 80 
    733       712.642 DT     02A8 Rx 8  C2 00 00 00 00 80 B0 9C 
    734       712.820 DT     034E Rx 5  59 9E 21 04 6D 
    735       713.070 DT     035E Rx 5  28 25 26 04 D8 
    736       713.349 DT     037E Rx 8  00 00 00 00 00 00 00 00 
    737       713.585 DT     039E Rx 6  FF FF FF FF 14 0A 
    738       714.879 DT     0129 Rx 8  EC 2C 4F 20 00 20 FF 3F 
    739       715.589 DT     0249 Rx 4  3A 0C 00 00 
    740       717.927 DT     0545 Rx 8  40 01 31 60 A1 05 FA BC 
    741       721.039 DT     03FE Rx 8  00 40 00 00 00 00 10 51 
    742       721.283 DT     0389 Rx 8  00 00 00 60 00 80 2F 9B 
    743       723.848 DT     025F Rx 8  DF 8C 01 C3 44 C1 0A E0 
    744       724.312 DT     03C2 Rx 8  00 55 55 55 00 00 55 45 
    745       724.957 DT     0129 Rx 8  53 2D 4F 20 01 20 FF 3F 
    746       726.923 DT     02E1 Rx 8  03 6C 00 02 2C 45 00 00 
    747       729.163 DT     026E Rx 8  06 00 FE EF FF FE EF FF 
    748       730.999 DT     0488 Rx 4  40 00 0F DB 
    749       733.073 DT     039D Rx 5  64 5B 41 28 00 
    750       734.888 DT     0129 Rx 8  21 2E 4F 20 00 20 FF 3F 
    751       736.000 DT     010A Rx 7  1D AB 52 62 61 51 01 
    752       736.216 DT     010B Rx 7  15 0B 00 00 F0 FF 0F 
    753       736.438 DT     010C Rx 7  89 FB A0 30 21 90 00 
    754       736.656 DT     010D Rx 7  D8 EB 70 71 F0 FF 0F 
    755       736.806 DT     0219 Rx 3  00 00 1B 
    756       737.160 DT     0221 Rx 8  40 41 05 05 00 50 F1 EF 
    757       738.058 DT     0228 Rx 2  90 BA 
    758       738.304 DT     07FF Rx 8  05 08 A0 40 00 00 00 00 
    759       738.537 DT     0318 Rx 8  16 03 17 0F 11 18 13 96 
    760       738.671 DT     0418 Rx 2  92 06 
    761       738.787 DT     0128 Rx 1  00 
    762       741.043 DT     02B9 Rx 8  00 00 D8 25 2A 9A 1A 96 
    763       743.205 DT     02E1 Rx 8  FC 19 10 0A 9E 14 0A 00 
    764       743.462 DT     03C3 Rx 8  00 00 00 00 00 49 00 00 
    765       744.942 DT     0129 Rx 8  D0 2F 4F 20 00 20 FF 3F 
    766       746.594 DT     03FD Rx 8  01 00 0A 00 00 00 02 80 
    767       747.722 DT     02D1 Rx 2  7F 01 
    768       749.138 DT     020E Rx 8  99 C6 E8 62 05 02 86 46 
    769       749.402 DT     021E Rx 8  00 00 00 00 00 00 80 AA 
    770       749.652 DT     022E Rx 8  6E 66 A0 48 41 C3 90 80 
    771       749.907 DT     023E Rx 8  28 C6 63 95 01 6E A6 3B 
    772       750.169 DT     026E Rx 8  07 00 FE EF FF FE EF FF 
    773       751.009 DT     0488 Rx 4  40 00 00 CC 
    774       751.253 DT     0545 Rx 8  01 00 00 00 00 10 00 5B 
    775       754.887 DT     0129 Rx 8  35 20 4F 20 00 20 FF 3F 
    776       759.263 DT     02E1 Rx 8  05 00 00 00 00 00 00 00 
    777       761.038 DT     03FE Rx 8  00 40 00 00 00 00 20 61 
    778       763.092 DT     0419 Rx 1  00 
    779       764.882 DT     0129 Rx 8  22 21 4F 20 00 20 FF 3F 
    780       765.404 DT     0249 Rx 4  13 0D 00 00 
    781       767.366 DT     02E8 Rx 8  C2 00 00 00 00 80 B0 DC 
    782       768.986 DT     027D Rx 3  01 0D 8D 
    783       769.226 DT     026E Rx 8  08 00 FE EF FF FE EF FF 
    784       771.010 DT     0488 Rx 4  40 00 01 CD 
    785       773.050 DT     039D Rx 5  65 5C 41 28 00 
    786       773.995 DT     03C2 Rx 8  29 55 00 00 00 00 00 00 
    787       774.907 DT     0129 Rx 8  C6 22 4F 20 01 20 FF 3F 
    788       775.159 DT     02E1 Rx 8  10 21 04 00 00 00 26 08 
    789       775.999 DT     010A Rx 7  1E AC 52 62 61 51 01 
    790       776.217 DT     010B Rx 7  16 0C 00 00 F0 FF 0F 
    791       776.435 DT     010C Rx 7  8A FC A0 30 21 90 00 
    792       776.654 DT     010D Rx 7  D9 EC 70 71 F0 FF 0F 
    793       776.804 DT     0219 Rx 3  01 00 1C 
    794       780.053 DT     0420 Rx 6  28 01 40 4B 00 D0 
    795       781.055 DT     0259 Rx 8  D3 C0 02 00 00 00 80 70 
    796       781.285 DT     02B9 Rx 8  00 00 D8 25 2A 9A 3A B6 
    797       783.079 DT     03CB Rx 5  00 00 00 00 01 
    798       783.969 DT     0545 Rx 8  02 00 1C 00 00 00 10 78 
    799       784.881 DT     0129 Rx 8  15 23 4F 20 FF 1F FF 3F 
    800       787.166 DT     0221 Rx 8  41 01 55 00 00 00 00 BA 
    801       789.138 DT     020E Rx 8  99 C6 E8 62 05 02 C6 86 
    802       789.404 DT     021E Rx 8  00 00 00 00 00 00 80 BB 
    803       789.652 DT     022E Rx 8  6E 66 A0 48 41 C3 D0 C0 
    804       789.904 DT     023E Rx 8  28 C6 63 95 05 6E B6 4F 
    805       790.164 DT     026E Rx 8  09 00 FE EF FF FE EF FF 
    806       790.956 DT     0409 Rx 1  00 
    807       791.124 DT     0488 Rx 4  40 00 02 CE 
    808       791.359 DT     02E1 Rx 8  29 0A A3 6A 17 00 00 00 
    809       791.609 DT     0720 Rx 8  00 00 00 00 00 00 00 00 
    810       794.875 DT     0129 Rx 8  93 24 4F 20 FF 1F FF 3F 
    811       796.053 DT     0239 Rx 8  00 00 64 7D 7D 7D F0 50 
    812       796.297 DT     0247 Rx 8  03 00 1B 00 00 40 FC 00 
    813       796.545 DT     024A Rx 8  00 00 01 0F 1F 00 00 00 
    814       796.794 DT     0448 Rx 8  00 00 00 00 00 00 00 4B 
    815       798.976 DT     0102 Rx 8  22 33 00 00 E8 38 11 08 
    816       801.038 DT     03FE Rx 8  00 40 00 00 00 00 30 71 
    817       803.516 DT     0103 Rx 8  11 30 00 00 96 12 11 02 
    818       804.880 DT     0129 Rx 8  40 25 4F 20 01 20 FF 3F 
    819       806.932 DT     02E1 Rx 8  02 00 00 00 00 00 01 00 
    820       809.164 DT     024E Rx 8  01 80 00 04 00 00 00 00 
    821       809.431 DT     025E Rx 8  01 20 00 81 00 20 00 81 
    822       809.691 DT     026E Rx 8  0A 00 FE EF FF FE EF FF 
    823       809.901 DT     032E Rx 5  00 5D 30 51 0F 
    824       810.115 DT     033E Rx 5  00 FF FF 51 90 
    825       810.323 DT     034E Rx 5  59 9E 21 05 6E 
    826       810.531 DT     035E Rx 5  28 25 26 05 D9 
    827       810.763 DT     039E Rx 6  FF FF FF FF 25 0A 
    828       811.034 DT     0488 Rx 4  40 00 03 CF 
    829       812.640 DT     02A8 Rx 8  C2 00 00 00 00 80 C0 AC 
    830       813.080 DT     039D Rx 5  66 5D 41 28 00 
    831       815.072 DT     03C9 Rx 7  03 11 03 06 30 38 00 
    832       815.304 DT     0129 Rx 8  5E 26 4F 20 FF 1F FF 3F 
    833       816.002 DT     010A Rx 7  1F AD 52 62 61 51 01 
    834       816.216 DT     010B Rx 7  17 0D 00 00 F0 FF 0F 
    835       816.437 DT     010C Rx 7  8B FD A0 30 21 90 00 
    836       816.653 DT     010D Rx 7  DA ED 70 71 F0 FF 0F 
    837       816.803 DT     0219 Rx 3  02 00 1D 
    838       816.967 DT     0249 Rx 4  AF 0E 00 00 
    839       817.463 DT     0545 Rx 8  80 01 31 20 A1 0A 2A F1 
    840       821.053 DT     02B9 Rx 8  00 00 D8 25 2A 9A 5A D6 
    841       823.283 DT     02E1 Rx 8  03 6C 00 02 2C 45 00 00 
    842       824.081 DT     025F Rx 8  DF 8C 01 C3 44 C1 0A E0 
    843       824.930 DT     0129 Rx 8  49 27 4F 20 FF 1F FF 3F 
    844       825.574 DT     03C2 Rx 8  00 55 55 55 00 00 55 45 
    845       829.138 DT     020E Rx 8  96 C6 E8 62 05 02 06 C3 
    846       829.406 DT     021E Rx 8  00 00 00 00 00 00 80 CC 
    847       829.656 DT     022E Rx 8  6E 66 A0 48 41 C3 10 00 
    848       829.908 DT     023E Rx 8  28 C6 63 95 01 6E C6 5B 
    849       830.170 DT     026E Rx 8  0B 00 FE EF FF FE EF FF 
    850       831.002 DT     0488 Rx 4  40 00 04 D0 
    851       834.882 DT     0129 Rx 8  F7 28 4F 20 00 20 FF 3F 
    852       837.172 DT     0221 Rx 8  40 41 05 05 00 50 11 0F 
    853       838.356 DT     0405 Rx 8  12 43 33 37 39 34 34 35 
    854       838.488 DT     0228 Rx 2  A0 CA 
    855       838.725 DT     07FF Rx 8  01 91 45 44 42 4C 7A 00 
    856       838.959 DT     0318 Rx 8  16 03 18 0F 11 18 15 99 
    857       839.093 DT     0418 Rx 2  A2 06 
    858       839.209 DT     0128 Rx 1  00 
    859       839.513 DT     02E1 Rx 8  FC 19 11 0A 9E 0C 0A 00 
    860       841.039 DT     03FE Rx 8  00 40 00 00 00 00 40 81 
    861       843.799 DT     03C3 Rx 8  55 55 55 01 00 00 00 00 
    862       844.880 DT     0129 Rx 8  A2 29 4F 20 00 20 FF 3F 
    863       846.280 DT     0238 Rx 8  80 3F 14 C1 1F 00 F4 E1 
    864       846.474 DT     0284 Rx 5  10 00 00 00 00 
    865       847.718 DT     02D1 Rx 2  7F 01 
    866       849.158 DT     026E Rx 8  20 00 7A 77 84 7B 17 7B 
    867       849.932 DT     0545 Rx 8  01 00 00 00 00 10 30 8B 
    868       850.998 DT     0488 Rx 4  40 00 05 D1 
    869       853.092 DT     039D Rx 5  67 5E 41 28 00 
    870       854.887 DT     0129 Rx 8  7D 2A 4F 20 00 20 FF 3F 
    871       855.143 DT     02E1 Rx 8  05 00 00 00 00 00 00 00 
    872       856.005 DT     010A Rx 7  20 AE 52 62 61 51 01 
    873       856.223 DT     010B Rx 7  18 0E 00 00 F0 FF 0F 
    874       856.443 DT     010C Rx 7  8C FE A0 30 21 90 00 
    875       856.663 DT     010D Rx 7  DB EE 70 71 F0 FF 0F 
    876       856.813 DT     0219 Rx 3  03 00 1E 
    877       861.048 DT     02B9 Rx 8  00 00 D8 25 2A 9A 7A F6 
    878       863.096 DT     0419 Rx 1  00 
    879       864.884 DT     0129 Rx 8  8C 2B 4F 20 00 20 FF 3F 
    880       865.404 DT     0249 Rx 4  CE 0F 00 00 
    881       867.392 DT     02E8 Rx 8  C2 00 00 00 00 80 C0 EC 
    882       868.990 DT     027D Rx 3  01 0E 8E 
    883       869.220 DT     020E Rx 8  96 C6 E8 62 05 02 46 03 
    884       869.486 DT     021E Rx 8  00 00 00 00 00 00 80 DD 
    885       869.739 DT     022E Rx 8  6E 66 A0 48 41 C3 50 40 
    886       869.993 DT     023E Rx 8  28 C6 63 95 01 6E D6 6B 
    887       870.247 DT     026E Rx 8  21 00 0F EA 79 35 DA 85 
    888       870.935 DT     0321 Rx 8  F8 D9 A7 7B 02 7A 90 23 
    889       871.101 DT     0488 Rx 4  40 00 06 D2 
    890       871.423 DT     02E1 Rx 8  10 21 04 00 00 00 26 08 
    891       874.248 DT     03C2 Rx 8  29 55 00 00 00 00 00 00 
    892       874.910 DT     0129 Rx 8  85 2C 4F 20 FF 1F FF 3F 
    893       880.056 DT     0420 Rx 6  28 01 40 4B 00 E0 
    894       881.034 DT     0259 Rx 8  D3 C0 02 00 00 00 90 80 
    895       881.278 DT     03FE Rx 8  00 40 00 00 00 00 50 91 
    896       882.988 DT     0545 Rx 8  02 00 18 00 00 00 40 A4 
    897       883.178 DT     03CB Rx 5  00 00 00 00 01 
    898       884.876 DT     0129 Rx 8  53 2D 4F 20 01 20 FF 3F 
    899       887.179 DT     0221 Rx 8  41 01 55 00 00 00 20 DA 
    900       887.415 DT     02E1 Rx 8  29 0A A3 6A 17 00 00 00 
    901       889.160 DT     026E Rx 8  22 00 B1 D9 87 84 19 8A 
    902       890.954 DT     0409 Rx 1  00 
    903       891.122 DT     0488 Rx 4  40 00 07 D3 
    904       891.372 DT     0720 Rx 8  00 00 00 00 00 00 00 00 
    905       893.066 DT     039D Rx 5  68 5F 41 28 00 
    906       894.884 DT     0129 Rx 8  21 2E 4F 20 00 20 FF 3F 
    907       896.005 DT     010A Rx 7  21 AF 52 62 61 51 01 
    908       896.221 DT     010B Rx 7  19 0F 00 00 F0 FF 0F 
    909       896.441 DT     010C Rx 7  8D FF A0 30 21 90 00 
    910       896.659 DT     010D Rx 7  DC EF 70 71 F0 FF 0F 
    911       896.811 DT     0219 Rx 3  04 00 1F 
    912       897.053 DT     0239 Rx 8  00 00 64 7D 7D 7D F0 60 
    913       897.297 DT     0247 Rx 8  03 00 1B 00 00 40 FC 00 
    914       897.545 DT     024A Rx 8  00 00 01 0F 1F 00 00 00 
    915       897.777 DT     0353 Rx 8  7B 0F 39 80 02 0A F8 FB 
    916       898.020 DT     02F8 Rx 8  E7 39 29 00 00 DE 00 1F 
    917       898.982 DT     0102 Rx 8  22 33 00 00 E8 38 11 08 
    918       901.048 DT     02B9 Rx 8  00 00 D8 25 2A 9A 9A 16 
    919       902.994 DT     02E1 Rx 8  02 00 00 00 00 00 01 00 
    920       903.242 DT     035D Rx 8  01 00 00 00 00 00 00 00 
    921       903.524 DT     0103 Rx 8  11 30 00 00 96 12 11 02 
    922       904.873 DT     0129 Rx 8  B9 2F 4F 20 FF 1F FF 3F 
    923       909.154 DT     020E Rx 8  96 C6 E8 62 05 02 86 43 
    924       909.425 DT     021E Rx 8  00 00 00 00 00 00 80 EE 
    925       909.679 DT     022E Rx 8  6E 66 A0 48 41 C3 90 80 
    926       909.931 DT     023E Rx 8  28 C6 63 95 01 6E E6 7B 
    927       910.199 DT     024E Rx 8  02 80 00 04 00 00 00 00 
    928       910.461 DT     025E Rx 8  02 20 00 81 00 20 00 81 
    929       910.721 DT     026E Rx 8  03 00 FE EF FF FE EF FF 
    930       910.929 DT     032E Rx 5  00 5D 30 61 1F 
    931       911.096 DT     0488 Rx 4  40 00 08 D4 
    932       911.284 DT     033E Rx 5  00 FF FF 61 A0 
    933       911.490 DT     034E Rx 5  59 9E 21 06 6F 
    934       911.696 DT     035E Rx 5  28 25 26 06 DA 
    935       911.932 DT     039E Rx 6  FF FF FF FF 36 0A 
    936       912.653 DT     02A8 Rx 8  C2 00 00 00 00 80 D0 BC 
    937       914.892 DT     0129 Rx 8  98 20 4F 20 01 20 FF 3F 
    938       915.848 DT     0249 Rx 4  9B 00 00 00 
    939       917.742 DT     0545 Rx 8  80 01 31 50 A1 08 5A 4F 
    940       919.420 DT     02E1 Rx 8  03 6C 00 02 2C 45 00 00 
    941       921.046 DT     03FE Rx 8  00 40 00 00 00 00 60 A1 
    942       923.851 DT     025F Rx 8  DF 8C 01 C3 44 C1 0A E0 
    943       924.317 DT     03C2 Rx 8  00 55 55 55 00 00 55 45 
    944       924.965 DT     0129 Rx 8  22 21 4F 20 00 20 FF 3F 
    945       926.031 DT     03FC Rx 7  AE 00 00 00 00 00 00 
    946       929.169 DT     026E Rx 8  04 00 FE EF FF FE EF FF 
    947       931.011 DT     0488 Rx 4  40 00 09 D5 
    948       933.089 DT     039D Rx 5  59 50 41 28 00 
    949       934.883 DT     0129 Rx 8  6B 22 4F 20 00 20 FF 3F 
    950       935.360 DT     02E1 Rx 8  FC 19 10 0A 9E 12 0A 00 
    951       936.012 DT     010A Rx 7  12 A0 52 62 61 51 01 
    952       936.236 DT     010B Rx 7  0A 00 00 00 F0 FF 0F 
    953       936.454 DT     010C Rx 7  7E F0 A0 30 21 90 00 
    954       936.674 DT     010D Rx 7  CD E0 70 71 F0 FF 0F 
    955       936.828 DT     0219 Rx 3  05 00 20 
    956       937.192 DT     0221 Rx 8  40 41 05 05 00 50 31 2F 
    957       938.068 DT     0228 Rx 2  B0 DA 
    958       938.302 DT     07FF Rx 8  02 5F 4E AC DE CD D6 30 
    959       938.539 DT     0318 Rx 8  16 03 18 0F 11 18 17 9B 
    960       938.675 DT     0418 Rx 2  B2 06 
    961       938.791 DT     0128 Rx 1  00 
    962       941.057 DT     02B9 Rx 8  00 00 D8 25 2A 9A BA 36 
    963       943.337 DT     03C3 Rx 8  00 00 00 00 00 49 00 00 
    964       944.894 DT     0129 Rx 8  7C 23 4F 20 00 20 FF 3F 
    965       946.106 DT     03DC Rx 8  40 73 93 0A 00 00 00 00 
    966       946.354 DT     03D9 Rx 8  02 00 00 90 00 00 00 00 
    967       946.586 DT     02D3 Rx 8  F6 00 A4 02 12 F2 0B 54 
    968       947.720 DT     02D1 Rx 2  7F 01 
    969       949.065 DT     0545 Rx 8  01 00 00 00 00 10 60 BB 
    970       949.295 DT     020E Rx 8  96 C6 E8 62 05 02 C6 83 
    971       949.563 DT     021E Rx 8  00 00 00 00 00 00 80 FF 
    972       949.811 DT     022E Rx 8  6E 66 A0 48 41 C3 D0 C0 
    973       950.065 DT     023E Rx 8  28 C6 63 95 01 6E F6 8B 
    974       950.327 DT     026E Rx 8  05 00 FE EF FF FE EF FF 
    975       950.956 DT     02E1 Rx 8  05 00 00 00 00 00 00 00 
    976       951.122 DT     0488 Rx 4  40 00 0A D6 
    977       954.886 DT     0129 Rx 8  FA 24 4F 20 00 20 FF 3F 
    978       959.136 DT     030E Rx 8  00 00 05 01 00 00 40 57 
    979       961.044 DT     03FE Rx 8  00 40 00 00 00 00 70 B1 
    980       963.112 DT     0419 Rx 1  00 
    981       964.886 DT     0129 Rx 8  ED 25 4F 20 00 20 FF 3F 
    982       965.416 DT     0249 Rx 4  E8 01 00 00 
    983       966.944 DT     02E1 Rx 8  10 21 04 00 00 00 26 08 
    984       967.414 DT     02E8 Rx 8  C2 00 00 00 00 80 D0 FC 
    985       969.002 DT     027D Rx 3  01 0F 8F 
    986       969.242 DT     026E Rx 8  06 00 FE EF FF FE EF FF 
    987       971.040 DT     05D9 Rx 8  02 00 00 00 41 4E 7A 01 
    988       971.208 DT     0488 Rx 4  40 00 0B D7 
    989       973.098 DT     039D Rx 5  5A 51 41 28 00 
    990       974.017 DT     03C2 Rx 8  29 55 00 00 00 00 00 00 
    991       974.927 DT     0129 Rx 8  37 26 4F 20 00 20 FF 3F 
    992       976.009 DT     010A Rx 7  13 A1 52 62 61 51 01 
    993       976.227 DT     010B Rx 7  0B 01 00 00 F0 FF 0F 
    994       976.449 DT     010C Rx 7  7F F1 A0 30 21 90 00 
    995       976.665 DT     010D Rx 7  CE E1 70 71 F0 FF 0F 
    996       976.817 DT     0219 Rx 3  06 00 21 
    997       980.066 DT     0420 Rx 6  28 01 40 4B 00 F0 
    998       981.064 DT     0259 Rx 8  D3 C0 02 00 00 00 A0 90 
    999       981.296 DT     02B9 Rx 8  00 00 D8 25 2A 9A DA 56 
   1000       982.136 DT     0545 Rx 8  02 00 15 00 00 00 70 D1 
   1001       983.092 DT     03CB Rx 5  00 00 00 00 01 
   1002       983.752 DT     02E1 Rx 8  29 0A A3 6A 17 00 00 00 
   1003       984.878 DT     0129 Rx 8  49 27 4F 20 FF 1F FF 3F 
   1004       986.944 DT     0221 Rx 8  41 01 55 00 00 00 40 FA 
   1005       989.145 DT     020E Rx 8  96 C6 E8 62 05 02 06 C3 
   1006       989.415 DT     021E Rx 8  00 00 00 00 00 00 80 00 
   1007       989.665 DT     022E Rx 8  6E 66 A0 48 41 C3 10 00 
   1008       989.919 DT     023E Rx 8  28 C6 63 95 01 6E 06 9B 
   1009       990.181 DT     026E Rx 8  07 00 FE EF FF FE EF FF 
   1010       990.963 DT     0409 Rx 1  00 
   1011       991.211 DT     0425 Rx 8  00 00 00 00 00 00 00 00 
   1012       991.379 DT     0488 Rx 4  40 00 0C D8 
   1013       991.630 DT     0720 Rx 8  00 00 00 00 00 00 00 00 
   1014       994.888 DT     0129 Rx 8  F7 28 4F 20 00 20 FF 3F 
   1015       996.110 DT     0239 Rx 8  00 00 64 7D 7D 7D F0 70 
   1016       996.354 DT     0247 Rx 8  03 00 1B 00 00 40 FC 00 
   1017       996.602 DT     024A Rx 8  00 00 01 0F 1F 00 00 00 
   1018       996.812 DT     025D Rx 6  00 00 FF 00 00 00 
   1019       997.006 DT     03DF Rx 5  00 00 04 00 01 
   1020       997.250 DT     03FA Rx 8  01 01 02 02 04 02 05 FF 
   1021       997.476 DT     0293 Rx 8  01 0C 55 91 55 15 B4 A6 
   1022       997.611 DT     0410 Rx 2  45 00 
   1023       998.991 DT     0102 Rx 8  22 33 00 00 E8 38 11 08 
   1024       999.319 DT     02E1 Rx 8  02 00 00 00 00 00 01 00 
   1025      1001.047 DT     03FE Rx 8  00 40 00 00 00 00 80 C1 
   1026      1003.523 DT     0103 Rx 8  11 30 00 00 96 14 11 02 
   1027      1004.889 DT     0129 Rx 8  A2 29 4F 20 00 20 FF 3F 
   1028      1009.165 DT     024E Rx 8  03 80 00 04 00 00 00 00 
   1029      1009.430 DT     025E Rx 8  03 20 00 81 00 20 00 81 
   1030      1009.692 DT     026E Rx 8  08 00 FE EF FF FE EF FF 
   1031      1009.898 DT     032E Rx 5  00 5D 30 71 2F 
   1032      1010.116 DT     033E Rx 5  00 FF FF 71 B0 
   1033      1010.324 DT     034E Rx 5  59 9E 21 07 70 
   1034      1010.534 DT     035E Rx 5  28 25 26 07 DB 
   1035      1010.766 DT     039E Rx 6  FF FF FF FF 47 0A 
   1036      1011.039 DT     0488 Rx 4  40 00 0D D9 
   1037      1012.659 DT     02A8 Rx 8  C2 00 00 00 00 80 E0 CC 
   1038      1013.085 DT     039D Rx 5  5B 52 41 28 00 
   1039      1015.101 DT     0129 Rx 8  7D 2A 4F 20 00 20 FF 3F 
   1040      1015.809 DT     0249 Rx 4  2A 02 00 00 
   1041      1016.020 DT     010A Rx 7  14 A2 52 62 61 51 01 
   1042      1016.238 DT     010B Rx 7  0C 02 00 00 F0 FF 0F 
   1043      1016.458 DT     010C Rx 7  80 F2 A0 30 21 90 00 
   1044      1016.678 DT     010D Rx 7  CF E2 70 71 F0 FF 0F 
   1045      1016.830 DT     0219 Rx 3  07 00 22 
   1046      1017.216 DT     02E1 Rx 8  03 6C 00 02 2C 45 00 00 
   1047      1018.064 DT     0545 Rx 8  80 01 31 F0 A1 12 8A 29 
   1048      1021.065 DT     02B9 Rx 8  00 00 D8 25 2A 9A FA 76 
   1049      1021.309 DT     03FE Rx 8  00 40 00 00 00 00 91 D2 
   1050      1023.754 DT     025F Rx 8  DF 8C 01 C3 44 C1 0A E0 
   1051      1024.434 DT     03C2 Rx 8  00 55 55 55 00 00 55 45 
   1052      1025.010 DT     0129 Rx 8  8C 2B 4F 20 00 20 FF 3F 
   1053      1029.144 DT     020E Rx 8  96 C6 E8 62 05 02 46 03 
   1054      1029.410 DT     021E Rx 8  00 00 00 00 00 00 80 11 
   1055      1029.662 DT     022E Rx 8  6E 66 A0 48 41 C3 50 40 
   1056      1029.914 DT     023E Rx 8  28 C6 63 95 01 6E 16 AB 
   1057      1030.175 DT     026E Rx 8  09 00 FE EF FF FE EF FF 
   1058      1031.013 DT     0488 Rx 4  40 00 0E DA 
   1059      1031.299 DT     02E1 Rx 8  FC 19 12 0A 9E 11 0A 00 
   1060      1034.883 DT     0129 Rx 8  EC 2C 4F 20 00 20 FF 3F 
   1061      1037.177 DT     0221 Rx 8  40 41 05 05 00 50 51 4F 
   1062      1038.074 DT     0228 Rx 2  C0 EA 
   1063      1038.310 DT     07FF Rx 8  03 31 08 A1 E0 42 16 41 
   1064      1038.544 DT     0318 Rx 8  16 03 18 0F 11 18 19 9D 
   1065      1038.680 DT     0418 Rx 2  C2 06 
   1066      1038.796 DT     0128 Rx 1  00 
   1067      1043.377 DT     03C3 Rx 8  55 55 55 01 00 00 00 00 
   1068      1044.951 DT     0129 Rx 8  FE 2D 4F 20 00 20 FF 3F 
   1069      1046.953 DT     02E1 Rx 8  05 00 00 00 00 00 00 00 
   1070      1047.719 DT     02D1 Rx 2  7F 01 
   1071      1048.071 DT     0545 Rx 8  01 00 00 00 00 10 90 EB 
   1072      1049.165 DT     026E Rx 8  0A 00 FE EF FF FE EF FF 
   1073      1051.024 DT     0488 Rx 4  40 00 0F DB 
   1074      1053.083 DT     039D Rx 5  5C 53 41 28 00 
   1075      1054.890 DT     0129 Rx 8  21 2E 4F 20 00 20 FF 3F 
   1076      1056.014 DT     010A Rx 7  15 A3 52 62 61 51 01 
   1077      1056.230 DT     010B Rx 7  0D 03 00 00 F0 FF 0F 
   1078      1056.450 DT     010C Rx 7  81 F3 A0 30 21 90 00 
   1079      1056.666 DT     010D Rx 7  D0 E3 70 71 F0 FF 0F 
   1080      1056.816 DT     0219 Rx 3  08 00 23 
   1081      1061.056 DT     02B9 Rx 8  00 00 D8 25 2A 9A 1A 96 
   1082      1061.299 DT     03FE Rx 8  00 40 00 00 00 00 A1 E2 
   1083      1063.005 DT     02E1 Rx 8  10 21 04 00 00 00 26 08 
   1084      1063.121 DT     0419 Rx 1  00 
   1085      1064.889 DT     0129 Rx 8  D0 2F 4F 20 00 20 FF 3F 
   1086      1065.399 DT     0249 Rx 4  D3 03 00 00 
   1087      1066.049 DT     03CA Rx 8  00 00 00 00 00 00 00 06 
   1088      1067.387 DT     02E8 Rx 8  C2 00 00 00 00 80 E0 0C 
   1089      1069.002 DT     027D Rx 3  01 00 80 
   1090      1069.236 DT     020E Rx 8  96 C6 E8 62 05 02 86 43 
   1091      1069.500 DT     021E Rx 8  00 00 00 00 00 00 80 22 
   1092      1069.750 DT     022E Rx 8  6E 66 A0 48 41 C3 90 80 
   1093      1070.002 DT     023E Rx 8  28 C6 63 95 01 6E 26 BB 
   1094      1070.264 DT     026E Rx 8  0B 00 FE EF FF FE EF FF 
   1095      1071.022 DT     0488 Rx 4  40 00 00 CC 
   1096      1074.247 DT     03C2 Rx 8  29 55 00 00 00 00 00 00 
   1097      1074.938 DT     0129 Rx 8  35 20 4F 20 00 20 FF 3F 
   1098      1079.190 DT     02E1 Rx 8  29 0A A3 6A 17 00 00 00 
   1099      1080.072 DT     0420 Rx 6  28 01 40 4B 00 00 
   1100      1081.040 DT     0259 Rx 8  D3 C0 02 00 00 00 B0 A0 
   1101      1081.270 DT     0399 Rx 8  F0 20 C0 E0 B0 C8 87 4B 
   1102      1081.421 DT     0413 Rx 3  4B 4B 4B 
   1103      1081.883 DT     0545 Rx 8  02 00 14 00 00 00 A0 00 
   1104      1083.089 DT     03CB Rx 5  00 00 00 00 01 
   1105      1084.885 DT     0129 Rx 8  22 21 4F 20 00 20 FF 3F 
   1106      1087.185 DT     0221 Rx 8  41 01 55 00 00 00 60 1A 
   1107      1088.209 DT     0405 Rx 8  10 00 00 00 00 4C 52 57 
   1108      1089.163 DT     026E Rx 8  20 00 7A 77 84 7B 17 7B 
   1109      1090.966 DT     0409 Rx 1  00 
   1110      1091.080 DT     0415 Rx 1  45 
   1111      1091.250 DT     0488 Rx 4  40 00 01 CD 
   1112      1091.500 DT     0720 Rx 8  00 00 00 00 00 00 00 00 
   1113      1093.058 DT     039D Rx 5  5D 54 41 28 00 
   1114      1094.880 DT     0129 Rx 8  6B 22 4F 20 00 20 FF 3F 
   1115      1095.586 DT     02E1 Rx 8  02 00 00 00 00 00 01 00 
   1116      1096.013 DT     010A Rx 7  16 A4 52 62 61 51 01 
   1117      1096.231 DT     010B Rx 7  0E 04 00 00 F0 FF 0F 
   1118      1096.451 DT     010C Rx 7  82 F4 A0 30 21 90 00 
   1119      1096.669 DT     010D Rx 7  D1 E4 70 71 F0 FF 0F 
   1120      1096.817 DT     0219 Rx 3  09 00 24 
   1121      1097.061 DT     0239 Rx 8  00 00 64 7D 7D 7D F0 80 
   1122      1097.305 DT     0247 Rx 8  03 00 1B 00 00 40 FC 00 
   1123      1097.553 DT     024A Rx 8  00 00 01 0F 1F 00 00 00 
   1124      1097.799 DT     05D9 Rx 8  10 03 03 00 00 00 00 00 
   1125      1099.006 DT     0102 Rx 8  22 33 00 00 E8 38 11 08 
   1126      1101.058 DT     02B9 Rx 8  00 00 D8 25 2A 9A 3A B6 
   1127      1101.304 DT     03FE Rx 8  00 40 00 00 00 00 B1 F2 
   1128      1103.514 DT     0103 Rx 8  11 30 00 00 96 12 11 02 
   1129      1104.900 DT     0129 Rx 8  7C 23 4F 20 00 20 FF 3F 
   1130      1109.154 DT     020E Rx 8  96 C6 E8 62 05 02 C6 83 
   1131      1109.426 DT     021E Rx 8  00 00 00 00 00 00 80 33 
   1132      1109.676 DT     022E Rx 8  6E 66 A0 48 41 C3 D0 C0 
   1133      1109.931 DT     023E Rx 8  28 C6 63 95 01 6E 36 CB 
   1134      1110.199 DT     024E Rx 8  00 80 00 04 00 00 00 00 
   1135      1110.463 DT     025E Rx 8  00 20 00 81 00 20 00 81 
   1136      1110.717 DT     026E Rx 8  21 00 0F EA 79 35 DA 85 
   1137      1110.925 DT     032E Rx 5  00 5D 30 81 3F 
   1138      1111.161 DT     02E1 Rx 8  03 6C 00 02 2C 45 00 00 
   1139      1111.353 DT     033E Rx 5  00 FF FF 81 C0 
   1140      1111.522 DT     0488 Rx 4  40 00 02 CE 
   1141      1111.702 DT     034E Rx 5  59 9E 21 08 71 
   1142      1111.908 DT     035E Rx 5  28 25 26 08 DC 
   1143      1112.144 DT     039E Rx 6  FF FF FF FF 58 0A 
   1144      1112.660 DT     02A8 Rx 8  C2 00 00 00 00 80 F0 DC 
   1145      1113.930 DT     0545 Rx 8  80 01 31 80 A1 0B BA E2 
   1146      1115.103 DT     0129 Rx 8  93 24 4F 20 FF 1F FF 3F 
   1147      1115.815 DT     0249 Rx 4  D3 04 00 00 
   1148      1123.859 DT     025F Rx 8  DF 8C 01 C3 44 C1 0A E0 
   1149      1124.331 DT     03C2 Rx 8  00 55 55 55 00 00 55 45 
   1150      1124.979 DT     0129 Rx 8  ED 25 4F 20 00 20 FF 3F 
   1151      1127.168 DT     02E1 Rx 8  FC 19 11 0A 9E 16 0A 00 
   1152      1129.159 DT     026E Rx 8  22 00 B1 D9 87 84 19 8A 
   1153      1131.037 DT     0488 Rx 4  40 00 03 CF 
   1154      1133.079 DT     039D Rx 5  5E 55 41 28 00 
   1155      1134.885 DT     0129 Rx 8  37 26 4F 20 00 20 FF 3F 
   1156      1136.013 DT     010A Rx 7  17 A5 52 62 61 51 01 
   1157      1136.233 DT     010B Rx 7  0F 05 00 00 F0 FF 0F 
   1158      1136.453 DT     010C Rx 7  83 F5 A0 30 21 90 00 
   1159      1136.671 DT     010D Rx 7  D2 E5 70 71 F0 FF 0F 
   1160      1136.824 DT     0219 Rx 3  0A 00 25 
   1161      1137.420 DT     0221 Rx 8  40 41 05 05 00 50 71 6F 
   1162      1138.080 DT     0228 Rx 2  D0 FA 
   1163      1138.312 DT     07FF Rx 8  04 CC 16 54 61 12 B4 2A 
   1164      1138.550 DT     0318 Rx 8  16 03 18 0F 11 18 1B 9F 
   1165      1138.687 DT     0418 Rx 2  D2 06 
   1166      1138.803 DT     0128 Rx 1  00 
   1167      1141.059 DT     02B9 Rx 8  00 00 D8 25 2A 9A 5A D6 
   1168      1141.305 DT     03FE Rx 8  00 40 00 00 00 00 C1 02 
   1169      1143.221 DT     02E1 Rx 8  05 00 00 00 00 00 00 00 
   1170      1143.689 DT     03C3 Rx 8  00 00 00 00 00 49 00 00 
   1171      1144.889 DT     0129 Rx 8  20 27 4F 20 00 20 FF 3F 
   1172      1146.975 DT     0545 Rx 8  01 00 00 00 00 10 C0 1B 
   1173      1147.732 DT     02D1 Rx 2  7F 01 
   1174      1149.144 DT     020E Rx 8  96 C6 E8 62 05 02 06 C3 
   1175      1149.410 DT     021E Rx 8  00 00 00 00 00 00 80 44 
   1176      1149.660 DT     022E Rx 8  6E 66 A0 48 41 C3 10 00 
   1177      1149.912 DT     023E Rx 8  28 C6 63 95 01 6E 46 DB 
   1178      1150.172 DT     026E Rx 8  03 00 FE EF FF FE EF FF 
   1179      1151.015 DT     0488 Rx 4  40 00 04 D0 
   1180      1154.877 DT     0129 Rx 8  5A 28 4F 20 01 20 FF 3F 
   1181      1159.281 DT     02E1 Rx 8  10 21 04 00 00 00 26 08 
   1182      1163.105 DT     0419 Rx 1  00 
   1183      1164.885 DT     0129 Rx 8  A2 29 4F 20 00 20 FF 3F 
   1184      1165.407 DT     0249 Rx 4  83 05 00 00 
   1185      1167.364 DT     02E8 Rx 8  C2 00 00 00 00 80 F0 1C 
   1186      1169.004 DT     027D Rx 3  01 01 81 
   1187      1169.244 DT     026E Rx 8  04 00 FE EF FF FE EF FF 
   1188      1171.014 DT     0488 Rx 4  40 00 05 D1 
   1189      1173.082 DT     039D Rx 5  5F 56 41 28 00 
   1190      1174.014 DT     03C2 Rx 8  29 55 00 00 00 00 00 00 
   1191      1174.934 DT     0129 Rx 8  D0 2A 4F 20 01 20 FF 3F 
   1192      1175.409 DT     02E1 Rx 8  29 0A A3 6A 17 00 00 00 
   1193      1176.014 DT     010A Rx 7  18 A6 52 62 61 51 01 
   1194      1176.231 DT     010B Rx 7  10 06 00 00 F0 FF 0F 
   1195      1176.447 DT     010C Rx 7  84 F6 A0 30 21 90 00 
   1196      1176.665 DT     010D Rx 7  D3 E6 70 71 F0 FF 0F 
   1197      1176.813 DT     0219 Rx 3  0B 00 26 
   1198      1179.941 DT     0545 Rx 8  02 00 12 00 00 00 D0 2E 
   1199      1180.145 DT     0420 Rx 6  28 01 40 4B 00 10 
   1200      1181.065 DT     0259 Rx 8  D3 C0 02 00 00 00 C0 B0 
   1201      1181.296 DT     02B9 Rx 8  00 00 D8 25 2A 9A 7A F6 
   1202      1181.538 DT     03FE Rx 8  00 40 00 00 00 00 D1 12 
   1203      1183.095 DT     03CB Rx 5  00 00 00 00 01 
   1204      1184.887 DT     0129 Rx 8  8C 2B 4F 20 00 20 FF 3F 
   1205      1187.175 DT     0221 Rx 8  41 01 55 00 00 00 80 3A 
   1206      1189.143 DT     020E Rx 8  96 C6 E8 62 05 02 46 03 
   1207      1189.409 DT     021E Rx 8  00 00 00 00 00 00 80 55 
   1208      1189.661 DT     022E Rx 8  6E 66 A0 48 41 C3 50 40 
   1209      1189.914 DT     023E Rx 8  28 C6 63 95 01 6E 56 EB 
   1210      1190.176 DT     026E Rx 8  05 00 FE EF FF FE EF FF 
   1211      1190.948 DT     02E1 Rx 8  02 00 00 00 00 00 01 00 
   1212      1191.068 DT     0409 Rx 1  00 
   1213      1191.234 DT     0488 Rx 4  40 00 06 D2 
   1214      1191.484 DT     0720 Rx 8  00 00 00 00 00 00 00 00 
   1215      1194.881 DT     0129 Rx 8  EC 2C 4F 20 00 20 FF 3F 
   1216      1196.071 DT     0239 Rx 8  00 00 64 7D 7D 7D F0 90 
   1217      1196.315 DT     0247 Rx 8  03 00 1B 00 00 40 FC 00 
   1218      1196.563 DT     024A Rx 8  00 00 01 0F 1F 00 00 00 
   1219      1196.801 DT     0334 Rx 8  3F 3F C8 00 E2 3F 70 0E 
   1220      1199.001 DT     0102 Rx 8  22 33 00 00 E8 38 11 08 
   1221      1203.545 DT     0103 Rx 8  11 30 00 00 96 14 11 02 
   1222      1204.898 DT     0129 Rx 8  FE 2D 4F 20 00 20 FF 3F 
   1223      1207.178 DT     02E1 Rx 8  03 6C 00 02 2C 45 00 00 
   1224      1209.170 DT     024E Rx 8  01 80 00 04 00 00 00 00 
   1225      1209.436 DT     025E Rx 8  01 20 00 81 00 20 00 81 
   1226      1209.698 DT     026E Rx 8  06 00 FE EF FF FE EF FF 
   1227      1209.970 DT     030E Rx 8  00 00 05 01 00 00 50 67 
   1228      1210.194 DT     031E Rx 6  01 30 9F 15 1A 1E 
   1229      1210.401 DT     032E Rx 5  00 5D 30 91 4F 
   1230      1210.613 DT     033E Rx 5  00 FF FF 91 D0 
   1231      1210.819 DT     034E Rx 5  59 9E 21 09 72 
   1232      1211.027 DT     035E Rx 5  28 25 26 09 DD 
   1233      1211.195 DT     0488 Rx 4  40 00 07 D3 
   1234      1211.399 DT     039E Rx 6  FF FF FF FF 69 0A 
   1235      1212.700 DT     02A8 Rx 8  C2 00 00 00 00 80 00 EC 
   1236      1213.008 DT     0545 Rx 8  40 01 2C 90 A1 08 EA DA 
   1237      1213.190 DT     039D Rx 5  60 57 41 28 00 
   1238      1215.112 DT     0129 Rx 8  21 2E 4F 20 00 20 FF 3F 
   1239      1215.818 DT     0249 Rx 4  4C 06 00 00 
   1240      1216.028 DT     010A Rx 7  19 A7 52 62 61 51 01 
   1241      1216.246 DT     010B Rx 7  11 07 00 00 F0 FF 0F 
   1242      1216.466 DT     010C Rx 7  85 F7 A0 30 21 90 00 
   1243      1216.682 DT     010D Rx 7  D4 E7 70 71 F0 FF 0F 
   1244      1216.831 DT     0219 Rx 3  0C 00 27 
   1245      1221.049 DT     05D9 Rx 8  01 00 00 00 00 08 00 00 
   1246      1221.279 DT     02B9 Rx 8  00 00 D8 25 2A 9A 9A 16 
   1247      1221.521 DT     03FE Rx 8  00 40 00 00 00 00 E1 22 
   1248      1221.761 DT     0389 Rx 8  00 00 00 60 00 80 3F AB 
   1249      1223.421 DT     02E1 Rx 8  FC 19 12 0A 9E 12 0A 00 
   1250      1224.557 DT     03C2 Rx 8  00 55 55 55 00 00 55 45 
   1251      1225.004 DT     0129 Rx 8  D0 2F 4F 20 00 20 FF 3F 
   1252      1225.470 DT     025F Rx 8  DF 8C 01 C3 44 C1 0A E0 
   1253      1229.146 DT     020E Rx 8  96 C6 E8 62 05 02 86 43 
   1254      1229.410 DT     021E Rx 8  00 00 00 00 00 00 80 66 
   1255      1229.660 DT     022E Rx 8  6E 66 A0 48 41 C3 90 80 
   1256      1229.916 DT     023E Rx 8  28 C6 63 95 01 6E 66 FB 
   1257      1230.178 DT     026E Rx 8  07 00 FE EF FF FE EF FF 
   1258      1231.016 DT     0488 Rx 4  40 00 08 D4 
   1259      1233.181 DT     035D Rx 8  02 00 00 00 00 C1 07 00 
   1260      1234.889 DT     0129 Rx 8  35 20 4F 20 00 20 FF 3F 
   1261      1237.185 DT     0221 Rx 8  40 41 05 05 00 50 91 8F 
   1262      1238.082 DT     0228 Rx 2  E0 0A 
   1263      1238.328 DT     07FF Rx 8  05 08 A0 40 00 00 00 00 
   1264      1238.563 DT     0318 Rx 8  16 03 18 0F 11 18 1D A1 
   1265      1238.697 DT     0418 Rx 2  E2 06 
   1266      1238.813 DT     0128 Rx 1  00 
   1267      1239.061 DT     02E1 Rx 8  05 00 00 00 00 00 00 00 
   1268      1243.383 DT     03C3 Rx 8  55 55 55 01 00 00 00 00 
   1269      1244.882 DT     0129 Rx 8  22 21 4F 20 00 20 FF 3F 
   1270      1245.968 DT     0545 Rx 8  01 00 00 00 00 10 F0 4B 
   1271      1247.734 DT     02D1 Rx 2  7F 01 
   1272      1249.168 DT     026E Rx 8  08 00 FE EF FF FE EF FF 
   1273      1251.016 DT     0488 Rx 4  40 00 09 D5 
   1274      1253.040 DT     039D Rx 5  61 58 41 28 00 
   1275      1254.880 DT     0129 Rx 8  6B 22 4F 20 00 20 FF 3F 
   1276      1255.129 DT     02E1 Rx 8  10 21 04 00 00 00 26 08 
   1277      1256.017 DT     010A Rx 7  1A A8 52 62 61 51 01 
   1278      1256.237 DT     010B Rx 7  12 08 00 00 F0 FF 0F 
   1279      1256.459 DT     010C Rx 7  86 F8 A0 30 21 90 00 
   1280      1256.677 DT     010D Rx 7  D5 E8 70 71 F0 FF 0F 
   1281      1256.825 DT     0219 Rx 3  0D 00 28 
   1282      1261.059 DT     02B9 Rx 8  00 00 D8 25 2A 9A BA 36 
   1283      1261.303 DT     03FE Rx 8  00 40 00 00 00 00 F1 32 
   1284      1263.107 DT     0419 Rx 1  00 
   1285      1264.890 DT     0129 Rx 8  7C 23 4F 20 00 20 FF 3F 
   1286      1265.408 DT     0249 Rx 4  5E 07 00 00 
   1287      1267.372 DT     02E8 Rx 8  C2 00 00 00 00 80 00 2C 
   1288      1269.006 DT     027D Rx 3  01 02 82 
   1289      1269.236 DT     020E Rx 8  96 C6 E8 62 05 02 C6 83 
   1290      1269.500 DT     021E Rx 8  00 00 00 00 00 00 80 77 
   1291      1269.748 DT     022E Rx 8  6E 66 A0 48 41 C3 D0 C0 
   1292      1270.002 DT     023E Rx 8  28 C6 63 95 01 6E 76 0B 
   1293      1270.263 DT     026E Rx 8  09 00 FE EF FF FE EF FF 
   1294      1271.029 DT     0488 Rx 4  40 00 0A D6 
   1295      1271.427 DT     02E1 Rx 8  29 0A A3 6A 17 00 00 00 
   1296      1274.263 DT     03C2 Rx 8  29 55 00 00 00 00 00 00 
   1297      1274.933 DT     0129 Rx 8  93 24 4F 20 FF 1F FF 3F 
   1298      1279.244 DT     0545 Rx 8  02 00 10 00 00 00 00 5C 
   1299      1280.072 DT     0420 Rx 6  28 01 40 4B 00 20 
   1300      1281.044 DT     0259 Rx 8  D3 C0 02 00 00 00 D0 C0 
   1301      1283.092 DT     03CB Rx 5  00 00 00 00 01 
   1302      1284.874 DT     0129 Rx 8  84 25 4F 20 FF 1F FF 3F 
   1303      1286.946 DT     02E1 Rx 8  02 00 00 00 00 00 01 00 
   1304      1287.185 DT     0221 Rx 8  41 01 55 00 00 00 A0 5A 
   1305      1289.164 DT     026E Rx 8  0A 00 FE EF FF FE EF FF 
   1306      1290.967 DT     0409 Rx 1  00 
   1307      1291.135 DT     0488 Rx 4  40 00 0B D7 
   1308      1291.386 DT     0720 Rx 8  00 00 00 00 00 00 00 00 
   1309      1293.064 DT     039D Rx 5  62 59 41 28 00 
   1310      1294.882 DT     0129 Rx 8  37 26 4F 20 00 20 FF 3F 
   1311      1296.016 DT     010A Rx 7  1B A9 52 62 61 51 01 
   1312      1296.230 DT     010B Rx 7  13 09 00 00 F0 FF 0F 
   1313      1296.448 DT     010C Rx 7  87 F9 A0 30 21 90 00 
   1314      1296.669 DT     010D Rx 7  D6 E9 70 71 F0 FF 0F 
   1315      1296.817 DT     0219 Rx 3  0E 00 29 
   1316      1297.059 DT     0239 Rx 8  00 00 64 7D 7D 7D F0 A0 
   1317      1297.303 DT     0247 Rx 8  03 00 1B 00 00 40 FC 00 
   1318      1297.551 DT     024A Rx 8  00 00 01 0F 1F 00 00 00 
   1319      1299.003 DT     0102 Rx 8  22 33 00 00 E8 38 11 08 
   1320      1301.067 DT     02B9 Rx 8  00 00 D8 25 2A 9A DA 56 
   1321      1301.313 DT     03FE Rx 8  00 40 00 00 00 00 01 42 
   1322      1303.000 DT     02E1 Rx 8  03 6C 00 02 2C 45 00 00 
   1323      1303.514 DT     0103 Rx 8  11 30 00 00 96 12 11 02 
   1324      1304.906 DT     0129 Rx 8  20 27 4F 20 00 20 FF 3F 
   1325      1309.154 DT     020E Rx 8  96 C6 E8 62 05 02 06 C3 
   1326      1309.420 DT     021E Rx 8  00 00 00 00 00 00 80 88 
   1327      1309.672 DT     022E Rx 8  6E 66 A0 48 41 C3 10 00 
   1328      1309.926 DT     023E Rx 8  28 C6 63 95 05 6E 86 1F 
   1329      1310.194 DT     024E Rx 8  02 80 00 04 00 00 00 00 
   1330      1310.457 DT     025E Rx 8  02 20 00 81 00 20 00 81 
   1331      1310.719 DT     026E Rx 8  0B 00 FE EF FF FE EF FF 
   1332      1310.927 DT     032E Rx 5  00 5D 30 A1 5F 
   1333      1311.095 DT     0488 Rx 4  40 00 0C D8 
   1334      1311.285 DT     033E Rx 5  00 FF FF A1 E0 
   1335      1311.489 DT     034E Rx 5  59 9E 21 0A 73 
   1336      1311.696 DT     035E Rx 5  28 25 26 0A DE 
   1337      1311.938 DT     0545 Rx 8  80 01 31 80 A1 0B 1A 42 
   1338      1312.144 DT     039E Rx 6  FF FF FF FF 7A 0A 
   1339      1312.714 DT     02A8 Rx 8  C2 00 00 00 00 80 10 FC 
   1340      1315.098 DT     0129 Rx 8  F7 28 4F 20 00 20 FF 3F 
   1341      1315.316 DT     03C9 Rx 7  03 11 43 06 30 38 00 
   1342      1315.808 DT     0249 Rx 4  3F 08 00 00 
   1343      1319.449 DT     02E1 Rx 8  FC 19 12 0A 9E 0F 0A 00 
   1344      1321.055 DT     03FE Rx 8  00 40 00 00 00 00 10 51 
   1345      1324.339 DT     03C2 Rx 8  00 55 55 55 00 00 55 45 
   1346      1324.987 DT     0129 Rx 8  A2 29 4F 20 00 20 FF 3F 
   1347      1325.223 DT     025F Rx 8  DF 8C 01 C3 44 C1 0A E0 
   1348      1329.161 DT     026E Rx 8  20 00 7A 77 84 7B 17 7B 
   1349      1331.017 DT     0488 Rx 4  40 00 0D D9 
   1350      1333.106 DT     039D Rx 5  63 5A 41 28 00 
   1351      1334.886 DT     0129 Rx 8  7D 2A 4F 20 00 20 FF 3F 
   1352      1335.142 DT     02E1 Rx 8  05 00 00 00 00 00 00 00 
   1353      1336.018 DT     010A Rx 7  1C AA 52 62 61 51 01 
   1354      1336.234 DT     010B Rx 7  14 0A 00 00 F0 FF 0F 
   1355      1336.454 DT     010C Rx 7  88 FA A0 30 21 90 00 
   1356      1336.672 DT     010D Rx 7  D7 EA 70 71 F0 FF 0F 
   1357      1336.825 DT     0219 Rx 3  0F 00 2A 
   1358      1337.201 DT     0221 Rx 8  40 41 05 05 00 50 B1 AF 
   1359      1338.221 DT     0405 Rx 8  11 33 45 37 46 41 30 4D 
   1360      1338.353 DT     0228 Rx 2  F0 1A 
   1361      1338.589 DT     07FF Rx 8  01 91 45 44 42 4C 7A 00 
   1362      1338.827 DT     0318 Rx 8  16 03 18 0F 11 18 1F A3 
   1363      1338.962 DT     0418 Rx 2  F2 06 
   1364      1339.078 DT     0128 Rx 1  00 
   1365      1341.066 DT     02B9 Rx 8  00 00 D8 25 2A 9A FA 76 
   1366      1343.430 DT     025A Rx 6  00 00 00 00 00 00 
   1367      1343.706 DT     03C3 Rx 8  00 00 00 00 00 49 00 00 
   1368      1344.960 DT     0129 Rx 8  8C 2B 4F 20 00 20 FF 3F 
   1369      1345.213 DT     0545 Rx 8  01 00 00 00 00 10 20 7B 
   1370      1346.052 DT     05D9 Rx 8  03 00 FF 00 00 00 00 00 
   1371      1346.290 DT     0238 Rx 8  80 3F 14 C1 1F 00 04 F1 
   1372      1346.484 DT     0284 Rx 5  10 00 00 00 00 
   1373      1347.728 DT     02D1 Rx 2  7F 01 
   1374      1349.142 DT     020E Rx 8  96 C6 E8 62 05 02 46 03 
   1375      1349.408 DT     021E Rx 8  00 00 00 00 00 00 80 99 
   1376      1349.661 DT     022E Rx 8  6E 66 A0 48 41 C3 50 40 
   1377      1349.915 DT     023E Rx 8  28 C6 63 95 01 6E 96 2B 
   1378      1350.169 DT     026E Rx 8  21 00 0F EA 79 35 DA 85 
   1379      1350.967 DT     02E1 Rx 8  10 21 04 00 00 00 26 08 
   1380      1351.133 DT     0488 Rx 4  40 00 0E DA 
   1381      1354.879 DT     0129 Rx 8  EC 2C 4F 20 00 20 FF 3F 
   1382      1361.056 DT     03FE Rx 8  00 40 00 00 00 00 20 61 
   1383      1363.110 DT     0419 Rx 1  00 
   1384      1364.878 DT     0129 Rx 8  53 2D 4F 20 01 20 FF 3F 
   1385      1365.402 DT     0249 Rx 4  5E 09 00 00 
   1386      1367.188 DT     02E1 Rx 8  29 0A A3 6A 17 00 00 00 
   1387      1367.434 DT     02E8 Rx 8  C2 00 00 00 00 80 10 3C 
   1388      1369.006 DT     027D Rx 3  01 03 83 
   1389      1369.237 DT     026E Rx 8  22 00 B1 D9 87 84 19 8A 
   1390      1371.021 DT     0488 Rx 4  40 00 0F DB 
   1391      1373.075 DT     039D Rx 5  64 5B 41 28 00 
   1392      1374.025 DT     03C2 Rx 8  29 55 00 00 00 00 00 00 
   1393      1374.949 DT     0129 Rx 8  21 2E 4F 20 00 20 FF 3F 
   1394      1376.017 DT     010A Rx 7  1D AB 52 62 61 51 01 
   1395      1376.233 DT     010B Rx 7  15 0B 00 00 F0 FF 0F 
   1396      1376.455 DT     010C Rx 7  89 FB A0 30 21 90 00 
   1397      1376.673 DT     010D Rx 7  D8 EB 70 71 F0 FF 0F 
   1398      1376.824 DT     0219 Rx 3  00 00 1B 
   1399      1377.956 DT     0545 Rx 8  02 00 10 00 00 00 30 8C 
   1400      1380.074 DT     0420 Rx 6  28 01 40 4B 00 30 
   1401      1381.074 DT     0259 Rx 8  D3 C0 02 00 00 00 E0 D0 
   1402      1381.304 DT     02B9 Rx 8  00 00 D8 25 2A 9A 1A 96 
   1403      1383.020 DT     02E1 Rx 8  02 00 00 00 00 00 01 00 
   1404      1383.210 DT     03CB Rx 5  00 00 00 00 01 
   1405      1384.885 DT     0129 Rx 8  D0 2F 4F 20 00 20 FF 3F 
   1406      1386.957 DT     0221 Rx 8  41 01 55 00 00 00 C0 7A 
   1407      1389.147 DT     020E Rx 8  96 C6 E8 62 05 02 86 43 
   1408      1389.411 DT     021E Rx 8  00 00 00 00 00 00 80 AA 
   1409      1389.661 DT     022E Rx 8  6E 66 A0 48 41 C3 90 80 
   1410      1389.915 DT     023E Rx 8  28 C6 63 95 01 6E A6 3B 
   1411      1390.175 DT     026E Rx 8  03 00 FE EF FF FE EF FF 
   1412      1390.971 DT     0409 Rx 1  00 
   1413      1391.141 DT     0488 Rx 4  40 00 00 CC 
   1414      1391.392 DT     0720 Rx 8  00 00 00 00 00 00 00 00 
   1415      1394.886 DT     0129 Rx 8  35 20 4F 20 00 20 FF 3F 
   1416      1396.070 DT     0239 Rx 8  00 00 64 7D 7D 7D F0 B0 
   1417      1396.314 DT     0247 Rx 8  03 00 1B 00 00 40 FC 00 
   1418      1396.562 DT     024A Rx 8  00 00 01 0F 1F 00 00 00 
   1419      1399.004 DT     0102 Rx 8  22 33 00 00 E8 38 11 08 
   1420      1399.241 DT     02E1 Rx 8  03 6C 00 02 2C 45 00 00 
   1421      1401.054 DT     03FE Rx 8  00 40 00 00 00 00 30 71 
   1422      1403.540 DT     0103 Rx 8  11 30 00 00 96 12 11 02 
   1423      1404.938 DT     0129 Rx 8  22 21 4F 20 00 20 FF 3F 
   1424      1409.164 DT     024E Rx 8  03 80 00 04 00 00 00 00 
   1425      1409.428 DT     025E Rx 8  03 20 00 81 00 20 00 81 
   1426      1409.696 DT     026E Rx 8  04 00 FE EF FF FE EF FF 
   1427      1409.902 DT     032E Rx 5  00 5D 30 B1 6F 
   1428      1410.120 DT     033E Rx 5  00 FF FF B1 F0 
   1429      1410.325 DT     034E Rx 5  59 9E 21 0B 74 
   1430      1410.535 DT     035E Rx 5  28 25 26 0B DF 
   1431      1410.767 DT     039E Rx 6  FF FF FF FF 8B 0A 
   1432      1410.999 DT     0545 Rx 8  80 01 31 60 A1 05 4A 4C 
   1433      1411.169 DT     0488 Rx 4  40 00 01 CD 
   1434      1412.675 DT     02A8 Rx 8  C2 00 00 00 00 80 20 0C 
   1435      1413.093 DT     039D Rx 5  65 5C 41 28 00 
   1436      1415.040 DT     0129 Rx 8  6B 22 4F 20 00 20 FF 3F 
   1437      1415.754 DT     0249 Rx 4  E2 0A 00 00 
   1438      1416.016 DT     010A Rx 7  1E AC 52 62 61 51 01 
   1439      1416.234 DT     010B Rx 7  16 0C 00 00 F0 FF 0F 
   1440      1416.452 DT     010C Rx 7  8A FC A0 30 21 90 00 
   1441      1416.670 DT     010D Rx 7  D9 EC 70 71 F0 FF 0F 
   1442      1416.820 DT     0219 Rx 3  01 00 1C 
   1443      1417.409 DT     02E1 Rx 8  FC 19 11 1A 9E 13 0A 00 
   1444      1421.061 DT     02B9 Rx 8  00 00 D8 25 2A 9A 3A B6 
   1445      1423.985 DT     025F Rx 8  DF 8C 01 C3 44 C1 0A E0 
   1446      1424.219 DT     03C2 Rx 8  00 55 55 55 00 00 55 45 
   1447      1425.045 DT     0129 Rx 8  7C 23 4F 20 00 20 FF 3F 
   1448      1429.141 DT     020E Rx 8  96 C6 E8 62 05 02 C6 83 
   1449      1429.407 DT     021E Rx 8  00 00 00 00 00 00 80 BB 
   1450      1429.655 DT     022E Rx 8  6E 66 A0 48 41 C3 D0 C0 
   1451      1429.908 DT     023E Rx 8  28 C6 63 95 01 6E B6 4B 
   1452      1430.170 DT     026E Rx 8  05 00 FE EF FF FE EF FF 
   1453      1431.028 DT     0488 Rx 4  40 00 02 CE 
   1454      1431.320 DT     02E1 Rx 8  05 00 00 00 00 00 00 00 
   1455      1434.872 DT     0129 Rx 8  93 24 4F 20 FF 1F FF 3F 
   1456      1437.194 DT     0221 Rx 8  40 41 05 05 00 50 D1 CF 
   1457      1438.093 DT     0228 Rx 2  00 2A 
   1458      1438.327 DT     07FF Rx 8  02 5F 4E AC DE CD D6 30 
   1459      1438.565 DT     0318 Rx 8  16 03 18 0F 11 18 01 85 
   1460      1438.705 DT     0418 Rx 2  02 06 
   1461      1438.821 DT     0128 Rx 1  00 
   1462      1441.055 DT     03FE Rx 8  00 40 00 00 00 00 40 81 
   1463      1443.391 DT     03C3 Rx 8  55 55 55 01 00 00 00 00 
   1464      1443.977 DT     0545 Rx 8  01 00 00 00 00 10 50 AB 
   1465      1444.880 DT     0129 Rx 8  ED 25 4F 20 00 20 FF 3F 
   1466      1446.974 DT     02E1 Rx 8  10 21 04 00 00 00 26 08 
   1467      1447.738 DT     02D1 Rx 2  7F 01 
   1468      1449.166 DT     026E Rx 8  06 00 FE EF FF FE EF FF 
   1469      1451.054 DT     05D9 Rx 8  34 07 00 00 00 00 00 20 
   1470      1451.228 DT     0488 Rx 4  40 00 03 CF 
   1471      1453.028 DT     039D Rx 5  66 5D 41 28 00 
   1472      1454.881 DT     0129 Rx 8  37 26 4F 20 00 20 FF 3F 
   1473      1456.019 DT     010A Rx 7  1F AD 52 62 61 51 01 
   1474      1456.233 DT     010B Rx 7  17 0D 00 00 F0 FF 0F 
   1475      1456.454 DT     010C Rx 7  8B FD A0 30 21 90 00 
   1476      1456.670 DT     010D Rx 7  DA ED 70 71 F0 FF 0F 
   1477      1456.820 DT     0219 Rx 3  02 00 1D 
   1478      1459.210 DT     030E Rx 8  00 00 05 01 00 00 60 77 
   1479      1461.064 DT     02B9 Rx 8  00 00 D8 25 2A 9A 5A D6 
   1480      1463.122 DT     0419 Rx 1  00 
   1481      1463.358 DT     02E1 Rx 8  29 0A A3 6A 17 00 00 00 
   1482      1464.884 DT     0129 Rx 8  20 27 4F 20 00 20 FF 3F 
   1483      1465.405 DT     0249 Rx 4  28 0B 00 00 
   1484      1467.383 DT     02E8 Rx 8  C2 00 00 00 00 80 20 4C 
   1485      1469.007 DT     027D Rx 3  01 04 84 
   1486      1469.237 DT     020E Rx 8  96 C6 E8 62 05 02 06 C3 
   1487      1469.505 DT     021E Rx 8  00 00 00 00 00 00 80 CC 
   1488      1469.755 DT     022E Rx 8  6E 66 A0 48 41 C3 10 00 
   1489      1470.007 DT     023E Rx 8  28 C6 63 95 01 6E C6 5B 
   1490      1470.255 DT     032B Rx 8  00 00 00 00 00 00 00 00 
   1491      1470.496 DT     026E Rx 8  07 00 FE EF FF FE EF FF 
   1492      1470.746 DT     036C Rx 8  00 00 00 00 00 00 00 00 
   1493      1470.994 DT     0459 Rx 8  00 00 00 00 00 00 00 00 
   1494      1471.244 DT     0350 Rx 8  00 00 00 00 00 00 00 00 
   1495      1471.410 DT     0488 Rx 4  40 00 04 D0 
   1496      1474.264 DT     03C2 Rx 8  29 55 00 00 00 00 00 00 
   1497      1474.948 DT     0129 Rx 8  F7 28 4F 20 00 20 FF 3F 
   1498      1476.959 DT     0545 Rx 8  02 00 10 00 00 00 60 BC 
   1499      1478.975 DT     02E1 Rx 8  02 00 00 00 00 00 01 00 
   1500      1480.073 DT     0420 Rx 6  28 01 40 4B 00 40 
   1501      1481.051 DT     0259 Rx 8  D3 C0 02 00 00 00 F0 E0 
   1502      1481.295 DT     03FE Rx 8  00 40 00 00 00 00 50 91 
   1503      1483.095 DT     03CB Rx 5  00 00 00 00 01 
   1504      1484.881 DT     0129 Rx 8  A2 29 4F 20 00 20 FF 3F 
   1505      1487.428 DT     0221 Rx 8  41 01 55 00 00 00 E0 9A 
   1506      1489.166 DT     026E Rx 8  08 00 FE EF FF FE EF FF 
   1507      1491.104 DT     0329 Rx 8  00 00 00 00 00 00 00 00 
   1508      1491.352 DT     0369 Rx 8  00 00 00 00 00 00 00 00 
   1509      1491.472 DT     0409 Rx 1  00 
   1510      1491.720 DT     0425 Rx 8  00 00 00 00 00 00 00 00 
   1511      1491.970 DT     0429 Rx 8  00 00 00 00 00 00 00 00 
   1512      1492.220 DT     0439 Rx 8  00 00 00 00 00 00 00 00 
   1513      1492.469 DT     0449 Rx 8  00 00 00 00 00 00 00 00 
   1514      1492.719 DT     0479 Rx 8  00 00 00 00 00 00 00 00 
   1515      1492.885 DT     0488 Rx 4  40 00 05 D1 
   1516      1493.067 DT     039D Rx 5  67 5E 41 28 00 
   1517      1493.317 DT     0720 Rx 8  00 00 00 00 00 00 00 00 
   1518      1494.879 DT     0129 Rx 8  D0 2A 4F 20 01 20 FF 3F 
   1519      1495.117 DT     02E1 Rx 8  03 6C 00 02 2C 45 00 00 
   1520      1496.101 DT     010A Rx 7  20 AE 52 62 61 51 01 
   1521      1496.320 DT     010B Rx 7  18 0E 00 00 F0 FF 0F 
   1522      1496.540 DT     010C Rx 7  8C FE A0 30 21 90 00 
   1523      1496.760 DT     010D Rx 7  DB EE 70 71 F0 FF 0F 
   1524      1496.910 DT     0219 Rx 3  03 00 1E 
   1525      1497.152 DT     0239 Rx 8  00 00 64 7D 7D 7D F0 C0 
   1526      1497.396 DT     0247 Rx 8  03 00 1B 00 00 40 FC 00 
   1527      1497.644 DT     024A Rx 8  00 00 01 0F 1F 00 00 00 
   1528      1497.762 DT     025B Rx 1  00 
   1529      1497.973 DT     025D Rx 6  00 00 FF 00 00 00 
   1530      1498.167 DT     03DF Rx 5  00 00 04 00 01 
   1531      1498.371 DT     03F4 Rx 6  04 16 B1 01 7A 00 
   1532      1498.597 DT     0293 Rx 8  01 0C 55 91 55 15 C4 B6 
   1533      1498.841 DT     03FA Rx 8  01 01 02 02 04 02 05 FF 
   1534      1499.077 DT     0102 Rx 8  22 33 00 00 E8 38 11 08 
   1535      1499.211 DT     0410 Rx 2  45 00 
   1536      1499.461 DT     0428 Rx 8  00 00 00 00 00 38 1F 00 
   1537      1499.684 DT     0499 Rx 8  77 77 78 6C 6C 72 71 6D 
   1538      1499.918 DT     0549 Rx 8  01 E4 05 19 26 BF E7 43 
   1539      1501.068 DT     02B9 Rx 8  00 00 D8 25 2A 9A 7A F6 
   1540      1503.542 DT     0103 Rx 8  11 30 00 00 96 14 11 02 
   1541      1504.918 DT     0129 Rx 8  8C 2B 4F 20 00 20 FF 3F 
   1542      1509.151 DT     020E Rx 8  96 C6 E8 62 05 02 46 03 
   1543      1509.419 DT     021E Rx 8  00 00 00 00 00 00 80 DD 
   1544      1509.673 DT     022E Rx 8  6E 66 A0 48 41 C3 50 40 
   1545      1509.927 DT     023E Rx 8  28 C6 63 95 01 6E D6 6B 
   1546      1510.156 DT     0545 Rx 8  D0 01 31 80 A1 0B 7A F2 
   1547      1510.402 DT     024E Rx 8  00 80 00 04 00 00 00 00 
   1548      1510.666 DT     025E Rx 8  00 20 00 81 00 20 00 81 
   1549      1510.926 DT     026E Rx 8  09 00 FE EF FF FE EF FF 
   1550      1511.092 DT     0488 Rx 4  40 00 06 D2 
   1551      1511.320 DT     02E1 Rx 8  FC 19 12 1A 9E 19 0A 00 
   1552      1511.502 DT     032E Rx 5  00 5D 30 C1 7F 
   1553      1511.722 DT     033E Rx 5  00 FF FF C1 00 
   1554      1511.926 DT     034E Rx 5  59 9E 21 0C 75 
   1555      1512.136 DT     035E Rx 5  28 25 26 0C E0 
   1556      1512.369 DT     039E Rx 6  FF FF FF FF 9C 0A 
   1557      1512.677 DT     02A8 Rx 8  C2 00 00 00 00 80 30 1C 
   1558      1514.877 DT     0129 Rx 8  EC 2C 4F 20 00 20 FF 3F 
   1559      1515.579 DT     0249 Rx 4  3A 0C 00 00 
   1560      1521.057 DT     03FE Rx 8  00 40 00 00 00 00 60 A1 
   1561      1524.379 DT     03C2 Rx 8  00 55 55 55 00 00 55 45 
   1562      1524.867 DT     025F Rx 8  DF 8C 01 C3 44 C1 0A E0 
   1563      1525.106 DT     0129 Rx 8  FE 2D 4F 20 00 20 FF 3F 
   1564      1527.272 DT     02E1 Rx 8  05 00 00 00 00 00 00 00 
   1565      1529.166 DT     026E Rx 8  0A 00 FE EF FF FE EF FF 
   1566      1531.024 DT     0488 Rx 4  40 00 07 D3 
   1567      1533.084 DT     039D Rx 5  68 5F 41 28 00 
   1568      1534.884 DT     0129 Rx 8  21 2E 4F 20 00 20 FF 3F 
   1569      1536.020 DT     010A Rx 7  21 AF 52 62 61 51 01 
   1570      1536.236 DT     010B Rx 7  19 0F 00 00 F0 FF 0F 
   1571      1536.456 DT     010C Rx 7  8D FF A0 30 21 90 00 
   1572      1536.674 DT     010D Rx 7  DC EF 70 71 F0 FF 0F 
   1573      1536.827 DT     0219 Rx 3  04 00 1F 
   1574      1537.195 DT     0221 Rx 8  40 41 05 05 00 50 F1 EF 
   1575      1538.099 DT     0228 Rx 2  10 3A 
   1576      1538.335 DT     07FF Rx 8  03 31 08 A1 E0 42 16 41 
   1577      1538.571 DT     0318 Rx 8  16 03 18 0F 11 18 03 87 
   1578      1538.705 DT     0418 Rx 2  12 06 
   1579      1538.821 DT     0128 Rx 1  00 
   1580      1541.064 DT     02B9 Rx 8  00 00 D8 25 2A 9A 9A 16 
   1581      1543.266 DT     02E1 Rx 8  10 21 04 00 00 00 26 08 
   1582      1543.512 DT     03C3 Rx 8  00 00 00 00 00 49 00 00 
   1583      1543.758 DT     0545 Rx 8  01 00 00 00 00 10 80 DB 
   1584      1544.882 DT     0129 Rx 8  D0 2F 4F 20 00 20 FF 3F 
   1585      1547.739 DT     02D1 Rx 2  7F 01 
   1586      1549.145 DT     020E Rx 8  96 C6 E8 62 05 02 86 43 
   1587      1549.409 DT     021E Rx 8  00 00 00 00 00 00 80 EE 
   1588      1549.659 DT     022E Rx 8  6E 66 A0 48 41 C3 90 80 
   1589      1549.911 DT     023E Rx 8  28 C6 63 95 01 6E E6 7B 
   1590      1550.173 DT     026E Rx 8  0B 00 FE EF FF FE EF FF 
   1591      1551.019 DT     0488 Rx 4  40 00 08 D4 
   1592      1554.884 DT     0129 Rx 8  35 20 4F 20 00 20 FF 3F 
   1593      1559.496 DT     02E1 Rx 8  29 0A A3 6A 17 00 00 00 
   1594      1561.052 DT     03FE Rx 8  00 40 00 00 00 00 70 B1 
   1595      1563.125 DT     035D Rx 8  00 00 00 00 00 00 00 00 
