;$FILEVERSION=2.0
;$STARTTIME=44637.6623548843
;$COLUMNS=N,O,T,I,d,l,D
;
;   C:\Users\bayerld\Documents\Tesla\20220317-vehiclecan.trc
;   Start time: 17.03.2022 15:53:47.462.0
;   Generated by PCAN-View v4.2.5.569
;-------------------------------------------------------------------------------
;   Connection                 Bit rate
;   PCANLight_USB_16@pcan_usb  500 kBit/s
;-------------------------------------------------------------------------------
;   Message   Time    Type ID     Rx/Tx
;   Number    Offset  |    [hex]  |  Data Length
;   |         [ms]    |    |      |  |  Data [hex] ...
;   |         |       |    |      |  |  |
;---+-- ------+------ +- --+----- +- +- +- +- -- -- -- -- -- -- --
      1         0.734 DT     02C1 Rx 8  70 CE 39 0D 8E 1F 00 00 
      2         1.210 DT     013D Rx 6  05 20 AA 1A FF 02 
      3         1.457 DT     0339 Rx 8  00 B1 00 00 00 01 40 0F 
      4         1.945 DT     06C8 Rx 8  01 00 00 00 00 00 00 00 
      5         3.823 DT     0242 Rx 2  10 95 
      6         4.389 DT     03C0 Rx 8  06 00 00 00 00 00 00 00 
      7         4.617 DT     0243 Rx 8  F9 00 6F 71 70 71 90 90 
      8         4.859 DT     0201 Rx 8  1E 73 37 03 00 00 00 00 
      9         5.095 DT     0221 Rx 8  41 01 55 00 00 00 E0 9A 
     10         5.339 DT     0677 Rx 8  F8 FF FF FF FF FF FF 3F 
     11         5.578 DT     039A Rx 8  FC FD FD FD FD FD FD 01 
     12         5.810 DT     0129 Rx 8  4B 21 4F 20 FF 1F FF 3F 
     13         6.050 DT     0132 Rx 8  07 8A 00 00 3C 40 00 00 
     14         7.288 DT     0719 Rx 8  01 00 00 00 00 00 00 00 
     15         7.888 DT     02A8 Rx 8  C2 00 00 00 00 80 30 1C 
     16         9.398 DT     0103 Rx 8  12 31 00 00 96 14 11 02 
     17         9.971 DT     0282 Rx 8  64 00 02 08 18 D4 F2 24 
     18        10.977 DT     0360 Rx 8  01 00 00 00 00 00 00 00 
     19        11.195 DT     013D Rx 6  05 20 AA 1A FF 02 
     20        12.135 DT     0419 Rx 1  00 
     21        12.753 DT     02C1 Rx 8  01 00 00 14 28 70 64 00 
     22        12.987 DT     02E1 Rx 8  29 0A A3 6A 17 00 00 00 
     23        13.281 DT     01F9 Rx 6  00 00 00 00 00 00 
     24        13.861 DT     0428 Rx 6  00 00 10 10 00 00 
     25        14.386 DT     0123 Rx 8  00 00 42 12 D2 00 00 80 
     26        14.754 DT     0545 Rx 8  01 00 00 00 00 10 A0 FB 
     27        15.796 DT     0129 Rx 8  6B 22 4F 20 00 20 FF 3F 
     28        16.036 DT     0132 Rx 8  06 8A 01 00 38 40 00 00 
     29        16.186 DT     0229 Rx 3  3B 0F 00 
     30        16.373 DT     0748 Rx 5  2B 22 08 00 00 
     31        16.539 DT     0249 Rx 4  E2 0A 00 00 
     32        16.817 DT     054F Rx 8  00 00 00 00 00 00 00 00 
     33        17.971 DT     0102 Rx 8  22 33 00 00 E8 38 11 08 
     34        18.753 DT     0201 Rx 8  30 07 1E 00 64 43 06 29 
     35        19.287 DT     0439 Rx 8  00 00 20 00 00 00 43 02 
     36        19.521 DT     0263 Rx 8  00 EE 0C F3 E4 7D D5 00 
     37        19.709 DT     03A3 Rx 5  00 D0 00 00 08 
     38        19.843 DT     03A8 Rx 2  00 FF 
     39        20.090 DT     0142 Rx 8  28 00 02 00 00 00 00 00 
     40        20.330 DT     0797 Rx 8  14 09 00 00 00 00 F0 F9 
     41        20.744 DT     0677 Rx 8  01 FF FF FF FF FF FF 00 
     42        20.974 DT     03A1 Rx 8  64 62 0D 98 00 38 02 3B 
     43        21.204 DT     023E Rx 8  28 C6 63 95 05 6E B6 4F 
     44        21.402 DT     013D Rx 6  05 20 AA 1A FF 02 
     45        21.749 DT     0340 Rx 8  07 00 00 00 00 00 00 00 
     46        21.983 DT     0381 Rx 8  35 2E 1F AE 46 1E 80 02 
     47        24.383 DT     0393 Rx 8  06 00 FC E0 07 C0 1E 20 
     48        24.729 DT     02C1 Rx 8  02 74 C4 57 00 80 02 00 
     49        24.933 DT     0122 Rx 6  00 00 12 12 12 00 
     50        25.201 DT     0119 Rx 2  00 00 
     51        25.797 DT     0129 Rx 8  15 23 4F 20 FF 1F FF 3F 
     52        26.036 DT     0132 Rx 8  03 8A 01 00 3A 40 00 00 
     53        26.286 DT     03E8 Rx 8  05 00 00 00 00 00 00 00 
     54        28.748 DT     02E1 Rx 8  02 00 00 00 00 00 01 00 
     55        29.386 DT     020C Rx 8  56 F9 37 1E 00 B1 37 0C 
     56        29.588 DT     0420 Rx 6  28 01 40 4B 00 40 
     57        29.966 DT     03A2 Rx 8  00 E0 72 17 05 00 47 6B 
     58        31.246 DT     075D Rx 8  07 00 FE A8 00 00 00 00 
     59        31.483 DT     021D Rx 8  2D 20 20 14 80 00 60 10 
     60        31.681 DT     013D Rx 6  05 20 AA 1A FF 02 
     61        31.909 DT     025D Rx 8  DB 8C 01 C4 44 C1 0A E0 
     62        32.147 DT     0261 Rx 8  03 00 00 00 00 40 B4 38 
     63        32.387 DT     0272 Rx 8  06 00 FD E8 07 C0 1E 20 
     64        32.506 DT     041D Rx 1  20 
     65        32.742 DT     0473 Rx 8  30 00 00 00 FB 9C 34 62 
     66        32.976 DT     0201 Rx 8  01 64 64 58 72 03 96 00 
     67        33.190 DT     0241 Rx 7  3D 78 6C 0F 1E 5B 00 
     68        33.434 DT     03B3 Rx 8  88 80 05 00 00 00 60 00 
     69        33.588 DT     077D Rx 3  12 00 00 
     70        33.839 DT     027D Rx 8  00 00 00 00 00 00 00 00 
     71        34.037 DT     043D Rx 6  05 20 AA 1A FF 02 
     72        34.207 DT     029D Rx 4  00 00 00 20 
     73        34.443 DT     0243 Rx 8  AE B1 A1 0F 04 00 00 00 
     74        34.579 DT     03E3 Rx 2  00 00 
     75        34.825 DT     07A8 Rx 8  0A 1F 00 70 00 00 00 00 
     76        34.982 DT     07DD Rx 3  FF 00 01 
     77        35.152 DT     02BD Rx 4  00 00 00 00 
     78        35.392 DT     039A Rx 8  FD FD FD FD FD 01 00 00 
     79        35.798 DT     0129 Rx 8  FA 24 4F 20 00 20 FF 3F 
     80        36.042 DT     0132 Rx 8  0E 8A 00 00 39 40 00 00 
     81        36.222 DT     039D Rx 5  65 5C 41 28 00 
     82        36.762 DT     02C1 Rx 8  03 00 40 66 A2 90 34 00 
     83        37.008 DT     0677 Rx 8  02 FF FF FF FF 00 00 00 
     84        37.236 DT     0718 Rx 7  01 FF FF FF FF FF 00 
     85        38.271 DT     0228 Rx 8  03 16 54 48 51 00 01 31 
     86        38.867 DT     01F8 Rx 4  3A 00 00 00 
     87        39.399 DT     04E3 Rx 8  00 8E 03 00 00 00 08 00 
     88        40.039 DT     03C2 Rx 8  00 55 55 55 00 00 55 45 
     89        40.159 DT     0409 Rx 1  00 
     90        41.197 DT     013D Rx 6  05 20 AA 1A FF 02 
     91        41.431 DT     0379 Rx 8  00 00 50 80 9A 19 1A 01 
     92        42.458 DT     0113 Rx 3  01 97 01 
     93        42.704 DT     07FF Rx 8  05 08 A0 40 00 00 00 00 
     94        42.940 DT     0318 Rx 8  16 03 2F 0E 11 35 03 BA 
     95        43.168 DT     0458 Rx 7  02 02 00 80 00 00 00 
     96        43.768 DT     02F1 Rx 8  0C 09 00 50 00 00 00 00 
     97        44.232 DT     07B8 Rx 8  05 40 5A 54 8D 00 F0 12 
     98        44.452 DT     02E3 Rx 7  10 00 00 BE 01 0B 00 
     99        44.732 DT     02E1 Rx 8  03 43 00 02 28 6F 00 00 
    100        45.131 DT     0400 Rx 7  60 60 E0 BF EF FB 00 
    101        45.798 DT     0129 Rx 8  ED 25 4F 20 00 20 FF 3F 
    102        46.036 DT     0132 Rx 8  11 8A 00 00 39 40 00 00 
    103        46.276 DT     0372 Rx 8  04 00 E3 FF FA BB E3 FF 
    104        46.516 DT     03E2 Rx 8  40 15 80 0A 00 00 04 04 
    105        46.776 DT     0201 Rx 8  32 13 20 C0 08 40 BD 01 
    106        47.163 DT     0139 Rx 1  00 
    107        47.761 DT     0545 Rx 8  02 00 35 00 00 00 B0 31 
    108        48.749 DT     02C1 Rx 8  04 CA 03 03 64 C1 39 53 
    109        49.393 DT     0343 Rx 8  00 90 60 EE A2 51 00 00 
    110        49.625 DT     0263 Rx 8  01 E9 12 F2 E4 7D D6 0A 
    111        49.869 DT     02B3 Rx 8  0A 07 24 1E 00 00 00 00 
    112        50.109 DT     01FB Rx 8  01 FE FF B7 6D 0B 00 00 
    113        50.359 DT     06E8 Rx 8  01 00 00 00 00 00 00 00 
    114        50.604 DT     078A Rx 8  01 00 01 00 00 00 01 0D 
    115        51.238 DT     07AA Rx 8  05 03 00 0D D0 08 CE 04 
    116        51.436 DT     013D Rx 6  05 20 AA 1A FF 02 
    117        52.744 DT     0677 Rx 8  FB FF FF FF FF FF FF 27 
    118        52.994 DT     04E2 Rx 8  00 80 01 05 00 00 08 00 
    119        53.290 DT     03DA Rx 8  00 00 00 00 00 00 00 00 
    120        54.385 DT     03C3 Rx 8  00 00 00 00 00 45 00 00 
    121        54.767 DT     03F5 Rx 8  00 C8 19 09 00 00 00 00 
    122        54.999 DT     0221 Rx 8  40 41 05 05 00 50 F1 EF 
    123        55.237 DT     025B Rx 8  D3 C0 02 00 00 00 D0 C0 
    124        55.799 DT     0129 Rx 8  37 26 4F 20 00 20 FF 3F 
    125        56.037 DT     0132 Rx 8  18 8A 01 00 38 40 00 00 
    126        56.282 DT     02E8 Rx 8  C2 00 00 00 00 80 30 5C 
    127        59.310 DT     037A Rx 8  00 00 00 00 00 00 00 00 
    128        59.550 DT     02A7 Rx 8  00 00 00 00 00 86 05 84 
    129        59.796 DT     0553 Rx 8  00 00 00 00 00 00 00 58 
    130        60.028 DT     0262 Rx 8  0B 00 D2 0D 00 F0 D2 12 
    131        60.258 DT     0282 Rx 8  4D 21 10 88 04 01 7A 04 
    132        60.750 DT     02C1 Rx 8  55 00 01 63 A0 00 00 00 
    133        60.988 DT     0201 Rx 8  13 C5 02 00 00 70 FE F9 
    134        61.219 DT     023E Rx 8  28 C6 63 95 01 6E C6 5B 
    135        61.417 DT     013D Rx 6  05 20 AA 1A FF 02 
    136        61.661 DT     02A6 Rx 8  00 00 FF 1F 00 00 00 00 
    137        61.895 DT     02E1 Rx 8  FC 19 28 6A 9F 2C 0A 00 
    138        62.135 DT     0381 Rx 8  16 03 00 19 03 12 00 00 
    139        62.347 DT     0448 Rx 6  00 00 10 10 00 00 
    140        63.473 DT     02C7 Rx 8  00 00 00 00 00 42 41 FF 
    141        63.895 DT     022A Rx 4  00 00 1D 16 
    142        64.385 DT     0383 Rx 8  8B 00 22 80 00 00 00 01 
    143        64.618 DT     0243 Rx 8  CC 80 33 E0 98 36 0E 29 
    144        64.852 DT     0261 Rx 8  00 10 57 00 D6 43 C0 81 
    145        65.372 DT     0359 Rx 8  00 00 00 00 00 00 00 00 
    146        65.610 DT     039A Rx 8  FC FD FD FD FD FD FD 01 
    147        65.848 DT     0129 Rx 8  20 27 4F 20 00 20 FF 3F 
    148        66.088 DT     0132 Rx 8  14 8A 01 00 39 40 00 00 
    149        66.255 DT     0249 Rx 4  28 0B 00 00 
    150        66.387 DT     02D1 Rx 2  7F 01 
    151        66.963 DT     0552 Rx 8  00 00 00 00 00 00 00 57 
    152        68.745 DT     0677 Rx 8  04 0F 00 00 00 00 00 00 
    153        69.347 DT     0423 Rx 6  F0 00 00 00 08 00 
    154        69.959 DT     0142 Rx 8  01 00 40 0A 00 00 00 00 
    155        70.731 DT     03A1 Rx 8  6B 9E 22 01 00 00 10 D2 
    156        71.199 DT     013D Rx 6  05 20 AA 1A FF 02 
    157        71.448 DT     038A Rx 8  00 00 00 00 00 00 00 00 
    158        71.956 DT     0789 Rx 8  54 09 00 00 00 00 00 0C 
    159        72.746 DT     02C1 Rx 8  06 00 00 00 40 00 00 00 
    160        73.908 DT     0422 Rx 6  00 00 10 00 00 00 
    161        74.374 DT     02C3 Rx 8  55 5B A9 36 00 00 12 00 
    162        74.754 DT     0201 Rx 8  74 85 08 00 00 00 00 00 
    163        75.792 DT     0129 Rx 8  5A 28 4F 20 01 20 FF 3F 
    164        76.033 DT     0132 Rx 8  11 8A 01 00 3A 40 00 00 
    165        76.217 DT     039D Rx 5  66 5D 41 28 00 
    166        76.753 DT     0421 Rx 7  00 0A 00 10 00 00 00 
    167        76.979 DT     02D2 Rx 8  D9 29 8D 4E 79 04 6F 01 
    168        77.213 DT     0252 Rx 8  1E 10 C5 05 F4 01 A0 0F 
    169        77.446 DT     0212 Rx 8  B9 24 C4 0F 03 38 18 03 
    170        77.672 DT     0292 Rx 8  4B 5F 5D B5 D4 27 8A 01 
    171        77.920 DT     02E1 Rx 8  05 00 00 00 00 00 00 00 
    172        78.052 DT     02F2 Rx 2  62 01 
    173        78.298 DT     03B2 Rx 8  25 00 00 00 00 00 00 00 
    174        78.550 DT     03C8 Rx 8  00 00 00 00 00 00 00 00 
    175        78.793 DT     042A Rx 8  01 90 00 48 00 24 00 02 
    176        79.399 DT     0263 Rx 8  02 00 00 00 78 0D 00 00 
    177        79.955 DT     03A2 Rx 8  6D 04 00 00 01 70 21 01 
    178        80.727 DT     0545 Rx 8  70 02 31 40 A3 23 CA BD 
    179        80.967 DT     02C2 Rx 8  00 00 00 97 01 00 C0 65 
    180        81.217 DT     013D Rx 6  05 20 AA 1A FF 02 
    181        81.717 DT     0333 Rx 5  84 0A 5A 07 02 
    182        81.962 DT     0334 Rx 8  3F 3F C8 00 E2 3F E0 7E 
    183        83.232 DT     0219 Rx 5  F3 1F FF FF 02 
    184        83.882 DT     0788 Rx 8  10 DD A1 63 00 00 00 10 
    185        84.732 DT     02C1 Rx 8  07 00 0D 13 0E 0D 00 1A 
    186        84.976 DT     0677 Rx 8  05 02 00 28 00 00 00 00 
    187        85.796 DT     0129 Rx 8  A2 29 4F 20 00 20 FF 3F 
    188        86.038 DT     0132 Rx 8  04 8A 01 00 3C 40 00 00 
    189        86.745 DT     0718 Rx 7  02 FF FF FF FF FF FF 
    190        87.199 DT     0399 Rx 3  00 00 00 
    191        87.731 DT     0441 Rx 8  8B C5 44 20 DB 0E 00 57 
    192        88.759 DT     0201 Rx 8  25 85 02 00 00 80 3E FA 
    193        89.349 DT     02F9 Rx 8  D0 FB 07 00 00 00 00 00 
    194        89.881 DT     0288 Rx 8  03 16 54 08 51 00 11 61 
    195        90.123 DT     03C2 Rx 8  29 55 00 00 00 00 00 00 
    196        91.197 DT     013D Rx 6  05 20 AA 1A FF 02 
    197        92.348 DT     02C4 Rx 8  49 D9 FD 2E 9E 84 A5 87 
    198        92.746 DT     02E1 Rx 8  10 21 04 00 00 00 26 08 
    199        92.980 DT     0204 Rx 8  A6 07 46 46 07 07 07 11 
    200        93.204 DT     0264 Rx 6  BA 1B 05 09 A0 00 
    201        93.445 DT     0224 Rx 8  04 08 00 40 19 01 10 08 
    202        93.625 DT     02B4 Rx 5  6B B5 25 E6 00 
    203        94.293 DT     0225 Rx 3  05 45 52 
    204        94.522 DT     0243 Rx 8  F9 00 6F 71 70 71 90 90 
    205        95.334 DT     03F9 Rx 8  05 00 00 00 00 00 00 00 
    206        95.574 DT     039A Rx 8  FD FD FD FD FD 01 00 00 
    207        95.813 DT     0129 Rx 8  7D 2A 4F 20 00 20 FF 3F 
    208        96.051 DT     0132 Rx 8  0B 8A 01 00 38 40 00 00 
    209        96.289 DT     0372 Rx 8  05 01 2C 00 44 A3 2C 00 
    210        96.535 DT     0798 Rx 8  D6 01 00 00 00 00 00 DF 
    211        96.775 DT     02C1 Rx 8  70 CE 39 0D 8E 1F 00 00 
    212        96.925 DT     01FA Rx 3  3A C0 01 
    213        97.745 DT     0261 Rx 8  31 48 40 00 28 4A DA 46 
    214        99.348 DT     0283 Rx 6  00 00 00 00 00 00 
    215        99.710 DT     02A1 Rx 6  00 00 98 3A 00 00 
    216        99.960 DT     0381 Rx 8  17 00 00 00 00 00 00 00 
    217       100.212 DT     01FB Rx 8  00 FF FF FF FF FF FF FF 
    218       100.746 DT     0677 Rx 8  F8 FF FF FF FF FF FF 3F 
    219       101.190 DT     023E Rx 8  28 C6 63 95 01 6E D6 6B 
    220       101.388 DT     013D Rx 6  05 20 AA 1A FF 02 
    221       101.634 DT     0339 Rx 8  00 B1 00 00 00 01 40 0F 
    222       101.953 DT     06C8 Rx 8  CC 01 00 2C 00 00 00 00 
    223       102.753 DT     0201 Rx 8  1E 73 37 03 00 00 00 00 
    224       103.825 DT     0242 Rx 2  10 95 
    225       104.391 DT     03C0 Rx 8  07 00 00 00 00 00 00 00 
    226       104.747 DT     0221 Rx 8  41 01 55 00 00 00 00 BA 
    227       105.001 DT     03E9 Rx 8  F1 40 00 00 00 00 E0 FD 
    228       105.800 DT     0129 Rx 8  21 2B 4F 20 01 20 FF 3F 
    229       106.040 DT     0132 Rx 8  03 8A 01 00 39 40 00 00 
    230       107.294 DT     0719 Rx 8  00 94 52 00 00 00 00 00 
    231       107.894 DT     02A8 Rx 8  C2 00 00 00 00 80 40 2C 
    232       108.762 DT     02C1 Rx 8  01 00 00 14 28 70 64 00 
    233       108.996 DT     02E1 Rx 8  29 0A A3 6A 17 00 00 00 
    234       109.400 DT     0103 Rx 8  12 31 00 00 96 14 11 02 
    235       109.645 DT     0263 Rx 8  03 10 20 03 00 00 00 00 
    236       109.983 DT     0282 Rx 8  64 00 02 08 18 D4 F2 24 
    237       110.971 DT     0360 Rx 8  02 00 00 04 00 00 00 00 
    238       111.197 DT     013D Rx 6  05 20 AA 1A FF 02 
    239       112.135 DT     0419 Rx 1  00 
    240       113.259 DT     01F9 Rx 6  00 00 00 00 00 00 
    241       113.755 DT     0545 Rx 8  01 00 00 00 00 10 D0 2B 
    242       113.965 DT     0428 Rx 6  00 00 10 10 00 00 
    243       114.402 DT     0123 Rx 8  00 00 42 12 D2 00 00 80 
    244       115.794 DT     0129 Rx 8  41 2C 4F 20 01 20 FF 3F 
    245       116.034 DT     0132 Rx 8  0D 8A 00 00 37 40 00 00 
    246       116.184 DT     0229 Rx 3  46 00 00 
    247       116.366 DT     039D Rx 5  67 5E 41 28 00 
    248       116.535 DT     0249 Rx 4  3A 0C 00 00 
    249       116.773 DT     0201 Rx 8  58 07 1E 00 64 43 06 29 
    250       117.023 DT     054F Rx 8  00 00 00 00 00 00 00 00 
    251       117.273 DT     0677 Rx 8  01 FF FF FF FF FF FF 00 
    252       117.967 DT     0102 Rx 8  22 33 00 00 E8 38 11 08 
    253       119.289 DT     0439 Rx 8  00 00 20 00 00 00 43 02 
    254       119.477 DT     03A3 Rx 5  00 D0 00 00 08 
    255       119.966 DT     0142 Rx 8  28 00 02 00 00 00 00 00 
    256       120.218 DT     0797 Rx 8  14 09 00 00 00 00 00 09 
    257       120.732 DT     02C1 Rx 8  02 74 C4 57 00 80 02 00 
    258       120.964 DT     03A1 Rx 8  64 62 0D 98 00 38 22 5B 
    259       121.196 DT     013D Rx 6  05 20 AA 1A FF 02 
    260       121.764 DT     0340 Rx 8  08 00 00 00 00 00 00 00 
    261       124.376 DT     0393 Rx 8  09 80 63 00 00 00 00 00 
    262       124.613 DT     0243 Rx 8  AE B1 A1 0F 04 00 00 00 
    263       124.857 DT     02E1 Rx 8  02 00 00 00 00 00 01 00 
    264       125.061 DT     0122 Rx 6  00 00 12 12 12 00 
    265       125.219 DT     0119 Rx 2  00 00 
    266       125.457 DT     039A Rx 8  FC FD FD FD FD FD FD 01 
    267       125.815 DT     0129 Rx 8  53 2D 4F 20 01 20 FF 3F 
    268       126.055 DT     0132 Rx 8  16 8A 01 00 3A 40 00 00 
    269       126.310 DT     03E8 Rx 8  00 00 00 00 00 00 00 00 
    270       129.184 DT     0420 Rx 6  28 01 40 4B 00 50 
    271       129.416 DT     020C Rx 8  58 F9 37 1E 00 B1 37 0C 
    272       129.960 DT     03A2 Rx 8  00 E0 72 17 05 80 46 6B 
    273       130.730 DT     0201 Rx 8  01 64 64 58 72 03 96 00 
    274       130.960 DT     0261 Rx 8  FE FD E9 19 90 5C E5 0F 
    275       131.122 DT     041D Rx 1  20 
    276       131.359 DT     021D Rx 8  2D 20 20 14 80 00 60 10 
    277       131.557 DT     043D Rx 6  05 20 AA 1A FF 02 
    278       131.755 DT     013D Rx 6  05 20 AA 1A FF 02 
    279       131.983 DT     025D Rx 8  DB 8C 01 C4 44 C1 0A E0 
    280       132.227 DT     0272 Rx 8  09 80 63 00 00 00 00 00 
    281       132.356 DT     03BB Rx 2  2F 0F 
    282       132.510 DT     077D Rx 3  12 00 00 
    283       132.760 DT     027D Rx 8  00 00 00 00 00 00 00 00 
    284       132.974 DT     0241 Rx 7  3E 78 AC 0F 1E 5B 00 
    285       133.210 DT     02C1 Rx 8  03 00 40 66 A2 90 34 00 
    286       133.396 DT     02F3 Rx 5  0C 0C 0B 04 00 
    287       133.643 DT     0677 Rx 8  02 FF FF FF FF 00 00 00 
    288       133.871 DT     033A Rx 8  DE 00 DE 00 CD 00 55 54 
    289       134.107 DT     07A8 Rx 8  14 D5 A1 63 00 00 40 10 
    290       134.263 DT     07DD Rx 3  FF 00 01 
    291       134.433 DT     029D Rx 4  00 00 00 20 
    292       134.603 DT     02BD Rx 4  00 00 00 00 
    293       134.740 DT     03E3 Rx 2  00 00 
    294       135.798 DT     0129 Rx 8  21 2E 4F 20 00 20 FF 3F 
    295       136.038 DT     0132 Rx 8  0A 8A 01 00 39 40 00 00 
    296       136.756 DT     0718 Rx 7  03 FF FF FF FF FF FF 
    297       138.274 DT     0228 Rx 8  03 16 54 48 51 00 11 41 
    298       138.752 DT     0381 Rx 8  18 00 00 00 00 00 00 00 
    299       138.924 DT     01F8 Rx 4  3A 00 00 00 
    300       139.405 DT     04E3 Rx 8  01 DE 06 00 00 00 08 00 
    301       139.639 DT     0263 Rx 8  00 EE 0C F3 E4 7D D5 00 
    302       139.881 DT     02B3 Rx 8  00 81 7F 81 81 7C 67 00 
    303       140.113 DT     03C2 Rx 8  00 55 55 55 00 00 55 45 
    304       140.233 DT     0409 Rx 1  00 
    305       140.763 DT     02E1 Rx 8  03 43 00 02 28 6F 00 00 
    306       141.199 DT     013D Rx 6  05 20 AA 1A FF 02 
    307       141.433 DT     0379 Rx 8  01 00 48 80 9A 19 16 01 
    308       141.920 DT     023E Rx 8  28 C6 63 95 01 6E E6 7B 
    309       142.594 DT     0528 Rx 4  62 33 4B 7C 
    310       142.712 DT     03ED Rx 1  00 
    311       142.962 DT     055A Rx 8  01 00 00 00 00 00 00 00 
    312       143.190 DT     0405 Rx 8  12 43 33 37 39 34 34 35 
    313       143.342 DT     0113 Rx 3  01 97 01 
    314       143.579 DT     07FF Rx 8  01 91 45 44 42 4C 7A 00 
    315       143.827 DT     02F1 Rx 8  0D 00 00 00 00 00 00 00 
    316       144.062 DT     0318 Rx 8  16 03 30 0E 11 35 05 BD 
    317       144.306 DT     07B8 Rx 8  06 00 00 00 00 00 00 A8 
    318       144.524 DT     02E3 Rx 7  03 00 00 B9 01 0B 00 
    319       144.750 DT     0458 Rx 7  02 02 00 80 00 00 00 
    320       144.988 DT     0201 Rx 8  32 13 20 C0 08 40 BD 01 
    321       145.224 DT     02C1 Rx 8  04 CA 03 03 64 C1 39 53 
    322       145.448 DT     0400 Rx 7  60 60 E0 BF EF FB 00 
    323       145.798 DT     0129 Rx 8  D0 2F 4F 20 00 20 FF 3F 
    324       146.039 DT     0132 Rx 8  12 8A 00 00 3A 40 00 00 
    325       146.271 DT     0372 Rx 8  06 00 59 00 DD B2 59 00 
    326       146.511 DT     03E2 Rx 8  40 15 80 0A 00 00 04 04 
    327       146.787 DT     0545 Rx 8  02 00 32 00 00 00 E0 5E 
    328       147.165 DT     0139 Rx 1  00 
    329       148.753 DT     0677 Rx 8  FB FF FF FF FF FF FF 27 
    330       149.393 DT     0343 Rx 8  00 90 64 EE A2 36 00 00 
    331       149.657 DT     078A Rx 8  01 00 02 00 00 00 54 5D 
    332       149.960 DT     01FB Rx 8  01 FE FF B7 6D 0B 00 00 
    333       150.214 DT     06E8 Rx 8  CC 01 00 2C 00 00 00 00 
    334       151.208 DT     013D Rx 6  05 20 AA 1A FF 02 
    335       152.956 DT     04E2 Rx 8  01 6C 07 00 00 00 08 00 
    336       153.292 DT     03DA Rx 8  00 00 00 00 00 00 00 00 
    337       154.422 DT     03C3 Rx 8  55 55 55 01 00 00 00 00 
    338       154.655 DT     0243 Rx 8  CC 80 33 E0 98 36 0E 29 
    339       154.893 DT     0221 Rx 8  40 41 05 05 00 50 11 0F 
    340       155.135 DT     03F5 Rx 8  00 C8 19 09 00 00 00 00 
    341       155.377 DT     025B Rx 8  D3 C0 02 00 00 00 E0 D0 
    342       155.617 DT     039A Rx 8  FD FD FD FD FD 01 00 00 
    343       155.855 DT     0129 Rx 8  35 20 4F 20 00 20 FF 3F 
    344       156.093 DT     0132 Rx 8  03 8A 00 00 39 40 00 00 
    345       156.336 DT     02E8 Rx 8  C2 00 00 00 00 80 40 6C 
    346       156.518 DT     039D Rx 5  68 5F 41 28 00 
    347       156.782 DT     02C1 Rx 8  55 00 01 63 A0 00 00 00 
    348       157.016 DT     02E1 Rx 8  FC 19 27 6A 9F 25 0A 00 
    349       158.750 DT     0201 Rx 8  13 C5 02 00 00 70 FE F9 
    350       159.312 DT     037A Rx 8  01 00 00 00 00 00 00 00 
    351       159.552 DT     02A7 Rx 8  00 00 00 00 00 86 05 84 
    352       159.796 DT     0553 Rx 8  00 00 00 00 00 00 10 68 
    353       160.028 DT     0262 Rx 8  0B 00 D2 0D 00 F0 D2 12 
    354       160.259 DT     0282 Rx 8  4D 21 10 07 3B 01 7A 04 
    355       161.201 DT     013D Rx 6  05 20 AA 1A FF 02 
    356       161.465 DT     02A6 Rx 8  00 00 FF 1F 00 00 00 00 
    357       162.179 DT     0448 Rx 6  00 00 10 10 00 00 
    358       163.463 DT     02C7 Rx 8  00 00 00 00 00 42 41 FF 
    359       163.755 DT     0261 Rx 8  03 00 00 00 00 40 F4 78 
    360       164.193 DT     022A Rx 4  00 00 1D 16 
    361       164.438 DT     0383 Rx 8  8B 00 22 80 00 00 00 01 
    362       164.752 DT     0677 Rx 8  04 0F 00 00 00 00 00 00 
    363       165.322 DT     0359 Rx 8  01 00 00 00 00 00 00 00 
    364       165.634 DT     02D1 Rx 2  7F 01 
    365       165.870 DT     0129 Rx 8  22 21 4F 20 00 20 FF 3F 
    366       166.110 DT     0132 Rx 8  03 8A 01 00 39 40 00 00 
    367       166.276 DT     0249 Rx 4  13 0D 00 00 
    368       166.955 DT     0552 Rx 8  00 00 00 00 00 00 10 67 
    369       168.765 DT     02C1 Rx 8  06 00 00 00 40 00 00 00 
    370       169.349 DT     0423 Rx 6  F0 00 00 00 08 00 
    371       169.581 DT     0263 Rx 8  01 E9 12 F2 E4 7D D6 0A 
    372       169.961 DT     0142 Rx 8  01 00 40 0A 00 00 00 00 
    373       170.745 DT     03A1 Rx 8  6B 9E 22 01 00 00 30 F2 
    374       171.201 DT     013D Rx 6  05 20 AA 1A FF 02 
    375       171.450 DT     038A Rx 8  01 00 00 00 00 00 00 00 
    376       171.960 DT     0789 Rx 8  54 09 00 00 00 00 10 1C 
    377       172.748 DT     0201 Rx 8  74 85 08 00 00 00 00 00 
    378       172.996 DT     02E1 Rx 8  05 00 00 00 00 00 00 00 
    379       173.922 DT     0422 Rx 6  00 00 10 00 00 00 
    380       174.378 DT     02C3 Rx 8  00 00 00 97 01 00 80 69 
    381       175.792 DT     0129 Rx 8  6B 22 4F 20 00 20 FF 3F 
    382       176.030 DT     0132 Rx 8  07 8A 01 00 38 40 00 00 
    383       176.281 DT     0320 Rx 8  01 00 00 08 00 00 00 00 
    384       176.517 DT     0772 Rx 8  01 2A 00 0A B0 09 FC 08 
    385       176.759 DT     0421 Rx 7  00 0A 00 10 00 00 00 
    386       177.313 DT     042A Rx 8  01 90 00 48 00 24 00 02 
    387       177.539 DT     02D2 Rx 8  D9 29 8D 4E 79 04 6F 01 
    388       177.774 DT     0252 Rx 8  1E 10 C5 05 F4 01 A0 0F 
    389       178.006 DT     0212 Rx 8  B9 24 C4 0F 03 38 18 03 
    390       178.232 DT     0292 Rx 8  4B 5F 5D B5 D4 27 8A 01 
    391       178.364 DT     02F2 Rx 2  62 01 
    392       178.594 DT     0381 Rx 8  00 1E 56 46 2E 32 21 41 
    393       178.844 DT     03C8 Rx 8  01 00 00 00 00 00 00 00 
    394       179.731 DT     0545 Rx 8  C0 02 2C C0 A2 1F FA B3 
    395       179.969 DT     03A2 Rx 8  6D 04 00 00 01 70 21 01 
    396       180.741 DT     02C1 Rx 8  07 00 0D 13 0E 0D 00 1A 
    397       180.977 DT     02C2 Rx 8  55 5B A9 06 00 00 12 00 
    398       181.221 DT     0677 Rx 8  05 02 00 28 00 00 00 00 
    399       181.419 DT     013D Rx 6  05 20 AA 1A FF 02 
    400       181.651 DT     023E Rx 8  28 C6 63 95 05 6E F6 8F 
    401       181.887 DT     0273 Rx 8  81 A0 30 00 19 02 30 11 
    402       183.246 DT     0219 Rx 5  04 74 74 00 00 
    403       183.889 DT     0788 Rx 8  01 00 00 00 FF A1 08 00 
    404       184.372 DT     0243 Rx 8  F9 00 6F 71 70 71 90 90 
    405       185.354 DT     039A Rx 8  FC FD FD FD FD FD FD 01 
    406       185.798 DT     0129 Rx 8  7C 23 4F 20 00 20 FF 3F 
    407       186.038 DT     0132 Rx 8  0F 8A 01 00 39 40 00 00 
    408       186.152 DT     0744 Rx 1  00 
    409       186.778 DT     0201 Rx 8  25 85 02 00 00 80 3E FA 
    410       187.009 DT     0718 Rx 7  04 FF FF 00 00 00 00 
    411       187.727 DT     0441 Rx 8  8B C5 44 20 DB 0E 04 5B 
    412       188.759 DT     0321 Rx 8  D5 C5 A7 7B 02 7B D0 2D 
    413       189.001 DT     02E1 Rx 8  10 21 04 00 00 00 26 08 
    414       189.385 DT     02F9 Rx 8  D0 FB 07 08 00 00 00 00 
    415       189.499 DT     0743 Rx 1  00 
    416       189.941 DT     0288 Rx 8  03 16 54 48 51 00 21 B1 
    417       190.183 DT     02E2 Rx 8  00 00 00 B7 01 0B 00 00 
    418       190.425 DT     03C2 Rx 8  29 55 00 00 00 00 00 00 
    419       191.200 DT     013D Rx 6  05 20 AA 1A FF 02 
    420       192.372 DT     02C4 Rx 8  2A F4 69 95 FC 0D 00 00 
    421       192.757 DT     02C1 Rx 8  70 CE 39 0D 8E 1F 00 00 
    422       192.991 DT     0204 Rx 8  A6 07 46 46 07 07 07 11 
    423       193.208 DT     0264 Rx 6  B8 1B 05 09 A0 00 
    424       193.448 DT     0224 Rx 8  04 08 00 40 19 01 10 08 
    425       193.820 DT     02B4 Rx 5  6B B5 25 E6 00 
    426       194.288 DT     0225 Rx 3  05 45 52 
    427       195.340 DT     03F9 Rx 8  00 00 00 00 00 00 00 00 
    428       195.797 DT     0129 Rx 8  FA 24 4F 20 00 20 FF 3F 
    429       196.035 DT     0132 Rx 8  18 8A 00 00 37 40 00 00 
    430       196.275 DT     0372 Rx 8  07 00 0C 00 F4 A5 0C 00 
    431       196.457 DT     039D Rx 5  59 50 41 28 00 
    432       196.699 DT     0798 Rx 8  A0 82 09 00 00 00 10 43 
    433       196.935 DT     0261 Rx 8  00 10 57 00 D6 43 00 C1 
    434       197.085 DT     01FA Rx 3  3A C0 01 
    435       197.329 DT     0677 Rx 8  F8 FF FF FF FF FF FF 3F 
    436       199.360 DT     0283 Rx 6  00 00 00 00 00 00 
    437       199.604 DT     0263 Rx 8  02 00 00 00 78 0D 00 00 
    438       199.810 DT     02A1 Rx 6  00 00 98 3A 00 00 
    439       200.062 DT     01FB Rx 8  00 FF FF FF FF FF FF FF 
    440       200.738 DT     0201 Rx 8  1E 73 37 03 00 00 00 00 
    441       201.212 DT     013D Rx 6  05 20 AA 1A FF 02 
    442       201.458 DT     0339 Rx 8  00 B1 00 00 00 01 40 0F 
    443       201.952 DT     06C8 Rx 8  01 00 00 00 00 00 00 00 
    444       203.828 DT     0242 Rx 2  10 95 
    445       204.395 DT     03C0 Rx 8  08 00 00 00 00 00 00 00 
    446       204.759 DT     02C1 Rx 8  01 00 00 14 28 70 64 00 
    447       204.999 DT     0221 Rx 8  41 01 55 00 00 00 20 DA 
    448       205.233 DT     02E1 Rx 8  29 0A A3 6A 17 00 00 00 
    449       205.791 DT     0129 Rx 8  84 25 4F 20 FF 1F FF 3F 
    450       206.031 DT     0132 Rx 8  FF 89 00 00 38 40 00 00 
    451       207.296 DT     0719 Rx 8  01 00 00 00 00 00 00 00 
    452       207.898 DT     02A8 Rx 8  C2 00 00 00 00 80 50 3C 
    453       209.396 DT     0103 Rx 8  12 31 00 00 96 14 11 02 
    454       209.976 DT     0282 Rx 8  64 00 02 08 14 D4 F2 24 
    455       210.978 DT     0360 Rx 8  03 00 00 00 00 00 00 00 
    456       211.200 DT     013D Rx 6  05 20 AA 1A FF 02 
    457       212.139 DT     0419 Rx 1  00 
    458       212.757 DT     0677 Rx 8  01 FF FF FF FF FF FF 00 
    459       213.001 DT     0545 Rx 8  01 00 00 00 00 10 00 5B 
    460       213.263 DT     01F9 Rx 6  00 00 00 00 00 00 
    461       213.511 DT     0473 Rx 8  30 00 00 00 FB 9C 34 62 
    462       213.873 DT     0428 Rx 6  00 00 10 10 00 00 
    463       214.385 DT     0123 Rx 8  00 00 42 12 D2 00 00 80 
    464       214.621 DT     0243 Rx 8  AE B1 A9 0F 04 00 00 00 
    465       214.859 DT     0201 Rx 8  30 07 1E 00 64 43 06 29 
    466       215.357 DT     039A Rx 8  FD FD FD FD FD 01 00 00 
    467       215.792 DT     0129 Rx 8  5E 26 4F 20 FF 1F FF 3F 
    468       216.032 DT     0132 Rx 8  0F 8A 01 00 37 40 00 00 
    469       216.182 DT     0229 Rx 3  44 01 00 
    470       216.358 DT     0249 Rx 4  AF 0E 00 00 
    471       216.623 DT     054F Rx 8  00 00 00 00 00 00 00 00 
    472       216.859 DT     02C1 Rx 8  02 74 C4 57 00 80 02 00 
    473       217.103 DT     0381 Rx 8  01 00 00 00 17 24 14 04 
    474       217.977 DT     0102 Rx 8  22 33 00 00 E8 38 11 08 
    475       219.293 DT     0439 Rx 8  00 00 20 00 00 00 43 02 
    476       219.481 DT     03A3 Rx 5  00 E0 00 00 08 
    477       219.963 DT     0142 Rx 8  28 00 02 00 00 00 00 00 
    478       220.221 DT     0797 Rx 8  14 09 00 00 00 00 10 19 
    479       220.749 DT     02E1 Rx 8  02 00 00 00 00 00 01 00 
    480       220.978 DT     03A1 Rx 8  64 62 0D 98 00 38 42 7B 
    481       221.210 DT     013D Rx 6  05 20 AA 1A FF 02 
    482       221.460 DT     023E Rx 8  28 C6 63 95 01 6E 06 9B 
    483       221.764 DT     0340 Rx 8  00 00 00 00 00 00 00 00 
    484       224.380 DT     0393 Rx 8  06 00 FD E0 07 C0 1E 20 
    485       224.928 DT     0122 Rx 6  00 00 12 12 12 00 
    486       225.208 DT     0119 Rx 2  00 00 
    487       225.791 DT     0129 Rx 8  49 27 4F 20 FF 1F FF 3F 
    488       226.029 DT     0132 Rx 8  0B 8A 00 00 39 40 00 00 
    489       226.287 DT     03E8 Rx 8  01 00 00 00 00 00 00 00 
    490       228.753 DT     02C1 Rx 8  03 00 40 66 A2 90 34 00 
    491       228.985 DT     0201 Rx 8  01 64 64 55 6A 03 96 00 
    492       229.231 DT     0677 Rx 8  02 FF FF FF FF 00 00 00 
    493       229.466 DT     020C Rx 8  5C 19 38 1E 00 B1 37 0C 
    494       229.710 DT     0263 Rx 8  03 10 20 03 00 00 00 00 
    495       229.938 DT     0261 Rx 8  31 48 45 00 2B 4A 1A 8E 
    496       230.174 DT     02B3 Rx 8  01 7C 7C 7D 67 7C 7C 84 
    497       230.404 DT     0319 Rx 8  12 5C 0A D0 26 6F 00 AE 
    498       230.638 DT     03A2 Rx 8  00 C0 72 17 05 80 46 6B 
    499       230.840 DT     0420 Rx 6  28 01 40 4B 00 60 
    500       231.234 DT     075D Rx 8  08 66 77 4B 77 78 77 02 
    501       231.471 DT     021D Rx 8  2D 20 20 14 80 00 60 10 
    502       231.589 DT     041D Rx 1  20 
    503       231.787 DT     013D Rx 6  05 20 AA 1A FF 02 
    504       232.015 DT     025D Rx 8  DB 8C 01 C4 44 C1 0A E0 
    505       232.255 DT     0272 Rx 8  06 00 FD E8 07 C0 1E 20 
    506       232.454 DT     043D Rx 6  05 20 AA 1A FF 02 
    507       232.704 DT     027D Rx 8  00 00 00 00 00 00 00 00 
    508       232.918 DT     0241 Rx 7  3D 78 6C 0F 1E 5B 00 
    509       233.090 DT     0453 Rx 4  00 00 00 00 
    510       233.244 DT     077D Rx 3  12 00 00 
    511       233.436 DT     0284 Rx 5  10 00 00 00 00 
    512       233.607 DT     029D Rx 4  00 00 00 20 
    513       233.849 DT     07A8 Rx 8  01 00 00 00 FF A1 08 00 
    514       234.005 DT     07DD Rx 3  FF 00 01 
    515       234.175 DT     02BD Rx 4  00 00 00 00 
    516       234.311 DT     03E3 Rx 2  00 00 
    517       235.329 DT     043B Rx 8  03 7F 00 FF 00 00 00 00 
    518       235.575 DT     03DB Rx 8  03 00 00 00 00 00 00 00 
    519       235.812 DT     0129 Rx 8  F7 28 4F 20 00 20 FF 3F 
    520       236.052 DT     0132 Rx 8  05 8A 01 00 39 40 00 00 
    521       236.232 DT     039D Rx 5  5A 51 41 28 00 
    522       236.770 DT     02E1 Rx 8  03 43 00 02 28 6E 00 00 
    523       236.998 DT     0718 Rx 7  00 7F 7F 7F FF FF FF 
    524       238.276 DT     0228 Rx 8  03 16 54 48 51 00 21 51 
    525       238.874 DT     01F8 Rx 4  3A 00 00 00 
    526       239.405 DT     04E3 Rx 8  02 13 07 00 00 00 08 00 
    527       240.057 DT     03C2 Rx 8  00 55 55 55 00 00 55 45 
    528       240.177 DT     0409 Rx 1  00 
    529       240.777 DT     02C1 Rx 8  04 CA 03 03 64 C1 39 53 
    530       241.201 DT     013D Rx 6  05 20 AA 1A FF 02 
    531       241.436 DT     0379 Rx 8  02 00 48 80 9A 19 16 01 
    532       242.466 DT     0113 Rx 3  01 97 01 
    533       242.701 DT     07FF Rx 8  02 5F 4E AC DE CD D6 30 
    534       242.937 DT     0201 Rx 8  1A 13 20 C0 08 40 B9 01 
    535       243.175 DT     0318 Rx 8  16 03 30 0E 11 35 07 BF 
    536       243.403 DT     0458 Rx 7  02 02 00 80 00 00 00 
    537       243.773 DT     02F1 Rx 8  EE 06 80 23 A4 00 70 04 
    538       244.267 DT     07B8 Rx 8  78 42 09 00 00 00 10 75 
    539       244.499 DT     0243 Rx 8  CC 80 33 E0 98 36 0E 29 
    540       244.717 DT     02E3 Rx 7  94 D2 60 00 0C 06 00 
    541       244.962 DT     0677 Rx 8  FB FF FF FF FF FF FF 27 
    542       245.186 DT     0400 Rx 7  60 60 E0 BF EF FB 00 
    543       245.424 DT     039A Rx 8  FC FD FD FD FD FD FD 01 
    544       245.766 DT     0545 Rx 8  02 00 2F 00 00 00 10 8B 
    545       246.002 DT     0129 Rx 8  A2 29 4F 20 00 20 FF 3F 
    546       246.242 DT     0132 Rx 8  0E 8A 01 00 38 40 00 00 
    547       246.483 DT     0372 Rx 8  08 00 6C 4B 04 00 A4 00 
    548       246.723 DT     03E2 Rx 8  40 15 80 0A 00 00 04 04 
    549       247.169 DT     0139 Rx 1  00 
    550       249.389 DT     0343 Rx 8  00 90 60 EE A2 51 00 00 
    551       249.651 DT     076A Rx 8  00 4E 8B D3 02 00 00 00 
    552       249.961 DT     01FB Rx 8  01 FE FF B7 6D 0B 00 00 
    553       250.275 DT     06E8 Rx 8  01 00 00 00 00 00 00 00 
    554       250.938 DT     07AA Rx 8  A6 04 D0 83 C0 63 AF 02 
    555       251.264 DT     078A Rx 8  01 00 03 00 00 00 60 5D 
    556       251.462 DT     013D Rx 6  05 20 AA 1A FF 02 
    557       252.748 DT     02C1 Rx 8  55 00 01 63 A0 00 00 00 
    558       252.980 DT     02E1 Rx 8  FC 19 2A 6A 9F 2D 0A 00 
    559       253.221 DT     04E2 Rx 8  02 69 00 FE 0F 00 08 00 
    560       253.469 DT     03DA Rx 8  00 00 00 00 00 00 00 00 
    561       254.385 DT     03C3 Rx 8  00 00 00 00 00 45 00 00 
    562       254.771 DT     03F5 Rx 8  00 C8 19 09 00 00 00 00 
    563       255.009 DT     0221 Rx 8  40 41 05 05 00 50 31 2F 
    564       255.253 DT     025B Rx 8  D3 C0 02 00 00 00 F0 E0 
    565       255.745 DT     0381 Rx 8  22 59 F6 77 00 F0 3C 64 
    566       255.983 DT     0129 Rx 8  7D 2A 4F 20 00 20 FF 3F 
    567       256.224 DT     0132 Rx 8  08 8A 00 00 38 40 00 00 
    568       256.466 DT     02E8 Rx 8  C2 00 00 00 00 80 50 7C 
    569       256.906 DT     0201 Rx 8  13 C5 02 00 00 70 FE F9 
    570       259.416 DT     037A Rx 8  02 00 00 00 00 00 00 00 
    571       259.650 DT     0263 Rx 8  00 EE 0C F3 E4 7D D5 00 
    572       259.890 DT     02A7 Rx 8  00 00 00 00 00 86 05 84 
    573       260.122 DT     0262 Rx 8  0B 00 D2 0D 00 F0 D2 12 
    574       260.352 DT     0282 Rx 8  4D 21 10 88 31 01 7A 04 
    575       260.597 DT     0553 Rx 8  00 00 00 00 00 00 20 78 
    576       260.857 DT     0677 Rx 8  04 0F 00 00 00 00 00 00 
    577       261.265 DT     023E Rx 8  28 C6 63 95 01 6E 16 AB 
    578       261.463 DT     013D Rx 6  05 20 AA 1A FF 02 
    579       261.707 DT     02A6 Rx 8  00 00 FF 1F 00 00 00 00 
    580       262.325 DT     0448 Rx 6  00 00 10 10 00 00 
    581       262.853 DT     0261 Rx 8  FE FD E9 19 90 5C 25 4F 
    582       263.553 DT     02C7 Rx 8  00 00 00 00 00 42 41 FF 
    583       263.902 DT     022A Rx 4  00 00 1D 16 
    584       264.494 DT     0383 Rx 8  8B 00 22 80 00 00 00 01 
    585       264.874 DT     02C1 Rx 8  06 00 00 00 40 00 00 00 
    586       265.416 DT     0359 Rx 8  02 00 00 00 64 82 86 24 
    587       265.744 DT     02D1 Rx 2  7F 01 
    588       265.976 DT     0129 Rx 8  E5 2B 4F 20 FF 1F FF 3F 
    589       266.216 DT     0132 Rx 8  0F 8A 00 00 38 40 00 00 
    590       266.385 DT     0249 Rx 4  CE 0F 00 00 
    591       266.621 DT     07E8 Rx 8  12 5C 0A D0 26 6F 00 AE 
    592       267.059 DT     0552 Rx 8  00 00 00 00 00 00 20 77 
    593       268.867 DT     02E1 Rx 8  05 00 00 00 00 00 00 00 
    594       269.471 DT     0423 Rx 6  F0 00 00 00 08 00 
    595       270.071 DT     0142 Rx 8  01 00 40 0A 00 00 00 00 
    596       270.843 DT     0201 Rx 8  74 85 08 00 00 00 00 00 
    597       271.075 DT     03A1 Rx 8  6B 9E 22 01 00 00 50 12 
    598       271.304 DT     013D Rx 6  05 20 AA 1A FF 02 
    599       271.550 DT     038A Rx 8  03 00 00 00 00 00 00 00 
    600       272.060 DT     0789 Rx 8  54 09 00 00 00 00 20 2C 
    601       274.014 DT     0422 Rx 6  00 00 10 00 00 00 
    602       274.480 DT     02C3 Rx 8  55 5B A9 36 00 00 12 00 
    603       274.708 DT     0243 Rx 8  F9 00 6F 71 70 71 90 90 
    604       275.460 DT     039A Rx 8  FD FD FD FD FD 01 00 00 
    605       275.893 DT     0129 Rx 8  EC 2C 4F 20 00 20 FF 3F 
    606       276.131 DT     0132 Rx 8  10 8A 00 00 36 40 00 00 
    607       276.313 DT     039D Rx 5  5B 52 41 28 00 
    608       276.857 DT     0421 Rx 7  00 0A 00 10 00 00 00 
    609       277.097 DT     02C1 Rx 8  07 00 0D 13 0E 0D 00 1A 
    610       277.341 DT     0677 Rx 8  05 02 00 28 00 00 00 00 
    611       277.568 DT     02D2 Rx 8  D9 29 8D 4E 79 04 6F 01 
    612       277.802 DT     0252 Rx 8  1E 10 C5 05 F4 01 A0 0F 
    613       278.034 DT     0212 Rx 8  B9 24 C4 0F 03 38 18 03 
    614       278.260 DT     0292 Rx 8  4B 5F 5D B5 D4 27 8A 01 
    615       278.393 DT     02F2 Rx 2  62 01 
    616       278.641 DT     03C8 Rx 8  02 00 00 00 00 00 00 00 
    617       278.883 DT     042A Rx 8  01 90 00 48 00 24 00 02 
    618       279.115 DT     0545 Rx 8  20 02 36 30 A3 21 2A C0 
    619       280.073 DT     03A2 Rx 8  6D 04 00 00 01 70 21 01 
    620       281.067 DT     02C2 Rx 8  00 00 00 97 01 00 C0 65 
    621       281.309 DT     013D Rx 6  05 20 AA 1A FF 02 
    622       281.549 DT     0285 Rx 8  61 02 86 01 01 00 20 00 
    623       281.683 DT     03D8 Rx 2  72 01 
    624       281.918 DT     0353 Rx 8  7B 0F 39 80 02 0A F6 F9 
    625       283.342 DT     0219 Rx 5  F0 1F FF FF 00 
    626       283.992 DT     0788 Rx 8  E6 1E 00 00 00 00 00 00 
    627       284.846 DT     0201 Rx 8  25 85 02 00 00 80 3E FA 
    628       285.088 DT     02E1 Rx 8  10 21 04 00 00 00 26 08 
    629       285.894 DT     0129 Rx 8  FE 2D 4F 20 00 20 FF 3F 
    630       286.134 DT     0132 Rx 8  0C 8A 00 00 39 40 00 00 
    631       286.855 DT     0718 Rx 7  01 FF FF FF FF FF 00 
    632       287.843 DT     0441 Rx 8  8B C5 44 20 DB 0E 08 5F 
    633       288.878 DT     02C1 Rx 8  70 CE 39 0D 8E 1F 00 00 
    634       289.458 DT     02F9 Rx 8  D0 FB 07 10 00 00 00 00 
    635       289.690 DT     0263 Rx 8  01 E9 12 F2 E4 7D D6 0A 
    636       289.992 DT     0288 Rx 8  03 16 54 08 51 00 31 81 
    637       290.234 DT     03C2 Rx 8  29 55 00 00 00 00 00 00 
    638       291.302 DT     013D Rx 6  05 20 AA 1A FF 02 
    639       292.461 DT     02C4 Rx 8  0B F4 69 93 E9 0B 00 00 
    640       292.853 DT     0677 Rx 8  F8 FF FF FF FF FF FF 3F 
    641       293.089 DT     0204 Rx 8  A6 07 47 47 06 06 06 11 
    642       293.309 DT     0264 Rx 6  BA 1B 05 09 A0 00 
    643       293.549 DT     0224 Rx 8  04 08 00 40 19 01 10 08 
    644       293.732 DT     02B4 Rx 5  6B B5 25 E0 00 
    645       294.392 DT     0225 Rx 3  05 45 52 
    646       294.858 DT     0381 Rx 8  03 80 80 80 80 80 00 00 
    647       295.448 DT     03F9 Rx 8  01 00 00 00 00 00 00 00 
    648       295.846 DT     0261 Rx 8  03 00 00 00 00 40 34 B8 
    649       296.084 DT     0129 Rx 8  21 2E 4F 20 00 20 FF 3F 
    650       296.323 DT     0132 Rx 8  0E 8A 00 00 3A 40 00 00 
    651       296.555 DT     0372 Rx 8  09 B1 C9 08 CA 01 00 00 
    652       296.793 DT     0798 Rx 8  59 D8 02 52 48 01 20 F6 
    653       296.971 DT     01FA Rx 3  3A C0 01 
    654       298.851 DT     0201 Rx 8  1E 73 37 03 00 00 00 00 
    655       299.455 DT     0283 Rx 6  00 00 00 00 00 00 
    656       299.811 DT     02A1 Rx 6  00 00 98 3A 00 00 
    657       300.075 DT     01FB Rx 8  00 FF FF FF FF FF FF FF 
    658       300.854 DT     02C1 Rx 8  01 00 00 14 28 70 64 00 
    659       301.088 DT     02E1 Rx 8  29 0A A3 6A 17 00 00 00 
    660       301.318 DT     023E Rx 8  28 C6 63 95 01 6E 26 BB 
    661       301.516 DT     013D Rx 6  05 20 AA 1A FF 02 
    662       301.762 DT     0339 Rx 8  00 B1 00 00 00 01 40 0F 
    663       302.066 DT     06C8 Rx 8  CC 01 00 2C 00 00 00 00 
    664       303.932 DT     0242 Rx 2  10 95 
    665       304.511 DT     03C0 Rx 8  00 00 00 00 00 00 00 00 
    666       304.747 DT     0243 Rx 8  AE B1 A9 0F 04 00 00 00 
    667       304.987 DT     0221 Rx 8  41 01 55 00 00 00 40 FA 
    668       305.475 DT     039A Rx 8  FC FD FD FD FD FD FD 01 
    669       305.897 DT     0129 Rx 8  D0 2F 4F 20 00 20 FF 3F 
    670       306.135 DT     0132 Rx 8  05 8A 00 00 37 40 00 00 
    671       307.402 DT     0719 Rx 8  00 94 52 00 00 00 00 00 
    672       308.002 DT     02A8 Rx 8  C2 00 00 00 00 80 60 4C 
    673       308.874 DT     0677 Rx 8  01 FF FF FF FF FF FF 00 
    674       309.500 DT     0103 Rx 8  12 31 00 00 96 14 11 02 
    675       310.076 DT     0282 Rx 8  64 00 02 08 18 D4 F2 24 
    676       311.082 DT     0360 Rx 8  04 00 00 00 00 00 00 00 
    677       311.302 DT     013D Rx 6  05 20 AA 1A FF 02 
    678       311.859 DT     0545 Rx 8  01 00 00 00 00 10 30 8B 
    679       312.339 DT     0419 Rx 1  00 
    680       312.857 DT     02C1 Rx 8  02 74 C4 57 00 80 02 00 
    681       313.095 DT     0201 Rx 8  30 07 1E 00 64 43 06 29 
    682       313.367 DT     01F9 Rx 6  00 00 00 00 00 00 
    683       313.957 DT     0428 Rx 6  00 00 10 10 00 00 
    684       314.497 DT     0123 Rx 8  00 00 42 12 D2 00 00 80 
    685       315.895 DT     0129 Rx 8  35 20 4F 20 00 20 FF 3F 
    686       316.134 DT     0132 Rx 8  05 8A 00 00 36 40 00 00 
    687       316.282 DT     0229 Rx 3  52 02 00 
    688       316.462 DT     039D Rx 5  5C 53 41 28 00 
    689       316.628 DT     0249 Rx 4  9B 00 00 00 
    690       316.892 DT     054F Rx 8  00 00 00 00 00 00 00 00 
    691       317.136 DT     02E1 Rx 8  02 00 00 00 00 00 01 00 
    692       318.081 DT     0102 Rx 8  22 33 00 00 E8 38 11 08 
    693       319.397 DT     0439 Rx 8  00 00 20 00 00 00 43 02 
    694       319.641 DT     0263 Rx 8  02 00 00 00 78 0D 00 00 
    695       319.883 DT     02B3 Rx 8  62 22 00 00 00 00 00 00 
    696       320.129 DT     0142 Rx 8  28 00 02 00 00 00 00 00 
    697       320.317 DT     03A3 Rx 5  00 D0 00 00 08 
    698       320.557 DT     0797 Rx 8  14 09 00 00 00 00 20 29 
    699       320.863 DT     03A1 Rx 8  64 62 0D 98 00 38 62 9B 
    700       321.302 DT     013D Rx 6  05 20 AA 1A FF 02 
    701       321.866 DT     0340 Rx 8  01 00 00 00 00 00 00 00 
    702       324.484 DT     0393 Rx 8  09 80 63 00 00 00 00 00 
    703       324.852 DT     02C1 Rx 8  03 00 40 66 A2 B0 34 00 
    704       325.056 DT     0122 Rx 6  00 00 12 12 12 00 
    705       325.302 DT     0677 Rx 8  02 FF FF FF FF 00 00 00 
    706       325.438 DT     0119 Rx 2  00 00 
    707       325.893 DT     0129 Rx 8  22 21 4F 20 00 20 FF 3F 
    708       326.131 DT     0132 Rx 8  03 8A 00 00 37 40 00 00 
    709       326.387 DT     03E8 Rx 8  02 00 00 00 00 00 00 00 
    710       326.865 DT     0201 Rx 8  01 64 64 55 6A 03 96 00 
    711       328.845 DT     0261 Rx 8  00 10 57 00 D6 43 40 01 
    712       329.293 DT     0420 Rx 6  28 01 40 4B 00 70 
    713       329.527 DT     020C Rx 8  5F 19 38 1E 00 B1 37 0C 
    714       330.084 DT     03A2 Rx 8  00 C0 72 17 05 80 46 6B 
    715       331.226 DT     041D Rx 1  20 
    716       331.462 DT     021D Rx 8  2D 20 20 14 80 00 60 10 
    717       331.696 DT     0313 Rx 8  02 64 64 01 00 00 70 51 
    718       331.894 DT     043D Rx 6  05 20 AA 1A FF 02 
    719       332.093 DT     013D Rx 6  05 20 AA 1A FF 02 
    720       332.321 DT     025D Rx 8  DB 8C 01 C4 44 C1 0A E0 
    721       332.565 DT     0272 Rx 8  09 80 63 00 00 00 00 00 
    722       332.799 DT     02D3 Rx 8  F0 00 9D 02 17 EE 0E 57 
    723       333.013 DT     0241 Rx 7  3D 78 6C 0F 1E 5B 00 
    724       333.253 DT     0285 Rx 8  02 D3 00 00 00 00 0E 00 
    725       333.487 DT     02E1 Rx 8  03 43 00 02 28 6E 00 00 
    726       333.642 DT     077D Rx 3  12 00 00 
    727       333.892 DT     027D Rx 8  00 00 00 00 00 00 00 00 
    728       334.136 DT     0381 Rx 8  04 80 80 80 80 80 00 00 
    729       334.384 DT     07A8 Rx 8  1A 1F 00 70 00 00 00 00 
    730       334.616 DT     0243 Rx 8  CC 80 33 E0 98 36 0E 29 
    731       334.752 DT     03E3 Rx 2  00 00 
    732       334.908 DT     07DD Rx 3  FF 00 01 
    733       335.079 DT     029D Rx 4  00 00 00 20 
    734       335.249 DT     02BD Rx 4  00 00 00 00 
    735       335.489 DT     039A Rx 8  FD FD FD FD FD 01 00 00 
    736       335.892 DT     0129 Rx 8  6B 22 4F 20 00 20 FF 3F 
    737       336.131 DT     0132 Rx 8  0A 8A 00 00 39 40 00 00 
    738       336.875 DT     02C1 Rx 8  04 CA 03 03 64 C1 39 53 
    739       337.105 DT     0718 Rx 7  02 FF FF FF FF FF FF 
    740       338.383 DT     0228 Rx 8  03 16 54 48 51 00 31 61 
    741       338.979 DT     01F8 Rx 4  3A 00 00 00 
    742       339.505 DT     04E3 Rx 8  03 2F 00 00 00 00 08 00 
    743       340.161 DT     03C2 Rx 8  00 55 55 55 00 00 55 45 
    744       340.281 DT     0409 Rx 1  00 
    745       340.869 DT     0201 Rx 8  1A 13 20 C0 08 40 B9 01 
    746       341.114 DT     0677 Rx 8  FB FF FF FF FF FF FF 27 
    747       341.312 DT     013D Rx 6  05 20 AA 1A FF 02 
    748       341.548 DT     0379 Rx 8  03 00 3E 82 9A A9 31 01 
    749       342.042 DT     023E Rx 8  28 C6 63 95 01 6E 36 CB 
    750       342.566 DT     0113 Rx 3  01 97 01 
    751       342.802 DT     07FF Rx 8  03 31 08 A1 E0 42 16 41 
    752       343.038 DT     0318 Rx 8  16 03 30 0E 11 35 09 C1 
    753       343.267 DT     0458 Rx 7  02 02 00 80 00 00 00 
    754       343.867 DT     02F1 Rx 8  0F 01 5A A0 97 63 39 00 
    755       344.357 DT     07B8 Rx 8  11 D8 02 00 04 00 20 B1 
    756       344.583 DT     02E3 Rx 7  86 0C 00 00 00 00 00 
    757       344.847 DT     0545 Rx 8  02 00 2C 00 00 00 40 B8 
    758       345.191 DT     0400 Rx 7  60 60 E0 BF EF FB 00 
    759       345.897 DT     0129 Rx 8  7C 23 4F 20 00 20 FF 3F 
    760       346.136 DT     0132 Rx 8  18 8A 00 00 38 40 00 00 
    761       346.368 DT     0372 Rx 8  0A B8 42 96 B1 F0 7F 02 
    762       346.608 DT     03E2 Rx 8  40 15 80 0A 00 00 04 04 
    763       346.794 DT     0410 Rx 2  45 00 
    764       347.272 DT     0139 Rx 1  00 
    765       348.854 DT     02C1 Rx 8  55 00 01 63 A0 00 00 00 
    766       349.087 DT     02E1 Rx 8  FC 19 27 6A 9F 26 0A 00 
    767       349.503 DT     0343 Rx 8  00 90 60 EE A2 51 00 00 
    768       349.747 DT     0263 Rx 8  03 10 20 03 00 00 00 00 
    769       349.989 DT     078A Rx 8  01 00 04 00 00 00 75 06 
    770       350.229 DT     01FB Rx 8  01 FE FF B7 6D 0B 00 00 
    771       350.477 DT     03AA Rx 8  00 00 00 00 00 00 00 00 
    772       350.724 DT     06E8 Rx 8  CC 01 00 2C 00 00 00 00 
    773       350.964 DT     0310 Rx 8  14 05 00 00 47 80 CA 0B 
    774       351.312 DT     013D Rx 6  05 20 AA 1A FF 02 
    775       352.050 DT     07AA Rx 8  07 01 00 01 00 02 00 00 
    776       353.062 DT     04E2 Rx 8  03 20 01 00 00 00 08 00 
    777       353.400 DT     03DA Rx 8  00 00 00 00 00 00 00 00 
    778       354.531 DT     03C3 Rx 8  55 55 55 01 00 00 00 00 
    779       354.875 DT     03F5 Rx 8  00 C8 19 09 00 00 00 00 
    780       355.113 DT     0201 Rx 8  13 C5 02 00 00 70 FE F9 
    781       355.347 DT     0221 Rx 8  40 41 05 05 00 50 51 4F 
    782       355.587 DT     025B Rx 8  D3 C0 02 00 00 00 00 F0 
    783       355.895 DT     0129 Rx 8  FA 24 4F 20 00 20 FF 3F 
    784       356.134 DT     0132 Rx 8  0D 8A 00 00 38 40 00 00 
    785       356.318 DT     0382 Rx 5  3B 17 23 00 00 
    786       356.558 DT     02E8 Rx 8  C2 00 00 00 00 80 60 8C 
    787       356.738 DT     039D Rx 5  5D 54 41 28 00 
    788       356.986 DT     0677 Rx 8  04 0F 00 00 00 00 00 00 
    789       359.420 DT     037A Rx 8  00 00 00 00 00 00 00 00 
    790       359.660 DT     02A7 Rx 8  00 00 00 00 00 86 05 84 
    791       359.902 DT     0553 Rx 8  00 00 00 00 00 00 30 88 
    792       360.134 DT     0262 Rx 8  0B 00 D2 0D 00 F0 D2 12 
    793       360.365 DT     0282 Rx 8  4D 21 10 07 19 01 7A 04 
    794       360.877 DT     02C1 Rx 8  06 00 00 00 40 00 00 00 
    795       361.307 DT     013D Rx 6  05 20 AA 1A FF 02 
    796       361.555 DT     02A6 Rx 8  00 00 FF 1F 00 00 00 00 
    797       361.851 DT     0261 Rx 8  31 48 7B 00 28 4A 5A 01 
    798       362.329 DT     0448 Rx 6  00 00 10 10 00 00 
    799       363.543 DT     02C7 Rx 8  00 00 00 00 00 42 41 FF 
    800       363.893 DT     022A Rx 4  00 00 1D 16 
    801       364.498 DT     0383 Rx 8  8B 00 22 80 00 00 00 01 
    802       364.726 DT     0243 Rx 8  F9 00 6F 71 70 71 90 90 
    803       364.974 DT     02E1 Rx 8  05 00 00 00 00 00 00 00 
    804       365.436 DT     0359 Rx 8  03 00 00 00 FF 01 00 00 
    805       365.674 DT     039A Rx 8  FC FD FD FD FD FD FD 01 
    806       365.910 DT     0129 Rx 8  ED 25 4F 20 00 20 FF 3F 
    807       366.152 DT     0132 Rx 8  08 8A 01 00 39 40 00 00 
    808       366.321 DT     0249 Rx 4  E8 01 00 00 
    809       366.453 DT     02D1 Rx 2  7F 01 
    810       367.073 DT     0552 Rx 8  00 00 00 00 00 00 30 87 
    811       368.851 DT     0201 Rx 8  74 85 08 00 00 00 00 00 
    812       369.457 DT     0423 Rx 6  F0 00 00 00 08 00 
    813       370.067 DT     0142 Rx 8  01 00 40 0A 00 00 00 00 
    814       370.851 DT     03A1 Rx 8  6B 9E 22 01 00 00 70 32 
    815       371.307 DT     013D Rx 6  05 20 AA 1A FF 02 
    816       371.555 DT     038A Rx 8  00 00 00 00 00 00 00 00 
    817       372.066 DT     0789 Rx 8  54 09 00 00 00 00 30 3C 
    818       372.848 DT     02C1 Rx 8  07 00 0D 13 0E 0D 00 1A 
    819       373.096 DT     0381 Rx 8  05 00 00 00 00 00 00 00 
    820       373.340 DT     0677 Rx 8  05 02 00 28 00 00 00 00 
    821       374.020 DT     0422 Rx 6  00 00 10 00 00 00 
    822       374.504 DT     02C3 Rx 8  00 00 00 97 01 00 80 69 
    823       375.892 DT     0129 Rx 8  37 26 4F 20 00 20 FF 3F 
    824       376.133 DT     0132 Rx 8  0F 8A 00 00 39 40 00 00 
    825       376.867 DT     0421 Rx 7  00 0A 00 10 00 00 00 
    826       377.421 DT     042A Rx 8  01 90 00 48 00 24 00 02 
    827       377.647 DT     02D2 Rx 8  D9 29 8D 4E 79 04 6F 01 
    828       377.881 DT     0252 Rx 8  1E 10 C5 05 F4 01 A0 0F 
    829       378.109 DT     0212 Rx 8  B9 24 C4 0F 03 39 18 03 
    830       378.336 DT     0292 Rx 8  4B 5F 5D B5 D4 27 8A 01 
    831       378.468 DT     02F2 Rx 2  62 01 
    832       378.718 DT     03C8 Rx 8  03 00 00 00 00 00 00 00 
    833       378.964 DT     03C9 Rx 8  05 00 00 00 00 00 00 00 
    834       379.194 DT     0545 Rx 8  20 02 36 A0 A2 1E 5A 5C 
    835       379.530 DT     0263 Rx 8  00 EE 0C F3 E4 7D D5 00 
    836       380.072 DT     03A2 Rx 8  6D 04 00 00 01 70 21 01 
    837       380.864 DT     02E1 Rx 8  10 21 04 00 00 00 26 08 
    838       381.100 DT     02C2 Rx 8  55 5B A9 06 00 00 12 00 
    839       381.330 DT     023E Rx 8  28 C6 63 95 01 6E 46 DB 
    840       381.529 DT     013D Rx 6  05 20 AA 1A FF 02 
    841       381.819 DT     0293 Rx 8  01 0C 55 91 55 15 34 26 
    842       382.029 DT     0253 Rx 7  64 C8 A7 64 C8 47 03 
    843       382.874 DT     0201 Rx 8  25 85 02 00 00 80 3E FA 
    844       383.110 DT     0285 Rx 8  03 75 9D 4B 8A 00 00 00 
    845       383.344 DT     0219 Rx 5  F1 1F FF FF 03 
    846       383.994 DT     0788 Rx 8  10 DD A1 63 00 00 00 10 
    847       384.856 DT     02C1 Rx 8  70 CE 39 0D 8E 1F 00 00 
    848       385.894 DT     0129 Rx 8  20 27 4F 20 00 20 FF 3F 
    849       386.133 DT     0132 Rx 8  FE 89 00 00 38 40 00 00 
    850       386.865 DT     0718 Rx 7  03 FF FF FF FF FF FF 
    851       387.845 DT     0441 Rx 8  8A C5 44 20 DB 0E 0C 62 
    852       388.797 DT     0361 Rx 5  35 0A 22 06 02 
    853       389.041 DT     0677 Rx 8  F8 FF FF FF FF FF FF 3F 
    854       389.459 DT     02F9 Rx 8  D0 FB 07 18 00 00 00 00 
    855       389.638 DT     0323 Rx 5  37 16 1E 01 00 
    856       389.992 DT     0288 Rx 8  03 16 54 48 51 00 41 D1 
    857       390.216 DT     02E2 Rx 8  52 49 5C 5C 49 59 49 0C 
    858       390.458 DT     03C2 Rx 8  29 55 00 00 00 00 00 00 
    859       391.306 DT     013D Rx 6  05 20 AA 1A FF 02 
    860       392.422 DT     02C4 Rx 8  0C F4 69 16 AC 0C 00 00 
    861       392.656 DT     0204 Rx 8  A6 07 46 46 06 06 06 11 
    862       392.904 DT     055A Rx 8  01 00 00 00 00 00 00 00 
    863       393.147 DT     0405 Rx 8  10 00 00 00 00 4C 52 57 
    864       393.347 DT     0264 Rx 6  BC 1B 05 09 A0 00 
    865       393.587 DT     0224 Rx 8  04 08 00 40 19 01 10 08 
    866       393.767 DT     02B4 Rx 5  6C B5 25 E5 00 
    867       394.396 DT     0225 Rx 3  05 45 52 
    868       394.632 DT     0243 Rx 8  AE B1 A9 0F 04 00 00 00 
    869       394.874 DT     0261 Rx 8  FE FD E9 19 90 5C 65 8F 
    870       395.446 DT     03F9 Rx 8  02 00 00 00 00 00 00 00 
    871       395.686 DT     039A Rx 8  FD FD FD FD FD 01 00 00 
    872       395.922 DT     0129 Rx 8  F7 28 4F 20 00 20 FF 3F 
    873       396.161 DT     0132 Rx 8  0E 8A 01 00 39 40 00 00 
    874       396.405 DT     0372 Rx 8  0B FF FF 3F FF FF 3F 80 
    875       396.587 DT     039D Rx 5  5E 55 41 28 00 
    876       396.823 DT     0798 Rx 8  02 00 76 25 3F 01 30 15 
    877       396.973 DT     01FA Rx 3  3A C0 01 
    878       397.215 DT     0201 Rx 8  1E 73 37 03 00 00 00 00 
    879       397.455 DT     02C1 Rx 8  01 00 00 14 28 70 64 00 
    880       397.689 DT     02E1 Rx 8  29 0A A3 6A 17 00 00 00 
    881       399.459 DT     0283 Rx 6  00 00 00 00 00 00 
    882       399.814 DT     02A1 Rx 6  00 00 98 3A 00 00 
    883       400.078 DT     01FB Rx 8  00 FF FF FF FF FF FF FF 
    884       401.310 DT     013D Rx 6  05 20 AA 1A FF 02 
    885       401.556 DT     0339 Rx 8  00 B1 00 00 00 01 40 0F 
    886       402.060 DT     06C8 Rx 8  01 00 00 00 00 00 00 00 
    887       403.934 DT     0242 Rx 2  10 95 
    888       404.504 DT     03C0 Rx 8  01 00 00 00 00 00 00 01 
    889       404.870 DT     0677 Rx 8  01 FF FF FF FF FF FF 00 
    890       405.111 DT     0221 Rx 8  41 01 55 00 00 00 60 1A 
    891       405.893 DT     0129 Rx 8  A2 29 4F 20 00 20 FF 3F 
    892       406.131 DT     0132 Rx 8  0A 8A 01 00 3A 40 00 00 
    893       407.403 DT     0719 Rx 8  01 00 00 00 00 00 00 00 
    894       408.007 DT     02A8 Rx 8  C2 00 00 00 00 80 70 5C 
    895       408.867 DT     02C1 Rx 8  02 74 C4 57 00 80 02 00 
    896       409.512 DT     0103 Rx 8  12 31 00 00 96 14 11 02 
    897       409.744 DT     0263 Rx 8  01 E9 12 F2 E4 7D D6 0A 
    898       409.982 DT     02B3 Rx 8  03 73 73 6A 00 3E 00 00 
    899       410.218 DT     0282 Rx 8  64 00 02 08 18 D4 F2 24 
    900       410.852 DT     0201 Rx 8  58 07 1E 00 5C 43 06 29 
    901       411.100 DT     0360 Rx 8  05 00 00 00 00 00 00 00 
    902       411.344 DT     0545 Rx 8  01 00 00 00 00 10 60 BB 
    903       411.542 DT     013D Rx 6  05 20 AA 1A FF 02 
    904       411.840 DT     0381 Rx 8  C6 39 CF 21 96 18 03 00 
    905       412.267 DT     0419 Rx 1  00 
    906       412.857 DT     02E1 Rx 8  02 00 00 00 00 00 01 00 
    907       413.385 DT     01F9 Rx 6  00 00 00 00 00 00 
    908       413.977 DT     0428 Rx 6  00 00 10 10 00 00 
    909       414.501 DT     0123 Rx 8  00 00 42 12 D2 00 00 80 
    910       415.895 DT     0129 Rx 8  7D 2A 4F 20 00 20 FF 3F 
    911       416.135 DT     0132 Rx 8  16 8A 00 00 38 40 00 00 
    912       416.283 DT     0229 Rx 3  6D 03 00 
    913       416.462 DT     0249 Rx 4  2A 02 00 00 
    914       416.726 DT     054F Rx 8  00 00 00 00 00 00 00 00 
    915       418.084 DT     0102 Rx 8  22 33 00 00 E8 38 11 08 
    916       419.400 DT     0439 Rx 8  00 00 20 00 00 00 43 02 
    917       419.588 DT     03A3 Rx 5  00 D0 00 00 08 
    918       420.074 DT     0142 Rx 8  28 00 02 00 00 00 00 00 
    919       420.327 DT     0797 Rx 8  14 09 00 00 00 00 30 39 
    920       420.855 DT     02C1 Rx 8  03 00 40 66 A2 B0 34 00 
    921       421.089 DT     03A1 Rx 8  64 62 0D 98 00 38 82 BB 
    922       421.319 DT     023E Rx 8  28 C6 63 95 01 6E 56 EB 
    923       421.517 DT     013D Rx 6  05 20 AA 1A FF 02 
    924       421.763 DT     0677 Rx 8  02 FF FF FF FF 00 00 00 
    925       422.011 DT     0340 Rx 8  02 00 00 00 00 00 00 00 
    926       424.489 DT     0393 Rx 8  06 00 FD E0 07 C0 1E 20 
    927       424.722 DT     0243 Rx 8  CC 80 33 E0 98 36 0E 29 
    928       424.954 DT     0201 Rx 8  01 64 64 53 62 03 96 00 
    929       425.158 DT     0122 Rx 6  00 00 12 12 12 00 
    930       425.314 DT     0119 Rx 2  00 00 
    931       425.552 DT     039A Rx 8  FC FD FD FD FD FD FD 01 
    932       425.894 DT     0129 Rx 8  8C 2B 4F 20 00 20 FF 3F 
    933       426.137 DT     0132 Rx 8  17 8A 01 00 3C 40 00 00 
    934       426.391 DT     03E8 Rx 8  03 00 00 00 00 00 00 00 
    935       427.845 DT     0261 Rx 8  03 00 00 00 00 40 74 F8 
    936       428.857 DT     02E1 Rx 8  03 43 00 02 28 6D 00 00 
    937       429.502 DT     020C Rx 8  64 39 38 1E 00 B1 37 0C 
    938       429.704 DT     0420 Rx 6  28 01 40 4B 00 80 
    939       430.090 DT     03A2 Rx 8  00 C0 F2 15 05 80 46 6B 
    940       431.344 DT     075D Rx 8  A9 10 E7 A3 B7 4C 02 00 
    941       431.581 DT     021D Rx 8  2D 20 20 14 80 00 60 10 
    942       431.713 DT     0213 Rx 2  00 15 
    943       431.831 DT     041D Rx 1  20 
    944       432.029 DT     013D Rx 6  05 20 AA 1A FF 02 
    945       432.257 DT     025D Rx 8  DB 8C 01 C4 44 C1 0A E0 
    946       432.497 DT     0272 Rx 8  06 00 FD E8 07 C0 1E 20 
    947       432.696 DT     043D Rx 6  05 20 AA 1A FF 02 
    948       432.910 DT     0241 Rx 7  3E 78 AC 0F 1E 5B 00 
    949       433.160 DT     027D Rx 8  00 00 00 00 00 00 00 00 
    950       433.396 DT     02C1 Rx 8  04 CA 03 03 64 C1 39 53 
    951       433.550 DT     077D Rx 3  12 00 00 
    952       433.720 DT     029D Rx 4  00 00 00 20 
    953       433.956 DT     07A8 Rx 8  14 D5 A1 63 00 00 40 10 
    954       434.113 DT     07DD Rx 3  FF 00 01 
    955       434.283 DT     02BD Rx 4  00 00 00 00 
    956       434.419 DT     03E3 Rx 2  00 00 
    957       435.891 DT     0129 Rx 8  EC 2C 4F 20 00 20 FF 3F 
    958       436.129 DT     0132 Rx 8  0D 8A 01 00 39 40 00 00 
    959       436.311 DT     039D Rx 5  5F 56 41 28 00 
    960       436.871 DT     0677 Rx 8  FB FF FF FF FF FF FF 27 
    961       437.102 DT     0718 Rx 7  04 FF FF 00 00 00 00 
    962       438.390 DT     0228 Rx 8  03 16 54 48 51 00 41 71 
    963       438.852 DT     0201 Rx 8  0A 13 20 C0 08 40 B5 01 
    964       439.024 DT     01F8 Rx 4  3A 00 00 00 
    965       439.520 DT     04E3 Rx 8  04 00 00 00 00 00 00 00 
    966       439.764 DT     0263 Rx 8  02 00 00 00 78 0D 00 00 
    967       440.170 DT     03C2 Rx 8  00 55 55 55 00 00 55 45 
    968       440.290 DT     0409 Rx 1  00 
    969       441.307 DT     013D Rx 6  05 20 AA 1A FF 02 
    970       441.547 DT     0379 Rx 8  04 A0 77 19 00 00 00 00 
    971       442.575 DT     0113 Rx 3  01 97 01 
    972       442.807 DT     07FF Rx 8  04 CC 16 54 61 12 B4 2A 
    973       443.041 DT     0318 Rx 8  16 03 30 0E 11 35 0B C3 
    974       443.269 DT     0458 Rx 7  02 02 00 80 00 00 00 
    975       443.885 DT     02F1 Rx 8  10 01 00 00 00 00 00 00 
    976       444.124 DT     0545 Rx 8  02 00 31 00 00 00 70 ED 
    977       444.358 DT     07B8 Rx 8  6A 1D 00 36 D0 03 30 62 
    978       444.574 DT     02E3 Rx 7  F7 D3 4F 3F A5 20 08 
    979       444.854 DT     02C1 Rx 8  55 00 01 63 A0 00 00 00 
    980       445.086 DT     02E1 Rx 8  FC 19 25 6A 9F 28 0A 00 
    981       445.310 DT     0400 Rx 7  60 60 E0 BF EF FB 00 
    982       445.892 DT     0129 Rx 8  FE 2D 4F 20 00 20 FF 3F 
    983       446.131 DT     0132 Rx 8  17 8A 00 00 38 40 00 00 
    984       446.377 DT     0372 Rx 8  0C 00 00 00 00 00 00 00 
    985       446.617 DT     03E2 Rx 8  40 15 80 0A 00 00 04 04 
    986       447.327 DT     0473 Rx 8  30 00 00 00 FB 9C 34 62 
    987       447.443 DT     0139 Rx 1  00 
    988       449.491 DT     0343 Rx 8  00 90 64 4E A2 36 00 00 
    989       449.864 DT     077A Rx 8  00 C4 1C 00 F4 0C 00 00 
    990       450.104 DT     01FB Rx 8  01 FE FF B7 6D 0B 00 00 
    991       450.386 DT     06E8 Rx 8  01 00 00 00 00 00 00 00 
    992       450.836 DT     0381 Rx 8  67 69 55 A4 48 93 22 05 
    993       451.354 DT     07AA Rx 8  C0 EF EE F5 00 00 00 00 
    994       451.552 DT     013D Rx 6  05 20 AA 1A FF 02 
    995       451.847 DT     078A Rx 8  01 00 05 00 00 00 74 06 
    996       452.861 DT     0201 Rx 8  13 C5 02 00 00 70 FE F9 
    997       453.103 DT     04E2 Rx 8  04 00 11 00 09 00 00 00 
    998       453.351 DT     0677 Rx 8  04 0F 00 00 00 00 00 00 
    999       453.599 DT     03DA Rx 8  00 00 00 00 00 00 00 00 
   1000       454.501 DT     03C3 Rx 8  00 00 00 00 00 45 00 00 
   1001       454.729 DT     0243 Rx 8  F9 00 6F 71 70 71 90 90 
   1002       454.963 DT     0221 Rx 8  40 41 05 05 00 50 71 6F 
   1003       455.206 DT     03F5 Rx 8  00 C8 19 09 00 00 00 00 
   1004       455.448 DT     025B Rx 8  D3 C0 02 00 00 00 10 00 
   1005       455.688 DT     039A Rx 8  FD FD FD FD FD 01 00 00 
   1006       455.926 DT     0129 Rx 8  21 2E 4F 20 00 20 FF 3F 
   1007       456.164 DT     0132 Rx 8  0B 8A 00 00 37 40 00 00 
   1008       456.402 DT     02E8 Rx 8  C2 00 00 00 00 80 70 9C 
   1009       456.912 DT     02C1 Rx 8  06 00 00 00 40 00 00 00 
   1010       459.422 DT     037A Rx 8  01 00 00 00 00 00 00 00 
   1011       459.663 DT     02A7 Rx 8  00 00 00 00 00 86 05 84 
   1012       459.909 DT     0553 Rx 8  00 00 00 00 00 00 40 98 
   1013       460.141 DT     0262 Rx 8  0B 00 D2 0D 00 F0 D2 12 
   1014       460.371 DT     0282 Rx 8  4D 21 10 88 04 01 7A 04 
   1015       460.863 DT     02E1 Rx 8  05 00 00 00 00 00 00 00 
   1016       461.097 DT     0261 Rx 8  00 10 57 00 D6 43 80 41 
   1017       461.331 DT     023E Rx 8  28 C6 63 95 01 6E 66 FB 
   1018       461.529 DT     013D Rx 6  05 20 AA 1A FF 02 
   1019       461.774 DT     02A6 Rx 8  00 00 FF 1F 00 00 00 00 
   1020       462.354 DT     0448 Rx 6  00 00 10 10 00 00 
   1021       463.534 DT     02C7 Rx 8  00 00 00 00 00 42 41 FF 
   1022       464.302 DT     022A Rx 4  00 00 1D 16 
   1023       464.546 DT     0383 Rx 8  8B 00 22 80 00 00 00 01 
   1024       465.430 DT     0359 Rx 8  04 00 00 00 01 00 00 04 
   1025       465.750 DT     02D1 Rx 2  7F 01 
   1026       465.986 DT     0129 Rx 8  7D 2F 4F 20 01 20 FF 3F 
   1027       466.227 DT     0132 Rx 8  10 8A 00 00 37 40 00 00 
   1028       466.393 DT     0249 Rx 4  D3 03 00 00 
   1029       466.885 DT     0201 Rx 8  74 85 08 00 00 00 00 00 
   1030       467.129 DT     0552 Rx 8  00 00 00 00 00 00 40 97 
   1031       468.855 DT     02C1 Rx 8  07 00 0D 13 0E 0D 00 1A 
   1032       469.099 DT     0677 Rx 8  05 02 00 28 00 00 00 00 
   1033       469.463 DT     0423 Rx 6  50 00 00 00 08 00 
   1034       469.707 DT     0263 Rx 8  03 10 20 03 00 00 00 00 
   1035       470.074 DT     0142 Rx 8  01 00 40 0A 00 00 00 00 
   1036       470.850 DT     03A1 Rx 8  6B 9E 22 01 00 00 90 52 
   1037       471.310 DT     013D Rx 6  05 20 AA 1A FF 02 
   1038       471.558 DT     038A Rx 8  01 00 00 00 00 00 00 00 
   1039       472.068 DT     0789 Rx 8  54 09 00 00 00 00 40 4C 
   1040       474.020 DT     0422 Rx 6  00 00 10 00 00 00 
   1041       474.488 DT     02C3 Rx 8  55 5B A9 36 00 00 12 00 
   1042       475.892 DT     0129 Rx 8  5C 20 4F 20 FF 1F FF 3F 
   1043       476.130 DT     0132 Rx 8  08 8A 01 00 3A 40 00 00 
   1044       476.312 DT     039D Rx 5  60 57 41 28 00 
   1045       476.866 DT     0421 Rx 7  00 0A 00 10 00 00 00 
   1046       477.108 DT     02E1 Rx 8  10 21 04 00 00 00 26 08 
   1047       477.340 DT     0545 Rx 8  70 02 31 00 A3 1F 8A 39 
   1048       477.567 DT     02D2 Rx 8  D9 29 8D 4E 79 04 6F 01 
   1049       477.801 DT     0252 Rx 8  1E 10 C5 05 F4 01 A0 0F 
   1050       478.033 DT     0212 Rx 8  B9 24 C4 0F 03 38 18 03 
   1051       478.259 DT     0292 Rx 8  4B 5F 5D B5 D4 27 8A 01 
   1052       478.391 DT     02F2 Rx 2  62 01 
   1053       478.631 DT     0392 Rx 8  01 05 A9 16 01 00 00 00 
   1054       478.882 DT     03C8 Rx 8  04 00 00 00 00 00 00 00 
   1055       479.124 DT     042A Rx 8  01 90 00 48 00 24 00 02 
   1056       479.356 DT     0782 Rx 8  0C F4 C2 8B B0 2A 70 0A 
   1057       480.070 DT     03A2 Rx 8  6D 04 00 00 01 70 21 01 
   1058       480.864 DT     02C1 Rx 8  80 0E 3A 0D 8E 1F 00 00 
   1059       481.104 DT     0201 Rx 8  25 85 02 00 00 80 3E FA 
   1060       481.344 DT     02C2 Rx 8  00 00 00 97 01 00 C0 65 
   1061       481.543 DT     013D Rx 6  05 20 AA 1A FF 02 
   1062       483.347 DT     0219 Rx 5  F2 1F FF FF 01 
   1063       484.003 DT     0788 Rx 8  01 00 00 00 FF A1 08 00 
   1064       484.479 DT     0243 Rx 8  AE B1 A9 0F 04 00 00 00 
   1065       484.859 DT     0677 Rx 8  F8 FF FF FF FF FF FF 3F 
   1066       485.435 DT     043B Rx 8  00 7F 00 FF 00 00 00 00 
   1067       485.677 DT     034A Rx 8  02 07 00 10 00 00 00 50 
   1068       485.914 DT     0129 Rx 8  22 21 4F 20 00 20 FF 3F 
   1069       486.154 DT     0132 Rx 8  0E 8A 00 00 38 40 00 00 
   1070       486.392 DT     039A Rx 8  FC FD FD FD FD FD FD 01 
   1071       486.858 DT     0718 Rx 7  00 7F 7F 7F FF FF FF 
   1072       487.846 DT     0441 Rx 8  8B C5 44 20 DB 0E 10 67 
   1073       489.466 DT     02F9 Rx 8  D0 FB 07 20 00 00 00 00 
   1074       489.854 DT     0381 Rx 8  08 59 0A FC 07 00 00 00 
   1075       490.086 DT     0288 Rx 8  03 16 54 08 51 00 51 A1 
   1076       490.329 DT     03C2 Rx 8  29 55 00 00 00 00 00 00 
   1077       491.307 DT     013D Rx 6  05 20 AA 1A FF 02 
   1078       492.429 DT     02C4 Rx 8  4D A9 52 A5 00 00 00 00 
   1079       492.663 DT     0204 Rx 8  A6 07 46 46 07 07 07 11 
   1080       492.903 DT     02C1 Rx 8  01 00 00 14 28 70 64 00 
   1081       493.138 DT     02E1 Rx 8  29 0A A3 6A 17 00 00 00 
   1082       493.340 DT     0264 Rx 6  BE 1B 05 09 A0 00 
   1083       493.580 DT     0224 Rx 8  04 08 00 40 19 01 10 08 
   1084       493.760 DT     02B4 Rx 5  6B B5 25 EC 00 
   1085       493.988 DT     0261 Rx 8  31 48 76 00 29 4A 9A 3D 
   1086       494.400 DT     0225 Rx 3  05 45 52 
   1087       494.868 DT     0201 Rx 8  1E 73 37 03 00 00 00 00 
   1088       495.449 DT     03F9 Rx 8  03 00 00 00 00 00 00 00 
   1089       495.891 DT     0129 Rx 8  6B 22 4F 20 00 20 FF 3F 
   1090       496.135 DT     0132 Rx 8  0E 8A 00 00 39 40 00 00 
   1091       496.377 DT     0372 Rx 8  0D 43 1F 00 00 00 00 00 
   1092       496.605 DT     0798 Rx 8  93 76 5A D3 4E 0B 40 D7 
   1093       496.965 DT     01FA Rx 3  3A C0 01 
   1094       499.464 DT     0283 Rx 6  00 00 00 00 00 00 
   1095       499.698 DT     0263 Rx 8  00 EE 0C F3 E4 7D D5 00 
   1096       499.904 DT     02A1 Rx 6  00 00 98 3A 00 00 
   1097       500.156 DT     01FB Rx 8  00 FF FF FF FF FF FF FF 
   1098       500.392 DT     02B3 Rx 8  04 96 96 96 95 00 00 00 
   1099       500.866 DT     0677 Rx 8  01 FF FF FF FF FF FF 00 
   1100       501.282 DT     023E Rx 8  28 C6 63 95 01 6E 76 0B 
   1101       501.480 DT     013D Rx 6  05 20 AA 1A FF 02 
   1102       501.727 DT     0339 Rx 8  00 B1 00 00 00 01 40 0F 
   1103       502.069 DT     06C8 Rx 8  CC 01 00 2C 00 00 00 00 
   1104       503.939 DT     0242 Rx 2  10 95 
   1105       504.509 DT     03C0 Rx 8  02 00 00 04 00 00 00 00 
   1106       504.863 DT     02C1 Rx 8  02 74 C4 57 00 80 02 00 
   1107       505.099 DT     0221 Rx 8  41 01 55 00 00 00 80 3A 
   1108       505.897 DT     0129 Rx 8  7C 23 4F 20 00 20 FF 3F 
   1109       506.139 DT     0132 Rx 8  0B 8A 01 00 3A 40 00 00 
   1110       506.390 DT     0320 Rx 8  02 00 00 00 00 00 00 00 
   1111       506.626 DT     0772 Rx 8  02 0A 2E 09 10 09 00 00 
   1112       507.406 DT     0719 Rx 8  00 94 52 00 00 00 00 00 
   1113       508.012 DT     02A8 Rx 8  C2 00 00 00 00 80 80 6C 
   1114       508.866 DT     0201 Rx 8  30 67 1D 00 5C 43 06 29 
   1115       509.110 DT     02E1 Rx 8  02 00 00 00 00 00 01 00 
   1116       509.514 DT     0103 Rx 8  12 31 00 00 96 14 11 02 
   1117       509.869 DT     0545 Rx 8  01 00 00 00 00 10 90 EB 
   1118       510.105 DT     0282 Rx 8  64 00 02 08 18 D4 F2 24 
   1119       511.095 DT     0360 Rx 8  06 00 00 00 00 00 00 00 
   1120       511.307 DT     013D Rx 6  05 20 AA 1A FF 02 
   1121       512.241 DT     0419 Rx 1  00 
   1122       513.373 DT     01F9 Rx 6  00 00 00 00 00 00 
   1123       513.965 DT     0428 Rx 6  00 00 10 10 00 00 
   1124       514.516 DT     0123 Rx 8  00 00 42 12 D2 00 00 80 
   1125       514.748 DT     0243 Rx 8  CC 80 33 E0 98 36 0E 29 
   1126       515.470 DT     039A Rx 8  FD FD FD FD FD 01 00 00 
   1127       515.892 DT     0129 Rx 8  FA 24 4F 20 00 20 FF 3F 
   1128       516.130 DT     0132 Rx 8  11 8A 00 00 38 40 00 00 
   1129       516.280 DT     0229 Rx 3  43 04 00 
   1130       516.461 DT     039D Rx 5  61 58 41 28 00 
   1131       516.627 DT     0249 Rx 4  D3 04 00 00 
   1132       516.809 DT     0708 Rx 5  2C 21 09 00 00 
   1133       517.047 DT     02C1 Rx 8  03 00 40 66 A2 B0 34 00 
   1134       517.297 DT     054F Rx 8  00 00 00 00 00 00 00 00 
   1135       517.543 DT     0677 Rx 8  02 FF FF FF FF 00 00 00 
   1136       518.081 DT     0102 Rx 8  22 33 00 00 E8 38 11 08 
   1137       519.403 DT     0439 Rx 8  00 00 20 00 00 00 43 02 
   1138       519.592 DT     03A3 Rx 5  00 D0 00 00 08 
   1139       519.776 DT     0739 Rx 5  24 06 1B 01 00 
   1140       520.080 DT     0142 Rx 8  28 00 02 00 00 00 00 00 
   1141       520.332 DT     0797 Rx 8  14 09 00 00 00 00 40 49 
   1142       520.878 DT     03A1 Rx 8  64 62 0D 98 00 38 A2 DB 
   1143       521.306 DT     013D Rx 6  05 20 AA 1A FF 02 
   1144       521.865 DT     0340 Rx 8  03 00 00 00 00 00 00 00 
   1145       522.017 DT     0362 Rx 3  00 00 00 
   1146       522.844 DT     0201 Rx 8  01 64 64 53 62 03 96 00 
   1147       524.484 DT     0393 Rx 8  09 80 63 00 00 00 00 00 
   1148       524.858 DT     02E1 Rx 8  03 43 00 02 28 6D 00 00 
   1149       525.062 DT     0122 Rx 6  00 00 12 12 12 00 
   1150       525.334 DT     0119 Rx 2  00 00 
   1151       525.892 DT     0129 Rx 8  ED 25 4F 20 00 20 FF 3F 
   1152       526.133 DT     0132 Rx 8  0F 8A 00 00 39 40 00 00 
   1153       526.397 DT     03E8 Rx 8  04 00 00 00 00 00 00 00 
   1154       526.873 DT     0261 Rx 8  FE FD E9 19 90 5C A5 CF 
   1155       528.865 DT     02C1 Rx 8  04 CA 03 03 64 C1 39 53 
   1156       529.095 DT     0381 Rx 8  69 0A DF 32 91 03 1C 08 
   1157       529.299 DT     0420 Rx 6  28 01 40 4B 00 90 
   1158       529.533 DT     020C Rx 8  68 39 38 1E 00 B1 37 0C 
   1159       529.765 DT     0263 Rx 8  01 E9 12 F2 E4 7D D6 0A 
   1160       530.079 DT     03A2 Rx 8  00 E0 72 17 05 80 46 6B 
   1161       531.342 DT     033D Rx 8  1A 29 0A BE 87 4A FA 98 
   1162       531.460 DT     041D Rx 1  20 
   1163       531.702 DT     037D Rx 8  62 FF 60 60 FF FF FF 3F 
   1164       531.900 DT     043D Rx 6  05 20 AA 1A FF 02 
   1165       532.144 DT     0272 Rx 8  09 80 63 00 00 00 00 00 
   1166       532.349 DT     03DD Rx 6  00 12 00 13 00 05 
   1167       532.547 DT     013D Rx 6  05 20 AA 1A FF 02 
   1168       532.783 DT     021D Rx 8  2D 20 20 14 80 00 60 10 
   1169       533.003 DT     0241 Rx 7  3C 78 2C 0F 1E 5B 00 
   1170       533.239 DT     0473 Rx 8  30 00 00 00 FB 9C 34 62 
   1171       533.483 DT     0677 Rx 8  FB FF FF FF FF FF FF 27 
   1172       533.728 DT     03B3 Rx 8  88 80 05 00 00 00 60 00 
   1173       533.882 DT     077D Rx 3  12 00 00 
   1174       534.110 DT     025D Rx 8  DB 8C 01 C4 44 C1 0A E0 
   1175       534.352 DT     07A8 Rx 8  01 00 00 00 FF A1 08 00 
   1176       534.488 DT     03E3 Rx 2  00 00 
   1177       534.644 DT     07DD Rx 3  FF 00 01 
   1178       534.895 DT     027D Rx 8  00 00 00 00 00 00 00 00 
   1179       535.065 DT     029D Rx 4  00 00 00 20 
   1180       535.235 DT     02BD Rx 4  00 00 00 00 
   1181       535.891 DT     0129 Rx 8  37 26 4F 20 00 20 FF 3F 
   1182       536.131 DT     0132 Rx 8  10 8A 01 00 39 40 00 00 
   1183       536.875 DT     0201 Rx 8  0A 13 20 C0 08 40 B5 01 
   1184       537.104 DT     0718 Rx 7  01 FF FF FF FF FF 00 
   1185       538.394 DT     0228 Rx 8  03 16 54 48 51 00 51 81 
   1186       538.986 DT     01F8 Rx 4  3A 00 00 00 
   1187       539.510 DT     04E3 Rx 8  A5 05 6A 71 04 05 00 00 
   1188       540.168 DT     03C2 Rx 8  00 55 55 55 00 00 55 45 
   1189       540.288 DT     0409 Rx 1  00 
   1190       540.876 DT     02C1 Rx 8  55 00 01 63 A0 00 00 00 
   1191       541.108 DT     02E1 Rx 8  FC 19 25 6A 9F 23 0A 00 
   1192       541.309 DT     013D Rx 6  05 20 AA 1A FF 02 
   1193       541.545 DT     0379 Rx 8  05 60 EC 05 92 00 04 00 
   1194       542.049 DT     023E Rx 8  28 C6 63 95 01 6E 86 1B 
   1195       542.575 DT     0113 Rx 3  01 97 01 
   1196       542.821 DT     07FF Rx 8  05 08 A0 40 00 00 00 00 
   1197       543.061 DT     0545 Rx 8  02 00 33 00 00 00 A0 1F 
   1198       543.293 DT     0318 Rx 8  16 03 30 0E 11 35 0D C5 
   1199       543.521 DT     0458 Rx 7  02 02 00 80 00 00 00 
   1200       543.879 DT     02F1 Rx 8  11 41 00 5D 00 54 0A 00 
   1201       544.372 DT     07B8 Rx 8  AB 2D 37 9B 6D 06 40 FF 
   1202       544.600 DT     0243 Rx 8  F9 00 6F 71 70 71 90 90 
   1203       544.820 DT     02E3 Rx 7  98 4D 34 00 00 00 00 
   1204       545.128 DT     0400 Rx 7  60 60 E0 BF EF FB 00 
   1205       545.464 DT     039A Rx 8  FC FD FD FD FD FD FD 01 
   1206       545.888 DT     0129 Rx 8  8D 27 4F 20 01 20 FF 3F 
   1207       546.129 DT     0132 Rx 8  0C 8A 00 00 38 40 00 00 
   1208       546.365 DT     0372 Rx 8  0E 00 00 50 35 83 06 2E 
   1209       546.605 DT     03E2 Rx 8  40 15 80 0A 00 00 04 04 
   1210       547.279 DT     0139 Rx 1  00 
   1211       548.871 DT     0677 Rx 8  04 0F 00 00 00 00 00 00 
   1212       549.507 DT     0343 Rx 8  00 90 64 BE A2 51 00 00 
   1213       549.747 DT     076A Rx 8  00 4C 0B D3 02 00 00 00 
   1214       550.073 DT     01FB Rx 8  01 FE FF B7 6D 0B 00 00 
   1215       550.330 DT     06E8 Rx 8  CC 01 00 2C 00 00 00 00 
   1216       550.864 DT     0201 Rx 8  13 C5 02 00 00 70 FE F9 
   1217       551.100 DT     07AA Rx 8  01 D0 0D CD 0D 02 00 00 
   1218       551.362 DT     078A Rx 8  01 00 06 00 00 00 05 00 
   1219       551.560 DT     013D Rx 6  05 20 AA 1A FF 02 
   1220       552.871 DT     02C1 Rx 8  06 00 00 00 40 00 00 00 
   1221       553.108 DT     04E2 Rx 8  65 02 86 41 00 20 00 00 
   1222       553.407 DT     03DA Rx 8  00 00 00 00 00 00 00 00 
   1223       554.539 DT     03C3 Rx 8  55 55 55 01 00 00 00 00 
   1224       554.873 DT     03F5 Rx 8  00 C8 19 09 00 00 00 00 
   1225       555.107 DT     0221 Rx 8  40 41 05 05 00 50 91 8F 
   1226       555.345 DT     025B Rx 8  D3 C0 02 00 00 00 20 10 
   1227       555.894 DT     0129 Rx 8  F7 28 4F 20 00 20 FF 3F 
   1228       556.134 DT     0132 Rx 8  07 8A 00 00 39 40 00 00 
   1229       556.314 DT     039D Rx 5  62 59 41 28 00 
   1230       556.556 DT     02E8 Rx 8  C2 00 00 00 00 80 80 AC 
   1231       556.894 DT     02E1 Rx 8  05 00 00 00 00 00 00 00 
   1232       559.424 DT     037A Rx 8  02 00 00 00 00 00 00 00 
   1233       559.668 DT     0263 Rx 8  02 00 00 00 78 0D 00 00 
   1234       559.907 DT     0261 Rx 8  03 00 00 00 00 40 B4 38 
   1235       560.139 DT     0262 Rx 8  0B 00 D2 0D 00 F0 D2 12 
   1236       560.371 DT     0282 Rx 8  4D 21 10 08 3B 01 7A 04 
   1237       560.611 DT     02A7 Rx 8  00 00 00 00 00 86 05 84 
   1238       560.853 DT     0553 Rx 8  00 00 00 00 00 00 50 A8 
   1239       561.315 DT     013D Rx 6  05 20 AA 1A FF 02 
   1240       561.559 DT     02A6 Rx 8  00 00 FF 1F 00 00 00 00 
   1241       562.297 DT     0448 Rx 6  00 00 10 10 00 00 
   1242       563.525 DT     02C7 Rx 8  00 00 00 00 00 42 41 FF 
   1243       563.882 DT     022A Rx 4  00 00 1D 16 
   1244       564.506 DT     0383 Rx 8  8B 00 22 80 00 00 00 01 
   1245       564.864 DT     02C1 Rx 8  07 00 0D 13 0E 0D 00 1A 
   1246       565.108 DT     0201 Rx 8  74 85 08 00 00 00 00 00 
   1247       565.352 DT     0677 Rx 8  05 02 00 28 00 00 00 00 
   1248       565.598 DT     0359 Rx 8  05 00 00 00 00 00 00 00 
   1249       565.748 DT     02D1 Rx 2  7F 01 
   1250       565.985 DT     0129 Rx 8  A2 29 4F 20 00 20 FF 3F 
   1251       566.225 DT     0132 Rx 8  0D 8A 01 00 38 40 00 00 
   1252       566.393 DT     0249 Rx 4  83 05 00 00 
   1253       567.065 DT     0552 Rx 8  00 00 00 00 00 00 50 A7 
   1254       567.851 DT     0381 Rx 8  4A F4 11 4D 13 E0 01 22 
   1255       569.466 DT     0423 Rx 6  50 00 00 00 08 00 
   1256       570.077 DT     0142 Rx 8  01 00 40 0A 00 00 00 00 
   1257       570.861 DT     03A1 Rx 8  6B 9E 22 01 00 00 B0 72 
   1258       571.313 DT     013D Rx 6  05 20 AA 1A FF 02 
   1259       571.559 DT     038A Rx 8  03 00 00 00 00 00 00 00 
   1260       572.073 DT     0789 Rx 8  54 09 00 00 00 00 50 5C 
   1261       572.871 DT     02E1 Rx 8  10 21 04 00 00 00 26 08 
   1262       574.037 DT     0422 Rx 6  00 00 10 00 00 00 
   1263       574.503 DT     02C3 Rx 8  00 00 00 97 01 00 80 69 
   1264       574.740 DT     0243 Rx 8  AE B1 A9 0F 04 00 00 00 
   1265       575.472 DT     039A Rx 8  FD FD FD FD FD 01 00 00 
   1266       575.868 DT     0545 Rx 8  70 02 36 00 A3 23 BA 72 
   1267       576.106 DT     0129 Rx 8  7D 2A 4F 20 00 20 FF 3F 
   1268       576.348 DT     0132 Rx 8  0F 8A 01 00 38 40 00 00 
   1269       576.880 DT     0421 Rx 7  00 0A 00 10 00 00 00 
   1270       577.118 DT     02C1 Rx 8  80 0E 3A 0D 8E 1F 00 00 
   1271       577.428 DT     042A Rx 8  01 90 00 48 00 24 00 02 
   1272       577.981 DT     02D2 Rx 8  D9 29 8D 4E 79 04 6F 01 
   1273       578.215 DT     0252 Rx 8  1E 10 C5 05 F4 01 A0 0F 
   1274       578.447 DT     0212 Rx 8  B9 24 C4 0F 03 38 18 03 
   1275       578.673 DT     0292 Rx 8  4B 5F 5D B5 D4 27 8A 01 
   1276       578.913 DT     0201 Rx 8  25 85 02 00 00 80 3E FA 
   1277       579.046 DT     02F2 Rx 2  62 01 
   1278       579.298 DT     03C8 Rx 8  05 00 00 00 00 00 00 00 
   1279       580.076 DT     03A2 Rx 8  6D 04 00 00 01 70 21 01 
   1280       580.854 DT     0677 Rx 8  F8 FF FF FF FF FF FF 3F 
   1281       581.090 DT     02C2 Rx 8  55 5B A9 06 00 00 12 00 
   1282       581.322 DT     023E Rx 8  28 C6 63 95 01 6E 96 2B 
   1283       581.520 DT     013D Rx 6  05 20 AA 1A FF 02 
   1284       581.704 DT     0333 Rx 5  84 0A 5A 07 02 
   1285       581.951 DT     0334 Rx 8  3F 3F C8 00 E2 3F F0 8E 
   1286       583.349 DT     0219 Rx 5  F3 1F FF FF 02 
   1287       584.005 DT     0788 Rx 8  EA 1E 00 00 00 00 00 00 
   1288       585.893 DT     0129 Rx 8  21 2B 4F 20 01 20 FF 3F 
   1289       586.137 DT     0132 Rx 8  0E 8A 00 00 39 40 00 00 
   1290       586.871 DT     0718 Rx 7  02 FF FF FF FF FF FF 
   1291       587.847 DT     0441 Rx 8  8B C5 44 20 DB 0E 14 6B 
   1292       588.866 DT     0737 Rx 7  01 00 00 00 00 00 00 
   1293       589.106 DT     02C1 Rx 8  01 00 00 14 28 70 64 00 
   1294       589.340 DT     02E1 Rx 8  29 0A A3 6A 17 00 00 00 
   1295       589.584 DT     0263 Rx 8  03 10 20 03 00 00 00 00 
   1296       589.818 DT     02B3 Rx 8  05 00 62 7F 2C 22 7C 7C 
   1297       590.048 DT     0288 Rx 8  03 16 54 08 51 00 61 B1 
   1298       590.286 DT     02E2 Rx 8  03 00 00 B7 01 0B 00 00 
   1299       590.528 DT     02F9 Rx 8  D0 FB 07 28 00 00 00 00 
   1300       590.770 DT     03C2 Rx 8  29 55 00 00 00 00 00 00 
   1301       590.925 DT     03D3 Rx 3  00 00 00 
   1302       591.311 DT     013D Rx 6  05 20 AA 1A FF 02 
   1303       592.419 DT     02C4 Rx 8  12 B6 00 D2 ED 11 19 00 
   1304       592.679 DT     0204 Rx 8  A6 07 46 46 06 06 06 11 
   1305       592.921 DT     0201 Rx 8  1E 73 37 03 00 00 00 00 
   1306       593.155 DT     0261 Rx 8  00 10 57 00 D6 43 C0 81 
   1307       593.358 DT     0264 Rx 6  BE 1B 05 09 A0 00 
   1308       593.598 DT     0224 Rx 8  04 08 00 40 19 01 10 08 
   1309       593.778 DT     02B4 Rx 5  6B B9 25 E8 00 
   1310       594.359 DT     02A4 Rx 8  5B B7 3A D8 A1 2E 77 2E 
   1311       594.505 DT     0225 Rx 3  05 45 52 
   1312       594.635 DT     0364 Rx 2  3C 78 
   1313       594.903 DT     03A4 Rx 8  01 00 00 00 00 00 00 00 
   1314       595.453 DT     03F9 Rx 8  04 00 00 00 00 00 00 00 
   1315       595.889 DT     0129 Rx 8  EC 2C 4F 20 00 20 FF 3F 
   1316       596.127 DT     0132 Rx 8  15 8A 00 00 38 40 00 00 
   1317       596.372 DT     0372 Rx 8  0F 55 03 00 00 00 00 00 
   1318       596.552 DT     039D Rx 5  63 5A 41 28 00 
   1319       596.786 DT     0798 Rx 8  14 C8 64 1F 87 0C 50 4A 
   1320       597.036 DT     0677 Rx 8  01 FF FF FF FF FF FF 00 
   1321       597.186 DT     01FA Rx 3  3A C0 01 
   1322       599.458 DT     0283 Rx 6  00 00 00 00 00 00 
   1323       599.826 DT     02A1 Rx 6  00 00 98 3A 00 00 
   1324       600.084 DT     01FB Rx 8  00 FF FF FF FF FF FF FF 
   1325       600.859 DT     02C1 Rx 8  02 74 C4 57 00 80 02 00 
   1326       601.315 DT     013D Rx 6  05 20 AA 1A FF 02 
   1327       601.561 DT     0339 Rx 8  00 B1 00 00 00 01 40 0F 
   1328       602.069 DT     06C8 Rx 8  01 00 00 00 00 00 00 00 
   1329       603.943 DT     0242 Rx 2  10 95 
   1330       604.511 DT     03C0 Rx 8  03 00 80 00 00 00 00 20 
   1331       604.743 DT     0243 Rx 8  CC 80 33 E0 98 36 0E 29 
   1332       604.980 DT     0221 Rx 8  41 01 55 00 00 00 A0 5A 
   1333       605.224 DT     02E1 Rx 8  02 00 00 00 00 00 01 00 
   1334       605.464 DT     03E9 Rx 8  F1 40 00 00 00 00 F0 0D 
   1335       605.702 DT     039A Rx 8  FC FD FD FD FD FD FD 01 
   1336       605.936 DT     0129 Rx 8  53 2D 4F 20 01 20 FF 3F 
   1337       606.180 DT     0132 Rx 8  0E 8A 00 00 39 40 00 00 
   1338       606.883 DT     0201 Rx 8  58 07 1E 00 60 43 06 29 
   1339       607.119 DT     0381 Rx 8  0B F0 FC EE EE EF EE 00 
   1340       607.409 DT     0719 Rx 8  01 00 00 00 00 00 00 00 
   1341       608.015 DT     02A8 Rx 8  C2 00 00 00 00 80 90 7C 
   1342       608.879 DT     0545 Rx 8  01 00 00 00 00 10 C0 1B 
   1343       609.521 DT     0103 Rx 8  12 31 00 00 96 14 11 02 
   1344       610.101 DT     0282 Rx 8  64 00 02 08 18 D4 F2 24 
   1345       611.095 DT     0360 Rx 8  07 00 00 00 00 00 00 00 
   1346       611.310 DT     013D Rx 6  05 20 AA 1A FF 02 
   1347       612.246 DT     0419 Rx 1  00 
   1348       612.868 DT     02C1 Rx 8  03 00 40 66 A2 B0 34 00 
   1349       613.114 DT     0677 Rx 8  02 FF FF FF FF 00 00 00 
   1350       613.376 DT     01F9 Rx 6  00 00 00 00 00 00 
   1351       613.970 DT     0428 Rx 6  00 00 10 10 00 00 
   1352       614.508 DT     0123 Rx 8  00 00 42 12 D2 00 00 80 
   1353       615.889 DT     0129 Rx 8  8C 2E 4F 20 01 20 FF 3F 
   1354       616.128 DT     0132 Rx 8  09 8A 00 00 39 40 00 00 
   1355       616.278 DT     0229 Rx 3  41 05 00 
   1356       616.456 DT     0249 Rx 4  4C 06 00 00 
   1357       616.720 DT     054F Rx 8  00 00 00 00 00 00 00 00 
   1358       618.088 DT     0102 Rx 8  22 33 00 00 E8 38 11 08 
   1359       619.406 DT     0439 Rx 8  00 00 20 00 00 00 43 02 
   1360       619.641 DT     0263 Rx 8  00 EE 0C F3 E4 7D D5 00 
   1361       619.829 DT     03A3 Rx 5  00 D0 00 00 08 
   1362       620.077 DT     0142 Rx 8  28 00 02 00 00 00 00 00 
   1363       620.337 DT     0797 Rx 8  14 09 00 00 00 00 50 59 
   1364       620.859 DT     0201 Rx 8  01 64 64 51 5A 03 96 00 
   1365       621.095 DT     02E1 Rx 8  03 43 00 02 28 6C 00 00 
   1366       621.327 DT     023E Rx 8  28 C6 63 95 01 6E A6 3B 
   1367       621.526 DT     013D Rx 6  05 20 AA 1A FF 02 
   1368       621.758 DT     03A1 Rx 8  64 62 0D 98 00 38 C2 FB 
   1369       622.006 DT     0340 Rx 8  04 00 00 00 00 00 00 00 
   1370       624.488 DT     0393 Rx 8  06 00 FD E0 07 C0 1E 20 
   1371       624.860 DT     02C1 Rx 8  04 CA 03 03 64 C1 39 53 
   1372       625.064 DT     0122 Rx 6  00 00 12 12 12 00 
   1373       625.322 DT     0119 Rx 2  00 00 
   1374       625.854 DT     0261 Rx 8  31 48 43 00 24 4A DA 45 
   1375       626.093 DT     0129 Rx 8  D0 2F 4F 20 00 20 FF 3F 
   1376       626.331 DT     0132 Rx 8  0C 8A 00 00 3A 40 00 00 
   1377       626.581 DT     03E8 Rx 8  05 00 00 00 00 00 00 00 
   1378       628.861 DT     0677 Rx 8  FB FF FF FF FF FF FF 27 
   1379       629.297 DT     0420 Rx 6  28 01 40 4B 00 A0 
   1380       629.527 DT     020C Rx 8  6A 39 38 1E 00 B1 37 0C 
   1381       630.085 DT     03A2 Rx 8  00 C0 72 17 05 80 46 6B 
   1382       631.346 DT     075D Rx 8  CA B7 74 7B 25 3E 02 00 
   1383       631.596 DT     031E Rx 8  00 00 00 00 00 00 00 00 
   1384       631.714 DT     041D Rx 1  20 
   1385       631.912 DT     013D Rx 6  05 20 AA 1A FF 02 
   1386       632.149 DT     021D Rx 8  2D 20 20 14 80 00 60 10 
   1387       632.389 DT     0272 Rx 8  06 00 FD E8 07 C0 1E 20 
   1388       632.575 DT     02F3 Rx 5  0C 0C 0B 04 00 
   1389       632.773 DT     043D Rx 6  05 20 AA 1A FF 02 
   1390       632.987 DT     0241 Rx 7  3E 78 AC 0F 1E 5B 00 
   1391       633.215 DT     025D Rx 8  DB 8C 01 C4 44 C1 0A E0 
   1392       633.370 DT     077D Rx 3  12 00 00 
   1393       633.620 DT     027D Rx 8  00 00 00 00 00 00 00 00 
   1394       633.868 DT     07A8 Rx 8  1A 1F 00 70 00 00 00 00 
   1395       634.024 DT     07DD Rx 3  FF 00 01 
   1396       634.194 DT     029D Rx 4  00 00 00 20 
   1397       634.385 DT     02BD Rx 4  00 00 00 00 
   1398       634.613 DT     0243 Rx 8  F9 00 6F 71 70 71 90 90 
   1399       634.749 DT     03E3 Rx 2  00 00 
   1400       634.985 DT     0201 Rx 8  FA 12 20 C0 08 40 B1 01 
   1401       635.481 DT     039A Rx 8  FD FD FD FD FD 01 00 00 
   1402       635.889 DT     0129 Rx 8  5C 20 4F 20 FF 1F FF 3F 
   1403       636.130 DT     0132 Rx 8  03 8A 00 00 3C 40 00 00 
   1404       636.310 DT     039D Rx 5  64 5B 41 28 00 
   1405       636.884 DT     02C1 Rx 8  55 00 01 63 A0 00 00 00 
   1406       637.118 DT     02E1 Rx 8  FC 19 25 6A 9F 26 0A 00 
   1407       637.350 DT     0718 Rx 7  03 FF FF FF FF FF FF 
   1408       638.400 DT     0228 Rx 8  03 16 54 48 51 00 61 91 
   1409       638.990 DT     01F8 Rx 4  3A 00 00 00 
   1410       639.522 DT     04E3 Rx 8  00 8E 03 00 00 00 08 00 
   1411       640.170 DT     03C2 Rx 8  00 55 55 55 00 00 55 45 
   1412       640.291 DT     0409 Rx 1  00 
   1413       641.313 DT     013D Rx 6  05 20 AA 1A FF 02 
   1414       641.551 DT     0379 Rx 8  06 00 09 A6 3B 00 04 00 
   1415       641.865 DT     0545 Rx 8  02 00 30 00 00 00 D0 4C 
   1416       642.657 DT     055A Rx 8  01 00 00 00 00 00 00 00 
   1417       642.889 DT     0405 Rx 8  11 33 45 37 46 41 30 4D 
   1418       643.041 DT     0113 Rx 3  01 97 01 
   1419       643.278 DT     07FF Rx 8  01 91 45 44 42 4C 7A 00 
   1420       643.514 DT     0318 Rx 8  16 03 30 0E 11 35 0F C7 
   1421       643.742 DT     0458 Rx 7  02 02 00 80 00 00 00 
   1422       643.978 DT     02F1 Rx 8  00 11 0B 81 46 00 0C 00 
   1423       644.396 DT     07B8 Rx 8  14 39 64 00 00 00 50 A3 
   1424       644.618 DT     02E3 Rx 7  20 00 00 BE 01 0B 00 
   1425       644.878 DT     0677 Rx 8  04 0F 00 00 00 00 00 00 
   1426       645.240 DT     0400 Rx 7  60 60 E0 07 FE FB 00 
   1427       645.885 DT     0381 Rx 8  0C 00 00 82 01 00 00 5D 
   1428       646.117 DT     0129 Rx 8  4B 21 4F 20 FF 1F FF 3F 
   1429       646.359 DT     0132 Rx 8  08 8A 01 00 39 40 00 00 
   1430       646.601 DT     0372 Rx 8  10 00 00 00 00 9B E2 2E 
   1431       646.841 DT     03E2 Rx 8  40 15 80 0A 00 00 04 04 
   1432       647.281 DT     0139 Rx 1  00 
   1433       648.876 DT     02C1 Rx 8  06 00 00 00 40 00 00 00 
   1434       649.114 DT     0201 Rx 8  13 C5 02 00 00 70 FE F9 
   1435       649.500 DT     0343 Rx 8  00 90 60 1E A3 51 00 00 
   1436       649.732 DT     0263 Rx 8  01 E9 12 F2 E4 7D D6 0A 
   1437       649.972 DT     078A Rx 8  01 00 07 00 00 00 B2 04 
   1438       650.212 DT     01FB Rx 8  01 FE FF B7 6D 0B 00 00 
   1439       650.462 DT     06E8 Rx 8  01 00 00 00 00 00 00 00 
   1440       651.350 DT     07AA Rx 8  A2 08 A7 F8 76 06 21 00 
   1441       651.549 DT     013D Rx 6  05 20 AA 1A FF 02 
   1442       652.861 DT     02E1 Rx 8  05 00 00 00 00 00 00 00 
   1443       653.105 DT     04E2 Rx 8  00 80 01 00 00 00 08 00 
   1444       653.425 DT     03DA Rx 8  00 00 00 00 00 00 00 00 
   1445       654.517 DT     03C3 Rx 8  00 00 00 00 00 45 00 00 
   1446       654.883 DT     03F5 Rx 8  00 C8 19 09 00 00 00 00 
   1447       655.119 DT     0221 Rx 8  40 41 05 05 00 50 B1 AF 
   1448       655.360 DT     025B Rx 8  D3 C0 02 00 00 00 30 20 
   1449       655.890 DT     0129 Rx 8  6B 22 4F 20 00 20 FF 3F 
   1450       656.130 DT     0132 Rx 8  0E 8A 00 00 38 40 00 00 
   1451       656.406 DT     02E8 Rx 8  C2 00 00 00 00 80 90 BC 
   1452       658.856 DT     0261 Rx 8  FE FD E9 19 90 5C E5 0F 
   1453       659.430 DT     037A Rx 8  00 00 00 00 00 00 00 00 
   1454       659.671 DT     02A7 Rx 8  00 00 00 00 00 86 05 84 
   1455       659.919 DT     0553 Rx 8  00 00 00 00 00 00 60 B8 
   1456       660.151 DT     0262 Rx 8  0B 00 D2 0D 00 F0 D2 12 
   1457       660.381 DT     0282 Rx 8  4D 21 10 88 21 01 7A 04 
   1458       660.863 DT     02C1 Rx 8  07 00 0D 13 0E 0D 00 1A 
   1459       661.107 DT     0677 Rx 8  05 02 00 28 00 00 00 00 
   1460       661.337 DT     023E Rx 8  28 C6 63 95 01 6E B6 4B 
   1461       661.535 DT     013D Rx 6  05 20 AA 1A FF 02 
   1462       661.747 DT     025A Rx 6  00 00 00 00 00 00 
   1463       661.992 DT     02A6 Rx 8  00 00 FF 1F 00 00 00 00 
   1464       662.345 DT     0448 Rx 6  00 00 10 10 00 00 
   1465       662.867 DT     0201 Rx 8  74 85 08 00 00 00 00 00 
   1466       663.517 DT     02C7 Rx 8  00 00 00 00 00 42 41 FF 
   1467       663.889 DT     022A Rx 4  00 00 1D 16 
   1468       664.509 DT     0383 Rx 8  8B 00 22 80 00 00 00 01 
   1469       664.746 DT     0243 Rx 8  AE B1 A9 0F 04 00 00 00 
   1470       665.426 DT     0359 Rx 8  06 00 00 00 D4 6F 3B 4D 
   1471       665.664 DT     039A Rx 8  FC FD FD FD FD FD FD 01 
   1472       665.904 DT     0129 Rx 8  7C 23 4F 20 00 20 FF 3F 
   1473       666.148 DT     0132 Rx 8  19 8A 00 00 39 40 00 00 
   1474       666.317 DT     0249 Rx 4  5E 07 00 00 
   1475       666.449 DT     02D1 Rx 2  7F 01 
   1476       667.083 DT     0552 Rx 8  00 00 00 00 00 00 60 B7 
   1477       668.879 DT     02E1 Rx 8  10 21 04 00 00 00 26 08 
   1478       669.471 DT     0423 Rx 6  50 00 00 00 08 00 
   1479       670.087 DT     0142 Rx 8  01 00 40 0A 00 00 00 00 
   1480       670.861 DT     03A1 Rx 8  6B 9E 22 01 00 00 D0 92 
   1481       671.315 DT     013D Rx 6  05 20 AA 1A FF 02 
   1482       671.563 DT     038A Rx 8  00 00 00 00 00 00 00 00 
   1483       672.078 DT     0789 Rx 8  54 09 00 00 00 00 60 6C 
   1484       672.864 DT     02C1 Rx 8  80 0E 3A 0D 8E 1F 00 00 
   1485       674.030 DT     0422 Rx 6  00 00 10 00 00 00 
   1486       674.498 DT     02C3 Rx 8  55 5B A9 36 00 00 12 00 
   1487       674.854 DT     0545 Rx 8  C0 02 36 F0 A2 1E EA DC 
   1488       675.886 DT     0129 Rx 8  57 24 4F 20 01 20 FF 3F 
   1489       676.129 DT     0132 Rx 8  13 8A 00 00 39 40 00 00 
   1490       676.309 DT     039D Rx 5  65 5C 41 28 00 
   1491       676.875 DT     0421 Rx 7  00 0A 00 10 00 00 00 
   1492       677.115 DT     0201 Rx 8  25 85 02 00 00 80 3E FA 
   1493       677.359 DT     0677 Rx 8  F8 FF FF FF FF FF FF 3F 
   1494       677.601 DT     042A Rx 8  01 90 00 48 00 24 00 02 
   1495       678.079 DT     03C8 Rx 8  00 00 00 00 00 00 00 00 
   1496       678.525 DT     02D2 Rx 8  D9 29 8D 4E 79 04 6F 01 
   1497       678.760 DT     0252 Rx 8  1E 10 C5 05 F4 01 A0 0F 
   1498       678.992 DT     0212 Rx 8  B9 24 C4 0F 03 38 18 03 
   1499       679.218 DT     0292 Rx 8  4B 5F 5D B5 D4 27 8A 01 
   1500       679.350 DT     02F2 Rx 2  62 01 
   1501       679.594 DT     0263 Rx 8  02 00 00 00 78 0D 00 00 
   1502       679.823 DT     02B3 Rx 8  06 D2 29 E3 D6 7E CF 28 
   1503       680.111 DT     03A2 Rx 8  6D 04 00 00 01 70 21 01 
   1504       681.081 DT     02C2 Rx 8  00 00 00 97 01 00 C0 65 
   1505       681.317 DT     013D Rx 6  05 20 AA 1A FF 02 
   1506       681.553 DT     0273 Rx 8  81 A0 30 00 19 02 30 11 
   1507       683.363 DT     0219 Rx 5  04 74 74 00 00 
   1508       684.007 DT     0788 Rx 8  10 DD A1 63 00 00 00 10 
   1509       684.861 DT     02C1 Rx 8  01 00 00 14 28 70 64 00 
   1510       685.095 DT     02E1 Rx 8  29 0A A3 6A 17 00 00 00 
   1511       685.334 DT     0381 Rx 8  0D 00 B0 B0 00 00 DA 7D 
   1512       685.886 DT     0129 Rx 8  84 25 4F 20 FF 1F FF 3F 
   1513       686.126 DT     0132 Rx 8  16 8A 01 00 3A 40 00 00 
   1514       686.876 DT     0718 Rx 7  04 FF FF 00 00 00 00 
   1515       687.846 DT     0441 Rx 8  8B C5 44 20 DB 0E 18 6F 
   1516       688.084 DT     0302 Rx 8  0D 14 EA 08 BA 00 00 00 
   1517       689.471 DT     02F9 Rx 8  D0 FB 07 00 00 00 00 00 
   1518       690.005 DT     0288 Rx 8  03 16 54 48 51 00 71 01 
   1519       690.247 DT     03C2 Rx 8  29 55 00 00 00 00 00 00 
   1520       690.881 DT     0201 Rx 8  1E 73 37 03 00 00 00 00 
   1521       691.357 DT     013D Rx 6  05 20 AA 1A FF 02 
   1522       691.869 DT     0261 Rx 8  03 00 00 00 00 40 F4 78 
   1523       692.394 DT     02C4 Rx 8  13 A0 00 CD AD 11 13 00 
   1524       692.628 DT     0204 Rx 8  A6 07 46 46 06 06 06 11 
   1525       692.880 DT     0677 Rx 8  01 FF FF FF FF FF FF 00 
   1526       693.078 DT     0264 Rx 6  C2 1B 05 09 A0 00 
   1527       693.368 DT     0224 Rx 8  04 08 00 40 19 01 10 08 
   1528       693.547 DT     02B4 Rx 5  6B B9 25 E6 00 
   1529       694.407 DT     0225 Rx 3  05 45 52 
   1530       694.639 DT     0243 Rx 8  CC 80 33 E0 98 36 0E 29 
   1531       695.455 DT     03F9 Rx 8  05 00 00 00 00 00 00 00 
   1532       695.695 DT     039A Rx 8  FD FD FD FD FD 01 00 00 
   1533       695.931 DT     0129 Rx 8  37 26 4F 20 00 20 FF 3F 
   1534       696.171 DT     0132 Rx 8  16 8A 01 00 3A 40 00 00 
   1535       696.420 DT     0372 Rx 8  11 00 00 00 00 00 00 00 
   1536       696.664 DT     0798 Rx 8  05 00 00 00 00 00 60 6D 
   1537       696.900 DT     02C1 Rx 8  02 74 C4 57 00 80 02 00 
   1538       697.050 DT     01FA Rx 3  3A C0 01 
   1539       699.462 DT     0283 Rx 6  00 00 00 00 00 00 
   1540       699.820 DT     02A1 Rx 6  00 00 98 3A 00 00 
   1541       700.088 DT     01FB Rx 8  00 FF FF FF FF FF FF FF 
   1542       700.859 DT     02E1 Rx 8  02 00 00 00 00 00 01 00 
   1543       701.287 DT     023E Rx 8  28 C6 63 95 01 6E C6 5B 
   1544       701.485 DT     013D Rx 6  05 20 AA 1A FF 02 
   1545       701.731 DT     0339 Rx 8  00 B1 00 00 00 01 40 0F 
   1546       702.083 DT     06C8 Rx 8  CC 01 00 2C 00 00 00 00 
   1547       703.945 DT     0242 Rx 2  10 95 
   1548       704.515 DT     03C0 Rx 8  04 00 00 00 00 00 00 00 
   1549       704.869 DT     0201 Rx 8  30 07 1E 00 60 43 06 29 
   1550       705.110 DT     0221 Rx 8  41 01 55 00 00 00 C0 7A 
   1551       705.892 DT     0129 Rx 8  20 27 4F 20 00 20 FF 3F 
   1552       706.136 DT     0132 Rx 8  06 8A 00 00 3A 40 00 00 
   1553       707.414 DT     0719 Rx 8  00 94 52 00 00 00 00 00 
   1554       707.862 DT     0545 Rx 8  01 00 00 00 00 10 F0 4B 
   1555       708.102 DT     02A8 Rx 8  C2 00 00 00 00 80 A0 8C 
   1556       708.876 DT     02C1 Rx 8  03 00 40 66 A2 B0 34 00 
   1557       709.123 DT     0677 Rx 8  02 FF FF FF FF 00 00 00 
   1558       709.518 DT     0103 Rx 8  12 31 00 00 96 14 11 02 
   1559       709.762 DT     0263 Rx 8  03 10 20 03 00 00 00 00 
   1560       710.096 DT     0282 Rx 8  64 00 02 08 14 D4 F2 24 
   1561       711.092 DT     0360 Rx 8  08 00 00 00 00 00 00 00 
   1562       711.312 DT     013D Rx 6  05 20 AA 1A FF 02 
   1563       712.246 DT     0419 Rx 1  00 
   1564       713.380 DT     01F9 Rx 6  00 00 00 00 00 00 
   1565       713.975 DT     0428 Rx 6  00 00 10 10 00 00 
   1566       714.513 DT     0123 Rx 8  00 00 42 12 D2 00 00 80 
