;$FILEVERSION=2.0
;$STARTTIME=44637.6829424537
;$COLUMNS=N,O,T,I,d,l,D
;
;   C:\Users\bayerld\Documents\Tesla\20220317-chassiscan-öffnen.trc
;   Start time: 17.03.2022 16:23:26.228.0
;   Generated by PCAN-View v4.2.5.569
;-------------------------------------------------------------------------------
;   Connection                 Bit rate
;   PCANLight_USB_15@pcan_usb  500 kBit/s
;-------------------------------------------------------------------------------
;   Message   Time    Type ID     Rx/Tx
;   Number    Offset  |    [hex]  |  Data Length
;   |         [ms]    |    |      |  |  Data [hex] ...
;   |         |       |    |      |  |  |
;---+-- ------+------ +- --+----- +- +- +- +- -- -- -- -- -- -- --
      1         3.480 DT     020E Rx 8  99 C4 E8 62 05 02 06 C4 
      2         3.750 DT     021E Rx 8  00 00 00 00 00 00 80 00 
      3         4.000 DT     022E Rx 8  6E 66 A0 48 41 C3 10 00 
      4         4.120 DT     0409 Rx 1  00 
      5         4.352 DT     023E Rx 8  28 C6 63 95 01 6E 06 9B 
      6         4.520 DT     0488 Rx 4  40 00 0C D8 
      7         4.760 DT     026E Rx 8  07 00 FE EF FF FE EF FF 
      8         5.011 DT     0720 Rx 8  00 00 00 00 00 00 00 00 
      9         8.992 DT     0545 Rx 8  80 01 31 B0 A1 0A 6A C1 
     10         9.234 DT     0239 Rx 8  00 00 64 7D 7D 7D F0 70 
     11         9.478 DT     0247 Rx 8  03 00 1B 00 00 40 FC 00 
     12         9.714 DT     0129 Rx 8  F7 28 4F 20 00 20 FF 3F 
     13         9.962 DT     024A Rx 8  00 00 01 0F 1F 00 00 00 
     14        10.982 DT     0102 Rx 8  22 33 00 00 E8 38 11 08 
     15        11.226 DT     02E1 Rx 8  02 00 00 00 00 00 01 00 
     16        14.125 DT     05D9 Rx 8  01 00 00 00 00 08 00 00 
     17        15.219 DT     0103 Rx 8  11 30 00 00 96 14 11 02 
     18        19.637 DT     0129 Rx 8  A2 29 4F 20 00 20 FF 3F 
     19        23.501 DT     024E Rx 8  03 80 00 04 00 00 00 00 
     20        23.765 DT     025E Rx 8  03 20 00 81 00 20 00 81 
     21        24.027 DT     026E Rx 8  08 00 FE EF FF FE EF FF 
     22        24.194 DT     0488 Rx 4  40 00 0D D9 
     23        24.436 DT     02A8 Rx 8  C2 00 00 00 00 80 E0 CC 
     24        24.616 DT     032E Rx 5  00 5D 30 71 2F 
     25        24.830 DT     033E Rx 5  00 FF FF 71 B0 
     26        25.040 DT     034E Rx 5  59 9E 21 07 70 
     27        25.252 DT     035E Rx 5  28 26 27 07 DD 
     28        25.484 DT     039E Rx 6  FF FF FF FF 47 0A 
     29        27.458 DT     02E1 Rx 8  03 6C 00 02 2C 45 00 00 
     30        28.525 DT     039D Rx 5  7B 52 61 28 00 
     31        29.089 DT     010A Rx 7  14 A2 52 62 61 51 01 
     32        29.307 DT     010B Rx 7  0C 02 00 00 F0 FF 0F 
     33        29.527 DT     010C Rx 7  80 F2 A0 30 21 90 00 
     34        29.747 DT     010D Rx 7  CF E2 70 71 F0 FF 0F 
     35        29.983 DT     0129 Rx 8  D0 2A 4F 20 01 20 FF 3F 
     36        30.135 DT     0219 Rx 3  07 00 22 
     37        30.378 DT     0259 Rx 8  D3 C0 02 00 00 00 90 80 
     38        30.544 DT     0249 Rx 4  2A 02 00 00 
     39        30.790 DT     03FE Rx 8  00 40 00 00 00 00 30 71 
     40        34.134 DT     02B9 Rx 8  00 00 D8 25 2A 9A FA 76 
     41        35.702 DT     025F Rx 8  DF 8C 01 C3 44 C1 0A E0 
     42        37.874 DT     03C2 Rx 8  00 55 55 55 00 00 55 45 
     43        39.554 DT     0129 Rx 8  E5 2B 4F 20 FF 1F FF 3F 
     44        42.234 DT     0545 Rx 8  01 00 00 00 00 10 70 CB 
     45        43.255 DT     02E1 Rx 8  FC 19 10 FA 9D 11 0A 00 
     46        43.499 DT     020E Rx 8  99 C4 E8 62 05 02 46 04 
     47        43.765 DT     021E Rx 8  00 00 00 00 00 00 80 11 
     48        44.017 DT     022E Rx 8  6E 66 A0 48 41 C3 50 40 
     49        44.183 DT     0488 Rx 4  40 00 0E DA 
     50        44.427 DT     023E Rx 8  28 C6 63 95 01 6E 16 AB 
     51        44.687 DT     026E Rx 8  09 00 FE EF FF FE EF FF 
     52        49.202 DT     0221 Rx 8  40 41 05 05 00 50 51 4F 
     53        49.674 DT     0129 Rx 8  85 2C 4F 20 FF 1F FF 3F 
     54        49.804 DT     0228 Rx 2  C0 EA 
     55        50.038 DT     07FF Rx 8  02 5F 4E AC DE CD D6 30 
     56        50.272 DT     0318 Rx 8  16 03 1A 0F 11 17 19 9E 
     57        50.409 DT     0418 Rx 2  C2 06 
     58        50.525 DT     0128 Rx 1  00 
     59        55.493 DT     03C3 Rx 8  55 55 55 01 00 00 00 00 
     60        59.021 DT     02E1 Rx 8  05 00 00 00 00 00 00 00 
     61        59.728 DT     0129 Rx 8  FE 2D 4F 20 00 20 FF 3F 
     62        59.928 DT     02D1 Rx 2  7F 01 
     63        63.503 DT     026E Rx 8  0A 00 FE EF FF FE EF FF 
     64        64.095 DT     0488 Rx 4  40 00 0F DB 
     65        68.525 DT     039D Rx 5  7C 53 61 28 00 
     66        69.093 DT     010A Rx 7  15 A3 52 62 61 51 01 
     67        69.309 DT     010B Rx 7  0D 03 00 00 F0 FF 0F 
     68        69.529 DT     010C Rx 7  81 F3 A0 30 21 90 00 
     69        69.745 DT     010D Rx 7  D0 E3 70 71 F0 FF 0F 
     70        69.979 DT     0129 Rx 8  8C 2E 4F 20 01 20 FF 3F 
     71        70.129 DT     0219 Rx 3  08 00 23 
     72        70.376 DT     03FE Rx 8  00 40 00 00 00 00 40 81 
     73        73.484 DT     030E Rx 8  00 00 05 01 00 00 E0 F7 
     74        74.142 DT     02B9 Rx 8  00 00 D8 25 2A 9A 1A 96 
     75        75.046 DT     02E1 Rx 8  10 21 04 00 00 00 26 08 
     76        75.522 DT     0545 Rx 8  02 00 1E 00 00 00 80 EA 
     77        76.194 DT     0419 Rx 1  00 
     78        78.990 DT     02E8 Rx 8  C2 00 00 00 00 80 E0 0C 
     79        79.555 DT     0129 Rx 8  B9 2F 4F 20 FF 1F FF 3F 
     80        79.721 DT     0249 Rx 4  D3 03 00 00 
     81        82.081 DT     027D Rx 3  01 00 80 
     82        83.187 DT     032B Rx 8  00 00 00 00 00 00 00 00 
     83        83.437 DT     036C Rx 8  00 00 00 00 00 00 00 00 
     84        83.669 DT     020E Rx 8  99 C4 E8 62 05 02 86 44 
     85        83.917 DT     0459 Rx 8  00 00 00 00 00 00 00 00 
     86        84.161 DT     021E Rx 8  00 00 00 00 00 00 80 22 
     87        84.412 DT     0350 Rx 8  00 00 00 00 00 00 00 00 
     88        84.642 DT     022E Rx 8  6E 66 A0 48 41 C3 90 80 
     89        84.812 DT     0488 Rx 4  40 00 00 CC 
     90        85.042 DT     023E Rx 8  28 C6 63 95 01 6E 26 BB 
     91        85.304 DT     026E Rx 8  0B 00 FE EF FF FE EF FF 
     92        86.230 DT     03C2 Rx 8  29 55 00 00 00 00 00 00 
     93        89.591 DT     0129 Rx 8  35 20 4F 20 00 20 FF 3F 
     94        91.489 DT     02E1 Rx 8  29 0A A3 6A 17 00 00 00 
     95        93.147 DT     0420 Rx 6  28 01 40 4B 00 00 
     96        96.167 DT     03CB Rx 5  00 00 00 00 01 
     97        98.551 DT     035D Rx 8  01 00 00 00 00 00 00 00 
     98        99.265 DT     0221 Rx 8  41 01 55 00 00 00 60 1A 
     99        99.591 DT     0129 Rx 8  8F 21 4F 20 01 20 FF 3F 
    100       103.499 DT     026E Rx 8  20 00 7A 77 84 7B 17 7B 
    101       104.177 DT     0329 Rx 8  00 00 00 00 00 00 00 00 
    102       104.425 DT     0369 Rx 8  00 00 00 00 00 00 00 00 
    103       104.546 DT     0409 Rx 1  00 
    104       104.794 DT     0425 Rx 8  00 00 00 00 00 00 00 00 
    105       105.044 DT     0429 Rx 8  00 00 00 00 00 00 00 00 
    106       105.294 DT     0439 Rx 8  00 00 00 00 00 00 00 00 
    107       105.542 DT     0449 Rx 8  00 00 00 00 00 00 00 00 
    108       105.792 DT     0479 Rx 8  00 00 00 00 00 00 00 00 
    109       105.962 DT     0488 Rx 4  40 00 01 CD 
    110       106.212 DT     0720 Rx 8  00 00 00 00 00 00 00 00 
    111       107.231 DT     02E1 Rx 8  02 00 00 00 00 00 01 00 
    112       108.009 DT     0545 Rx 8  D0 01 36 B0 A1 0A 9A 46 
    113       108.497 DT     039D Rx 5  7D 54 61 28 00 
    114       109.151 DT     010A Rx 7  16 A4 52 62 61 51 01 
    115       109.369 DT     010B Rx 7  0E 04 00 00 F0 FF 0F 
    116       109.589 DT     010C Rx 7  82 F4 A0 30 21 90 00 
    117       109.807 DT     010D Rx 7  D1 E4 70 71 F0 FF 0F 
    118       110.041 DT     0129 Rx 8  02 22 4F 20 FF 1F FF 3F 
    119       110.190 DT     0219 Rx 3  09 00 24 
    120       110.434 DT     0239 Rx 8  00 00 64 7D 7D 7D F0 80 
    121       110.678 DT     0247 Rx 8  03 00 1B 00 00 40 FC 00 
    122       110.926 DT     024A Rx 8  00 00 01 0F 1F 00 00 00 
    123       111.162 DT     0102 Rx 8  22 33 00 00 E8 38 11 08 
    124       111.280 DT     025B Rx 1  00 
    125       111.490 DT     025D Rx 6  00 00 FF 00 00 00 
    126       111.685 DT     03DF Rx 5  00 00 04 00 01 
    127       111.885 DT     03F4 Rx 6  06 2E E3 01 C6 01 
    128       112.115 DT     0293 Rx 8  01 0C 55 91 55 15 84 76 
    129       112.359 DT     03FA Rx 8  01 01 02 02 04 02 05 FF 
    130       112.603 DT     03FE Rx 8  00 40 00 00 00 00 50 91 
    131       112.737 DT     0410 Rx 2  45 00 
    132       112.987 DT     0428 Rx 8  00 00 00 00 00 38 1F 00 
    133       113.209 DT     0499 Rx 8  76 77 77 6B 6B 71 71 6D 
    134       113.455 DT     0549 Rx 8  00 03 00 00 00 00 00 00 
    135       114.142 DT     02B9 Rx 8  00 00 D8 25 2A 9A 3A B6 
    136       115.225 DT     0103 Rx 8  11 30 00 00 96 12 11 02 
    137       119.703 DT     0129 Rx 8  7C 23 4F 20 00 20 FF 3F 
    138       123.027 DT     02E1 Rx 8  03 6C 00 02 2C 45 00 00 
    139       123.489 DT     020E Rx 8  99 C4 E8 62 15 02 C6 94 
    140       123.755 DT     021E Rx 8  00 00 00 00 00 00 80 33 
    141       124.005 DT     022E Rx 8  6E 66 A0 48 41 C3 D0 C0 
    142       124.174 DT     0488 Rx 4  40 00 02 CE 
    143       124.406 DT     023E Rx 8  28 C6 63 95 01 6E 36 CB 
    144       124.646 DT     02A8 Rx 8  C2 00 00 00 00 80 F0 DC 
    145       124.892 DT     024E Rx 8  00 80 00 04 00 00 00 00 
    146       125.156 DT     025E Rx 8  00 20 00 81 00 20 00 81 
    147       125.408 DT     026E Rx 8  21 00 10 EA 79 2B 0A 86 
    148       125.616 DT     032E Rx 5  00 5D 30 81 3F 
    149       125.835 DT     033E Rx 5  00 FF FF 81 C0 
    150       126.041 DT     034E Rx 5  59 9E 21 08 71 
    151       126.247 DT     035E Rx 5  28 26 27 08 DE 
    152       126.483 DT     039E Rx 6  FF FF FF FF 58 0A 
    153       129.119 DT     0259 Rx 8  D3 C0 02 00 00 00 A0 90 
    154       129.561 DT     0129 Rx 8  FA 24 4F 20 00 20 FF 3F 
    155       130.528 DT     0249 Rx 4  D3 04 00 00 
    156       136.282 DT     025F Rx 8  DF 8C 01 C3 44 C1 0A E0 
    157       137.762 DT     03C2 Rx 8  00 55 55 55 00 00 55 45 
    158       139.126 DT     05D9 Rx 8  03 00 FF 00 00 00 00 00 
    159       139.588 DT     0129 Rx 8  40 25 4F 20 01 20 FF 3F 
    160       139.823 DT     02E1 Rx 8  FC 19 12 0A 9E 11 0A 00 
    161       141.029 DT     0545 Rx 8  01 00 00 00 00 10 A0 FB 
    162       143.493 DT     026E Rx 8  22 00 B1 D9 87 84 19 8A 
    163       144.099 DT     0488 Rx 4  40 00 03 CF 
    164       148.485 DT     039D Rx 5  7E 55 61 28 00 
    165       149.089 DT     010A Rx 7  17 A5 52 62 61 51 01 
    166       149.309 DT     010B Rx 7  0F 05 00 00 F0 FF 0F 
    167       149.529 DT     010C Rx 7  83 F5 A0 30 21 90 00 
    168       149.747 DT     010D Rx 7  D2 E5 70 71 F0 FF 0F 
    169       149.983 DT     0129 Rx 8  37 26 4F 20 00 20 FF 3F 
    170       150.136 DT     0219 Rx 3  0A 00 25 
    171       150.370 DT     0221 Rx 8  40 41 05 05 00 50 71 6F 
    172       150.502 DT     0228 Rx 2  D0 FA 
    173       150.748 DT     03FE Rx 8  00 40 00 00 00 00 60 A1 
    174       150.982 DT     07FF Rx 8  03 31 08 A1 E0 42 16 41 
    175       151.220 DT     0318 Rx 8  16 03 1A 0F 11 17 1B A0 
    176       151.357 DT     0418 Rx 2  D2 06 
    177       151.473 DT     0128 Rx 1  00 
    178       154.141 DT     02B9 Rx 8  00 00 D8 25 2A 9A 5A D6 
    179       155.181 DT     02E1 Rx 8  05 00 00 00 00 00 00 00 
    180       155.649 DT     03C3 Rx 8  00 00 00 00 00 49 00 00 
    181       159.563 DT     0129 Rx 8  8D 27 4F 20 01 20 FF 3F 
    182       159.820 DT     02D1 Rx 2  7F 01 
    183       163.477 DT     020E Rx 8  99 C4 E8 62 15 02 06 D4 
    184       163.744 DT     021E Rx 8  00 00 00 00 00 00 80 44 
    185       163.994 DT     022E Rx 8  6E 66 A0 48 41 C3 10 00 
    186       164.160 DT     0488 Rx 4  40 00 04 D0 
    187       164.390 DT     023E Rx 8  28 C6 63 95 01 6E 46 DB 
    188       164.650 DT     026E Rx 8  03 00 FE EF FF FE EF FF 
    189       169.561 DT     0129 Rx 8  F7 28 4F 20 00 20 FF 3F 
    190       171.522 DT     02E1 Rx 8  10 21 04 00 00 00 26 08 
    191       174.014 DT     0545 Rx 8  02 00 23 00 00 00 B0 1F 
    192       176.184 DT     0419 Rx 1  00 
    193       178.938 DT     02E8 Rx 8  C2 00 00 00 00 80 F0 1C 
    194       179.607 DT     0129 Rx 8  A2 29 4F 20 00 20 FF 3F 
    195       179.775 DT     0249 Rx 4  83 05 00 00 
    196       182.083 DT     027D Rx 3  01 01 81 
    197       183.503 DT     026E Rx 8  04 00 FE EF FF FE EF FF 
    198       184.095 DT     0488 Rx 4  40 00 05 D1 
    199       185.999 DT     03C2 Rx 8  29 55 00 00 00 00 00 00 
    200       187.261 DT     02E1 Rx 8  29 0A A3 6A 17 00 00 00 
    201       188.497 DT     039D Rx 5  7F 56 61 28 00 
    202       189.094 DT     010A Rx 7  18 A6 52 62 61 51 01 
    203       189.310 DT     010B Rx 7  10 06 00 00 F0 FF 0F 
    204       189.526 DT     010C Rx 7  84 F6 A0 30 21 90 00 
    205       189.744 DT     010D Rx 7  D3 E6 70 71 F0 FF 0F 
    206       189.982 DT     0129 Rx 8  7D 2A 4F 20 00 20 FF 3F 
    207       190.130 DT     0219 Rx 3  0B 00 26 
    208       190.372 DT     03FE Rx 8  00 40 00 00 00 00 70 B1 
    209       193.148 DT     0420 Rx 6  28 01 40 4B 00 10 
    210       194.137 DT     02B9 Rx 8  00 00 D8 25 2A 9A 7A F6 
    211       194.369 DT     0399 Rx 8  F0 20 C0 E0 B0 C8 57 1B 
    212       194.517 DT     0413 Rx 3  4B 49 4B 
    213       196.187 DT     03CB Rx 5  00 00 00 00 01 
    214       199.245 DT     0221 Rx 8  41 01 55 00 00 00 80 3A 
    215       199.575 DT     0129 Rx 8  E5 2B 4F 20 FF 1F FF 3F 
    216       199.873 DT     0405 Rx 8  11 33 45 37 46 41 30 4D 
    217       203.036 DT     02E1 Rx 8  02 00 00 00 00 00 01 00 
    218       203.476 DT     020E Rx 8  99 C4 E8 62 15 02 46 14 
    219       203.742 DT     021E Rx 8  00 00 00 00 00 00 80 55 
    220       203.994 DT     022E Rx 8  6E 66 A0 48 41 C3 50 40 
    221       204.114 DT     0409 Rx 1  00 
    222       204.344 DT     023E Rx 8  28 C6 63 95 01 6E 56 EB 
    223       204.460 DT     0415 Rx 1  43 
    224       204.701 DT     026E Rx 8  05 00 FE EF FF FE EF FF 
    225       204.867 DT     0488 Rx 4  40 00 06 D2 
    226       205.117 DT     0720 Rx 8  00 00 00 00 00 00 00 00 
    227       207.205 DT     0545 Rx 8  40 01 31 C0 A1 0B CA F2 
    228       209.153 DT     0239 Rx 8  00 00 64 7D 7D 7D F0 90 
    229       209.397 DT     0247 Rx 8  03 00 1B 00 00 40 FC 00 
    230       209.645 DT     024A Rx 8  00 00 01 0F 1F 00 00 00 
    231       209.879 DT     0129 Rx 8  EC 2C 4F 20 00 20 FF 3F 
    232       210.989 DT     0102 Rx 8  22 33 00 00 E8 38 11 08 
    233       215.234 DT     0103 Rx 8  11 30 00 00 96 12 11 02 
    234       219.016 DT     02E1 Rx 8  03 6C 00 02 2C 45 00 00 
    235       219.560 DT     0129 Rx 8  FE 2D 4F 20 00 20 FF 3F 
    236       223.505 DT     024E Rx 8  01 80 00 04 00 00 00 00 
    237       223.771 DT     025E Rx 8  01 20 00 81 00 20 00 81 
    238       224.033 DT     026E Rx 8  06 00 FE EF FF FE EF FF 
    239       224.202 DT     0488 Rx 4  40 00 07 D3 
    240       224.444 DT     02A8 Rx 8  C2 00 00 00 00 80 00 EC 
    241       224.624 DT     032E Rx 5  00 5D 30 91 4F 
    242       224.840 DT     033E Rx 5  00 FF FF 91 D0 
    243       225.046 DT     034E Rx 5  59 9E 21 09 72 
    244       225.256 DT     035E Rx 5  28 26 27 09 DF 
    245       225.489 DT     039E Rx 6  FF FF FF FF 69 0A 
    246       228.785 DT     039D Rx 5  80 57 61 28 00 
    247       229.093 DT     010A Rx 7  19 A7 52 62 61 51 01 
    248       229.311 DT     010B Rx 7  11 07 00 00 F0 FF 0F 
    249       229.531 DT     010C Rx 7  85 F7 A0 30 21 90 00 
    250       229.747 DT     010D Rx 7  D4 E7 70 71 F0 FF 0F 
    251       229.985 DT     0129 Rx 8  21 2E 4F 20 00 20 FF 3F 
    252       230.133 DT     0219 Rx 3  0C 00 27 
    253       230.373 DT     0259 Rx 8  D3 C0 02 00 00 00 B0 A0 
    254       230.540 DT     0249 Rx 4  4C 06 00 00 
    255       230.786 DT     03FE Rx 8  00 40 00 00 00 00 80 C1 
    256       234.140 DT     02B9 Rx 8  00 00 D8 25 2A 9A 9A 16 
    257       235.224 DT     025F Rx 8  DF 8C 01 C3 44 C1 0A E0 
    258       237.668 DT     02E1 Rx 8  FC 19 14 0A 9E 13 0A 00 
    259       238.372 DT     03C2 Rx 8  00 55 55 55 00 00 55 45 
    260       239.741 DT     0129 Rx 8  D0 2F 4F 20 00 20 FF 3F 
    261       240.463 DT     0545 Rx 8  01 00 00 00 00 10 D0 2B 
    262       243.475 DT     020E Rx 8  99 C4 E8 62 15 02 86 54 
    263       243.739 DT     021E Rx 8  00 00 00 00 00 00 80 66 
    264       243.989 DT     022E Rx 8  6E 66 A0 48 41 C3 90 80 
    265       244.233 DT     05D9 Rx 8  24 07 00 00 00 00 F0 1F 
    266       244.467 DT     023E Rx 8  28 C6 63 95 01 6E 66 FB 
    267       244.633 DT     0488 Rx 4  40 00 08 D4 
    268       244.874 DT     026E Rx 8  07 00 FE EF FF FE EF FF 
    269       249.126 DT     03FE Rx 8  00 40 00 00 00 00 91 D2 
    270       249.360 DT     0221 Rx 8  40 41 05 05 00 50 91 8F 
    271       249.688 DT     0129 Rx 8  35 20 4F 20 00 20 FF 3F 
    272       249.818 DT     0228 Rx 2  E0 0A 
    273       250.050 DT     07FF Rx 8  04 CC 16 54 61 12 B4 2A 
    274       250.284 DT     0318 Rx 8  16 03 1A 0F 11 17 1D A2 
    275       250.419 DT     0418 Rx 2  E2 06 
    276       250.535 DT     0128 Rx 1  00 
    277       251.691 DT     02E1 Rx 8  05 00 00 00 00 00 00 00 
    278       255.231 DT     03C3 Rx 8  55 55 55 01 00 00 00 00 
    279       259.725 DT     0129 Rx 8  4B 21 4F 20 FF 1F FF 3F 
    280       259.928 DT     02D1 Rx 2  7F 01 
    281       260.700 DT     03F3 Rx 3  10 1B 00 
    282       261.064 DT     03F8 Rx 8  03 28 80 00 59 29 15 20 
    283       263.502 DT     026E Rx 8  08 00 FE EF FF FE EF FF 
    284       264.092 DT     0488 Rx 4  40 00 09 D5 
    285       267.034 DT     02E1 Rx 8  10 21 04 00 00 00 26 08 
    286       268.540 DT     039D Rx 5  85 68 55 28 00 
    287       269.093 DT     010A Rx 7  1A A8 52 62 61 51 01 
    288       269.313 DT     010B Rx 7  12 08 00 00 F0 FF 0F 
    289       269.535 DT     010C Rx 7  86 F8 A0 30 21 90 00 
    290       269.753 DT     010D Rx 7  D5 E8 70 71 F0 FF 0F 
    291       269.987 DT     0129 Rx 8  02 22 4F 20 FF 1F FF 3F 
    292       270.135 DT     0219 Rx 3  0D 00 28 
    293       273.035 DT     0545 Rx 8  02 00 28 00 00 00 E0 54 
    294       274.137 DT     02B9 Rx 8  00 00 D8 25 2A 9A BA 36 
    295       276.186 DT     0419 Rx 1  00 
    296       278.824 DT     02E8 Rx 8  C2 00 00 00 00 80 00 2C 
    297       279.571 DT     0129 Rx 8  D1 23 4F 20 01 20 FF 3F 
    298       279.925 DT     0249 Rx 4  5E 07 00 00 
    299       282.085 DT     027D Rx 3  01 02 82 
    300       283.425 DT     02E1 Rx 8  29 0A A3 6A 17 00 00 00 
    301       283.655 DT     020E Rx 8  99 C4 E8 62 15 02 C6 94 
    302       283.919 DT     021E Rx 8  00 00 00 00 00 00 80 77 
    303       284.091 DT     0488 Rx 4  40 00 0A D6 
    304       284.319 DT     022E Rx 8  6E 66 A0 48 41 C3 D0 C0 
    305       284.574 DT     023E Rx 8  28 C6 63 95 01 6E 76 0B 
    306       284.834 DT     026E Rx 8  09 00 FE EF FF FE EF FF 
    307       286.248 DT     03C2 Rx 8  29 55 00 00 00 00 00 00 
    308       289.126 DT     03FE Rx 8  00 40 00 00 00 00 A1 E2 
    309       289.586 DT     0129 Rx 8  93 24 4F 20 FF 1F FF 3F 
    310       293.148 DT     0420 Rx 6  28 01 40 4B 00 20 
    311       296.172 DT     03CB Rx 5  00 00 00 00 01 
    312       299.037 DT     02E1 Rx 8  02 00 00 00 00 00 01 00 
    313       299.275 DT     0221 Rx 8  41 01 55 00 00 00 A0 5A 
    314       299.739 DT     0129 Rx 8  ED 25 4F 20 00 20 FF 3F 
    315       303.501 DT     026E Rx 8  0A 00 FE EF FF FE EF FF 
    316       304.053 DT     0409 Rx 1  00 
    317       304.221 DT     0488 Rx 4  40 00 0B D7 
    318       304.471 DT     0720 Rx 8  00 00 00 00 00 00 00 00 
    319       306.218 DT     0545 Rx 8  D0 01 31 B0 A1 0A FA A1 
    320       308.566 DT     039D Rx 5  86 69 55 28 00 
    321       309.094 DT     010A Rx 7  1B A9 52 62 61 51 01 
    322       309.308 DT     010B Rx 7  13 09 00 00 F0 FF 0F 
    323       309.526 DT     010C Rx 7  87 F9 A0 30 21 90 00 
    324       309.746 DT     010D Rx 7  D6 E9 70 71 F0 FF 0F 
    325       309.982 DT     0129 Rx 8  37 26 4F 20 00 20 FF 3F 
    326       310.130 DT     0219 Rx 3  0E 00 29 
    327       310.372 DT     0239 Rx 8  00 00 64 7D 7D 7D F0 A0 
    328       310.616 DT     0247 Rx 8  03 00 1B 00 00 40 FC 00 
    329       310.865 DT     024A Rx 8  00 00 01 0F 1F 00 00 00 
    330       311.095 DT     004F Rx 8  1B 1E E8 02 9C E7 0A 96 
    331       311.331 DT     0102 Rx 8  22 33 00 00 E8 38 11 08 
    332       311.577 DT     03B8 Rx 8  00 00 74 74 00 00 00 00 
    333       311.819 DT     0334 Rx 8  3F 3F C8 00 E2 3F 40 DE 
    334       312.065 DT     03FD Rx 8  00 00 00 42 60 01 02 80 
    335       314.148 DT     02B9 Rx 8  00 00 D8 25 2A 9A DA 56 
    336       315.032 DT     02E1 Rx 8  03 6C 00 02 2C 45 00 00 
    337       315.268 DT     0103 Rx 8  11 30 00 00 96 12 11 02 
    338       319.564 DT     0129 Rx 8  20 27 4F 20 00 20 FF 3F 
    339       323.486 DT     020E Rx 8  99 C4 E8 62 15 02 06 D4 
    340       323.762 DT     021E Rx 8  00 00 00 00 00 00 80 88 
    341       324.014 DT     022E Rx 8  6E 66 A0 48 41 C3 10 00 
    342       324.182 DT     0488 Rx 4  40 00 0C D8 
    343       324.412 DT     023E Rx 8  28 C6 63 95 01 6E 86 1B 
    344       324.655 DT     02A8 Rx 8  C2 00 00 00 00 80 10 FC 
    345       324.901 DT     024E Rx 8  02 80 00 04 00 00 00 00 
    346       325.163 DT     025E Rx 8  02 20 00 81 00 20 00 81 
    347       325.443 DT     026E Rx 8  0B 00 FE EF FF FE EF FF 
    348       325.711 DT     030E Rx 8  00 00 05 01 00 00 F0 07 
    349       325.935 DT     031E Rx 6  01 00 6F 15 1A 1E 
    350       326.202 DT     0326 Rx 8  0B 00 03 21 00 00 00 00 
    351       326.410 DT     032E Rx 5  00 5D 30 A1 5F 
    352       326.626 DT     033E Rx 5  00 FF FF A1 E0 
    353       326.830 DT     034E Rx 5  59 9E 21 0A 73 
    354       327.092 DT     035E Rx 5  28 26 27 0A E0 
    355       327.372 DT     037E Rx 8  01 04 00 00 00 00 00 00 
    356       327.606 DT     039E Rx 6  FF FF FF FF 7A 0A 
    357       329.122 DT     0259 Rx 8  D3 C0 02 00 00 00 C0 B0 
    358       329.368 DT     03FE Rx 8  00 40 00 00 00 00 B1 F2 
    359       329.626 DT     0129 Rx 8  F7 28 4F 20 00 20 FF 3F 
    360       330.348 DT     0249 Rx 4  3F 08 00 00 
    361       331.612 DT     02E1 Rx 8  FC 19 11 0A 9E 16 0A 00 
    362       334.148 DT     0389 Rx 8  00 00 00 60 00 80 0F 7B 
    363       336.270 DT     025F Rx 8  DF 8C 01 C3 44 C1 0A E0 
    364       337.962 DT     03C2 Rx 8  00 55 55 55 00 00 55 45 
    365       339.311 DT     0545 Rx 8  01 00 00 00 00 10 00 5B 
    366       339.787 DT     0129 Rx 8  A2 29 4F 20 00 20 FF 3F 
    367       343.497 DT     026E Rx 8  20 00 7A 77 84 7B 17 7B 
    368       344.093 DT     0488 Rx 4  40 00 0D D9 
    369       347.043 DT     02E1 Rx 8  05 00 00 00 00 00 00 00 
    370       348.585 DT     039D Rx 5  87 6A 55 28 00 
    371       349.097 DT     010A Rx 7  1C AA 52 62 61 51 01 
    372       349.313 DT     010B Rx 7  14 0A 00 00 F0 FF 0F 
    373       349.534 DT     010C Rx 7  88 FA A0 30 21 90 00 
    374       349.752 DT     010D Rx 7  D7 EA 70 71 F0 FF 0F 
    375       349.990 DT     0129 Rx 8  7D 2A 4F 20 00 20 FF 3F 
    376       350.142 DT     0219 Rx 3  0F 00 2A 
    377       350.378 DT     0221 Rx 8  40 41 05 05 00 50 B1 AF 
    378       350.508 DT     0228 Rx 2  F0 1A 
    379       350.754 DT     07FF Rx 8  05 08 A0 40 00 00 00 00 
    380       350.990 DT     0318 Rx 8  16 03 1A 0F 11 17 1F A4 
    381       351.125 DT     0418 Rx 2  F2 06 
    382       351.241 DT     0128 Rx 1  00 
    383       354.143 DT     02B9 Rx 8  00 00 D8 25 2A 9A FA 76 
    384       355.263 DT     03C3 Rx 8  00 00 00 00 00 49 00 00 
    385       359.575 DT     0129 Rx 8  8C 2B 4F 20 00 20 FF 3F 
    386       360.011 DT     02D1 Rx 2  7F 01 
    387       361.324 DT     03FD Rx 8  01 00 0A 00 00 00 02 80 
    388       363.484 DT     02E1 Rx 8  10 21 04 00 00 00 26 08 
    389       363.710 DT     020E Rx 8  99 C4 E8 62 15 02 46 14 
    390       363.978 DT     021E Rx 8  00 00 00 00 00 00 80 99 
    391       364.144 DT     0488 Rx 4  40 00 0E DA 
    392       364.376 DT     022E Rx 8  6E 66 A0 48 41 C3 50 40 
    393       364.630 DT     023E Rx 8  28 C6 63 95 05 6E 96 2F 
    394       364.882 DT     026E Rx 8  21 00 10 EA 79 2B 0A 86 
    395       369.131 DT     03FE Rx 8  00 40 00 00 00 00 C1 02 
    396       369.555 DT     0129 Rx 8  EC 2C 4F 20 00 20 FF 3F 
    397       372.245 DT     0545 Rx 8  02 00 25 00 00 00 10 81 
    398       376.187 DT     0419 Rx 1  00 
    399       379.043 DT     02E8 Rx 8  C2 00 00 00 00 80 10 3C 
    400       379.279 DT     02E1 Rx 8  29 0A A3 6A 17 00 00 00 
    401       379.730 DT     0129 Rx 8  97 2D 4F 20 FF 1F FF 3F 
    402       379.896 DT     0249 Rx 4  5E 09 00 00 
    403       382.084 DT     027D Rx 3  01 03 83 
    404       383.493 DT     026E Rx 8  22 00 B1 D9 87 84 19 8A 
    405       384.101 DT     0488 Rx 4  40 00 0F DB 
    406       386.007 DT     03C2 Rx 8  29 55 00 00 00 00 00 00 
    407       388.577 DT     039D Rx 5  88 6B 55 28 00 
    408       389.095 DT     010A Rx 7  1D AB 52 62 61 51 01 
    409       389.312 DT     010B Rx 7  15 0B 00 00 F0 FF 0F 
    410       389.534 DT     010C Rx 7  89 FB A0 30 21 90 00 
    411       389.752 DT     010D Rx 7  D8 EB 70 71 F0 FF 0F 
    412       389.990 DT     0129 Rx 8  21 2E 4F 20 00 20 FF 3F 
    413       390.140 DT     0219 Rx 3  00 00 1B 
    414       393.150 DT     0420 Rx 6  28 01 40 4B 00 30 
    415       394.142 DT     02B9 Rx 8  00 00 D8 25 2A 9A 1A 96 
    416       395.040 DT     02E1 Rx 8  02 00 00 00 00 00 01 00 
    417       396.172 DT     03CB Rx 5  00 00 00 00 01 
    418       399.025 DT     0221 Rx 8  41 01 55 00 00 00 C0 7A 
    419       399.563 DT     0129 Rx 8  D0 2F 4F 20 00 20 FF 3F 
    420       403.473 DT     020E Rx 8  99 C4 E8 62 15 02 86 54 
    421       403.737 DT     021E Rx 8  00 00 00 00 00 00 80 AA 
    422       403.987 DT     022E Rx 8  6E 66 A0 48 41 C3 90 80 
    423       404.107 DT     0409 Rx 1  00 
    424       404.339 DT     023E Rx 8  28 C6 63 95 01 6E A6 3B 
    425       404.510 DT     0488 Rx 4  40 00 00 CC 
    426       404.748 DT     026E Rx 8  03 00 FE EF FF FE EF FF 
    427       404.998 DT     0720 Rx 8  00 00 00 00 00 00 00 00 
    428       405.544 DT     0545 Rx 8  40 01 31 D0 A1 10 2A 67 
    429       409.146 DT     0239 Rx 8  00 00 64 7D 7D 7D F0 B0 
    430       409.390 DT     0247 Rx 8  03 00 1B 00 00 40 FC 00 
    431       409.638 DT     024A Rx 8  00 00 01 0F 1F 00 00 00 
    432       409.876 DT     0129 Rx 8  35 20 4F 20 00 20 FF 3F 
    433       410.119 DT     03FE Rx 8  00 40 00 00 00 00 D1 12 
    434       410.997 DT     0102 Rx 8  22 33 00 00 E8 38 11 08 
    435       411.233 DT     02E1 Rx 8  03 6C 00 02 2C 45 00 00 
    436       411.481 DT     0448 Rx 8  00 00 00 00 00 00 00 4B 
    437       415.229 DT     0103 Rx 8  11 30 00 00 96 12 11 02 
    438       419.638 DT     0129 Rx 8  22 21 4F 20 00 20 FF 3F 
    439       423.499 DT     024E Rx 8  03 80 00 04 00 00 00 00 
    440       423.764 DT     025E Rx 8  03 20 00 81 00 20 00 81 
    441       424.026 DT     026E Rx 8  04 00 FE EF FF FE EF FF 
    442       424.196 DT     0488 Rx 4  40 00 01 CD 
    443       424.438 DT     02A8 Rx 8  C2 00 00 00 00 80 20 0C 
    444       424.618 DT     032E Rx 5  00 5D 30 B1 6F 
    445       424.836 DT     033E Rx 5  00 FF FF B1 F0 
    446       425.041 DT     034E Rx 5  59 9E 21 0B 74 
    447       425.251 DT     035E Rx 5  28 26 27 0B E1 
    448       425.483 DT     039E Rx 6  FF FF FF FF 8B 0A 
    449       427.465 DT     02E1 Rx 8  FC 19 13 0A 9E 14 0A 00 
    450       428.163 DT     03C9 Rx 7  03 11 83 05 30 38 00 
    451       428.593 DT     039D Rx 5  89 6C 55 28 00 
    452       428.856 DT     035D Rx 8  02 00 00 00 00 C1 07 00 
    453       429.094 DT     010A Rx 7  1E AC 52 62 61 51 01 
    454       429.312 DT     010B Rx 7  16 0C 00 00 F0 FF 0F 
    455       429.530 DT     010C Rx 7  8A FC A0 30 21 90 00 
    456       429.748 DT     010D Rx 7  D9 EC 70 71 F0 FF 0F 
    457       429.982 DT     0129 Rx 8  6B 22 4F 20 00 20 FF 3F 
    458       430.132 DT     0219 Rx 3  01 00 1C 
    459       430.298 DT     0249 Rx 4  E2 0A 00 00 
    460       430.539 DT     0259 Rx 8  D3 C0 02 00 00 00 D0 C0 
    461       434.141 DT     02B9 Rx 8  00 00 D8 25 2A 9A 3A B6 
    462       435.193 DT     025F Rx 8  DF 8C 01 C3 44 C1 0A E0 
    463       437.382 DT     03C2 Rx 8  00 55 55 55 00 00 55 45 
    464       438.588 DT     0545 Rx 8  01 00 00 00 00 10 30 8B 
    465       439.566 DT     0129 Rx 8  7C 23 4F 20 00 20 FF 3F 
    466       443.067 DT     02E1 Rx 8  05 00 00 00 00 00 00 00 
    467       443.477 DT     020E Rx 8  99 C4 E8 62 15 02 C6 94 
    468       443.743 DT     021E Rx 8  00 00 00 00 00 00 80 BB 
    469       443.991 DT     022E Rx 8  6E 66 A0 48 41 C3 D0 C0 
    470       444.159 DT     0488 Rx 4  40 00 02 CE 
    471       444.389 DT     023E Rx 8  28 C6 63 95 01 6E B6 4B 
    472       444.651 DT     026E Rx 8  05 00 FE EF FF FE EF FF 
    473       449.127 DT     03FE Rx 8  00 40 00 00 00 00 E1 22 
    474       449.360 DT     0221 Rx 8  40 41 05 05 00 50 D1 CF 
    475       449.696 DT     0129 Rx 8  FA 24 4F 20 00 20 FF 3F 
    476       450.046 DT     0405 Rx 8  12 43 33 37 39 34 34 35 
    477       450.180 DT     0228 Rx 2  00 2A 
    478       450.416 DT     07FF Rx 8  01 91 45 44 42 4C 7A 00 
    479       450.648 DT     0318 Rx 8  16 03 1B 0F 11 17 01 87 
    480       450.789 DT     0418 Rx 2  02 06 
    481       450.905 DT     0128 Rx 1  00 
    482       455.611 DT     03C3 Rx 8  55 55 55 01 00 00 00 00 
    483       459.035 DT     02E1 Rx 8  10 21 04 00 00 00 26 08 
    484       459.608 DT     0129 Rx 8  40 25 4F 20 01 20 FF 3F 
    485       459.820 DT     02D1 Rx 2  7F 01 
    486       460.304 DT     0238 Rx 8  80 3F 14 C1 1F 00 D4 C1 
    487       460.498 DT     0284 Rx 5  10 00 00 00 00 
    488       463.672 DT     026E Rx 8  06 00 FE EF FF FE EF FF 
    489       464.106 DT     0488 Rx 4  40 00 03 CF 
    490       468.524 DT     039D Rx 5  8A 6D 55 28 00 
    491       469.098 DT     010A Rx 7  1F AD 52 62 61 51 01 
    492       469.312 DT     010B Rx 7  17 0D 00 00 F0 FF 0F 
    493       469.533 DT     010C Rx 7  8B FD A0 30 21 90 00 
    494       469.749 DT     010D Rx 7  DA ED 70 71 F0 FF 0F 
    495       469.985 DT     0129 Rx 8  37 26 4F 20 00 20 FF 3F 
    496       470.135 DT     0219 Rx 3  02 00 1D 
    497       471.991 DT     0545 Rx 8  02 00 21 00 00 00 40 AD 
    498       474.141 DT     02B9 Rx 8  00 00 D8 25 2A 9A 5A D6 
    499       475.753 DT     02E1 Rx 8  29 0A A3 6A 17 00 00 00 
    500       476.189 DT     0419 Rx 1  00 
    501       479.018 DT     02E8 Rx 8  C2 00 00 00 00 80 20 4C 
    502       479.620 DT     0129 Rx 8  20 27 4F 20 00 20 FF 3F 
    503       479.786 DT     0249 Rx 4  28 0B 00 00 
    504       482.084 DT     027D Rx 3  01 04 84 
    505       483.040 DT     0321 Rx 8  F8 D9 A7 7B 02 7A 00 93 
    506       483.474 DT     020E Rx 8  99 C4 E8 62 15 02 06 D4 
    507       483.742 DT     021E Rx 8  00 00 00 00 00 00 80 CC 
    508       483.993 DT     022E Rx 8  6E 66 A0 48 41 C3 10 00 
    509       484.159 DT     0488 Rx 4  40 00 04 D0 
    510       484.389 DT     023E Rx 8  28 C6 63 95 01 6E C6 5B 
    511       484.651 DT     026E Rx 8  07 00 FE EF FF FE EF FF 
    512       486.253 DT     03C2 Rx 8  29 55 00 00 00 00 00 00 
    513       489.131 DT     03FE Rx 8  00 40 00 00 00 00 F1 32 
    514       489.604 DT     0129 Rx 8  F7 28 4F 20 00 20 FF 3F 
    515       491.047 DT     02E1 Rx 8  02 00 00 00 00 00 01 00 
    516       493.157 DT     0420 Rx 6  28 01 40 4B 00 40 
    517       496.173 DT     03CB Rx 5  00 00 00 00 01 
    518       499.269 DT     0221 Rx 8  41 01 55 00 00 00 E0 9A 
    519       499.749 DT     0129 Rx 8  A2 29 4F 20 00 20 FF 3F 
    520       503.507 DT     026E Rx 8  08 00 FE EF FF FE EF FF 
    521       504.011 DT     0545 Rx 8  80 01 31 C0 A1 0B 5A C2 
    522       504.131 DT     0409 Rx 1  00 
    523       504.298 DT     0488 Rx 4  40 00 05 D1 
    524       504.548 DT     0720 Rx 8  00 00 00 00 00 00 00 00 
    525       507.226 DT     02E1 Rx 8  03 6C 00 02 2C 45 00 00 
    526       508.544 DT     039D Rx 5  8B 6E 55 28 00 
    527       509.100 DT     010A Rx 7  20 AE 52 62 61 51 01 
    528       509.318 DT     010B Rx 7  18 0E 00 00 F0 FF 0F 
    529       509.538 DT     010C Rx 7  8C FE A0 30 21 90 00 
    530       509.758 DT     010D Rx 7  DB EE 70 71 F0 FF 0F 
    531       509.997 DT     0129 Rx 8  7D 2A 4F 20 00 20 FF 3F 
    532       510.147 DT     0219 Rx 3  03 00 1E 
    533       510.389 DT     0239 Rx 8  00 00 64 7D 7D 7D F0 C0 
    534       510.633 DT     0247 Rx 8  03 00 1B 00 00 40 FC 00 
    535       510.881 DT     024A Rx 8  00 00 01 0F 1F 00 00 00 
    536       511.117 DT     0102 Rx 8  22 33 00 00 E8 38 11 08 
    537       511.349 DT     0353 Rx 8  7B 0F 39 80 02 0A F8 FA 
    538       511.592 DT     02F8 Rx 8  E7 39 29 00 00 DE 00 1F 
    539       514.142 DT     02B9 Rx 8  00 00 D8 25 2A 9A 7A F6 
    540       515.254 DT     0103 Rx 8  11 30 00 00 96 12 11 02 
    541       519.562 DT     0129 Rx 8  8C 2B 4F 20 00 20 FF 3F 
    542       523.268 DT     02E1 Rx 8  FC 19 12 0A 9E 11 0A 00 
    543       523.508 DT     020E Rx 8  99 C4 E8 62 15 02 46 14 
    544       523.778 DT     021E Rx 8  00 00 00 00 00 00 80 DD 
    545       524.033 DT     022E Rx 8  6E 66 A0 48 41 C3 50 40 
    546       524.199 DT     0488 Rx 4  40 00 06 D2 
    547       524.431 DT     023E Rx 8  28 C6 63 95 01 6E D6 6B 
    548       524.671 DT     02A8 Rx 8  C2 00 00 00 00 80 30 1C 
    549       524.917 DT     024E Rx 8  00 80 00 04 00 00 00 00 
    550       525.081 DT     025E Rx 8  00 20 00 81 00 20 00 81 
    551       525.342 DT     026E Rx 8  09 00 FE EF FF FE EF FF 
    552       525.550 DT     032E Rx 5  00 5D 30 C1 7F 
    553       525.770 DT     033E Rx 5  00 FF FF C1 00 
    554       525.974 DT     034E Rx 5  59 9E 21 0C 75 
    555       526.180 DT     035E Rx 5  28 26 27 0C E2 
    556       526.414 DT     039E Rx 6  FF FF FF FF 9C 0A 
    557       529.028 DT     0259 Rx 8  D3 C0 02 00 00 00 E0 D0 
    558       529.274 DT     03FE Rx 8  00 40 00 00 00 00 01 42 
    559       529.510 DT     0129 Rx 8  EC 2C 4F 20 00 20 FF 3F 
    560       530.223 DT     0249 Rx 4  3A 0C 00 00 
    561       535.725 DT     025F Rx 8  DF 8C 01 C3 44 C1 0A E0 
    562       537.895 DT     03C2 Rx 8  00 55 55 55 00 00 55 45 
    563       539.019 DT     03FC Rx 7  AE 00 00 00 00 00 00 
    564       539.267 DT     02E1 Rx 8  05 00 00 00 00 00 00 00 
    565       539.554 DT     0129 Rx 8  53 2D 4F 20 01 20 FF 3F 
    566       539.810 DT     0545 Rx 8  01 00 00 00 00 10 60 BB 
    567       543.399 DT     026E Rx 8  0A 00 FE EF FF FE EF FF 
    568       544.007 DT     0488 Rx 4  40 00 07 D3 
    569       548.467 DT     039D Rx 5  8C 6F 55 28 00 
    570       548.999 DT     010A Rx 7  21 AF 52 62 61 51 01 
    571       549.215 DT     010B Rx 7  19 0F 00 00 F0 FF 0F 
    572       549.435 DT     010C Rx 7  8D FF A0 30 21 90 00 
    573       549.653 DT     010D Rx 7  DC EF 70 71 F0 FF 0F 
    574       549.891 DT     0129 Rx 8  21 2E 4F 20 00 20 FF 3F 
    575       550.043 DT     0219 Rx 3  04 00 1F 
    576       550.275 DT     0221 Rx 8  40 41 05 05 00 50 F1 EF 
    577       550.406 DT     0228 Rx 2  10 3A 
    578       550.640 DT     07FF Rx 8  02 5F 4E AC DE CD D6 30 
    579       550.872 DT     0318 Rx 8  16 03 1B 0F 11 17 03 89 
    580       551.006 DT     0418 Rx 2  12 06 
    581       551.122 DT     0128 Rx 1  00 
    582       554.041 DT     02B9 Rx 8  00 00 D8 25 2A 9A 9A 16 
    583       554.289 DT     03FE Rx 8  00 40 00 00 00 00 10 51 
    584       554.941 DT     02E1 Rx 8  10 21 04 00 00 00 26 08 
    585       555.187 DT     03C3 Rx 8  00 00 00 00 00 49 00 00 
    586       559.667 DT     0129 Rx 8  B9 2F 4F 20 FF 1F FF 3F 
    587       559.869 DT     02D1 Rx 2  7F 01 
    588       561.006 DT     03DC Rx 8  40 73 93 0A 00 00 00 00 
    589       561.254 DT     03D9 Rx 8  02 00 00 90 00 00 00 00 
    590       561.486 DT     02D3 Rx 8  F6 00 A4 02 12 F2 0B 54 
    591       563.374 DT     020E Rx 8  99 C4 E8 62 15 02 86 54 
    592       563.638 DT     021E Rx 8  00 00 00 00 00 00 80 EE 
    593       563.888 DT     022E Rx 8  6E 66 A0 48 41 C3 90 80 
    594       564.055 DT     0488 Rx 4  40 00 08 D4 
    595       564.285 DT     023E Rx 8  28 C6 63 95 01 6E E6 7B 
    596       564.547 DT     026E Rx 8  0B 00 FE EF FF FE EF FF 
    597       569.527 DT     0129 Rx 8  35 20 4F 20 00 20 FF 3F 
    598       570.105 DT     0545 Rx 8  02 00 1D 00 00 00 70 D9 
    599       571.649 DT     02E1 Rx 8  29 0A A3 6A 17 00 00 00 
    600       573.373 DT     030E Rx 8  00 00 05 01 00 00 00 17 
    601       576.101 DT     0419 Rx 1  00 
    602       578.944 DT     02E8 Rx 8  C2 00 00 00 00 80 30 5C 
    603       579.456 DT     0129 Rx 8  22 21 4F 20 00 20 FF 3F 
    604       579.622 DT     0249 Rx 4  13 0D 00 00 
    605       581.988 DT     027D Rx 3  01 05 85 
    606       583.396 DT     026E Rx 8  20 00 7A 77 84 7B 17 7B 
    607       583.996 DT     0488 Rx 4  40 00 09 D5 
    608       585.921 DT     03C2 Rx 8  29 55 00 00 00 00 00 00 
    609       587.437 DT     02E1 Rx 8  02 00 00 00 00 00 01 00 
    610       588.679 DT     039D Rx 5  7D 60 55 28 00 
    611       588.999 DT     010A Rx 7  12 A0 52 62 61 51 01 
    612       589.223 DT     010B Rx 7  0A 00 00 00 F0 FF 0F 
    613       589.441 DT     010C Rx 7  7E F0 A0 30 21 90 00 
    614       589.661 DT     010D Rx 7  CD E0 70 71 F0 FF 0F 
    615       589.895 DT     0129 Rx 8  6B 22 4F 20 00 20 FF 3F 
    616       590.049 DT     0219 Rx 3  05 00 20 
    617       593.052 DT     0420 Rx 6  28 01 40 4B 00 50 
    618       594.042 DT     02B9 Rx 8  00 00 D8 25 2A 9A BA 36 
    619       594.290 DT     03FE Rx 8  00 40 00 00 00 00 20 61 
    620       596.094 DT     03CB Rx 5  00 00 00 00 01 
    621       598.931 DT     0221 Rx 8  41 01 55 00 00 00 00 BA 
    622       599.559 DT     0129 Rx 8  7C 23 4F 20 00 20 FF 3F 
    623       602.937 DT     02E1 Rx 8  03 6C 00 02 2C 45 00 00 
    624       603.172 DT     0545 Rx 8  D0 01 31 C0 A1 0F 8A 46 
    625       603.416 DT     020E Rx 8  99 C4 E8 62 15 02 C6 94 
    626       603.684 DT     021E Rx 8  00 00 00 00 00 00 80 FF 
    627       603.932 DT     022E Rx 8  6E 66 A0 48 41 C3 D0 C0 
    628       604.052 DT     0409 Rx 1  00 
    629       604.284 DT     023E Rx 8  28 C6 63 95 01 6E F6 8B 
    630       604.532 DT     0425 Rx 8  00 00 00 00 00 00 00 00 
    631       604.762 DT     026E Rx 8  21 00 10 EA 79 2B 0A 86 
    632       604.928 DT     0488 Rx 4  40 00 0A D6 
    633       605.179 DT     0720 Rx 8  00 00 00 00 00 00 00 00 
    634       609.097 DT     0239 Rx 8  00 00 64 7D 7D 7D F0 D0 
    635       609.341 DT     0247 Rx 8  03 00 1B 00 00 40 FC 00 
    636       609.589 DT     024A Rx 8  00 00 01 0F 1F 00 00 00 
    637       609.825 DT     0129 Rx 8  FA 24 4F 20 00 20 FF 3F 
    638       610.035 DT     025D Rx 6  00 00 FF 00 00 00 
    639       610.279 DT     03FA Rx 8  01 01 02 02 04 02 05 FF 
    640       610.413 DT     0410 Rx 2  45 00 
    641       610.904 DT     0102 Rx 8  22 33 00 00 E8 38 11 08 
    642       611.098 DT     03DF Rx 5  00 00 04 00 01 
    643       611.326 DT     0293 Rx 8  01 0C 55 91 55 15 94 86 
    644       615.138 DT     0103 Rx 8  11 30 00 00 96 12 11 02 
    645       619.164 DT     02E1 Rx 8  FC 19 13 0A 9E 12 0A 00 
    646       619.529 DT     0129 Rx 8  84 25 4F 20 FF 1F FF 3F 
    647       623.402 DT     024E Rx 8  01 80 00 04 00 00 00 00 
    648       623.669 DT     025E Rx 8  01 20 00 81 00 20 00 81 
    649       623.921 DT     026E Rx 8  22 00 B1 D9 87 84 19 8A 
    650       624.089 DT     0488 Rx 4  40 00 0B D7 
    651       624.331 DT     02A8 Rx 8  C2 00 00 00 00 80 40 2C 
    652       624.511 DT     032E Rx 5  00 5D 30 D1 8F 
    653       624.725 DT     033E Rx 5  00 FF FF D1 10 
    654       624.930 DT     034E Rx 5  59 9E 21 0D 76 
    655       625.138 DT     035E Rx 5  28 26 27 0D E3 
    656       625.370 DT     039E Rx 6  FF FF FF FF AD 0A 
    657       628.464 DT     039D Rx 5  7E 61 55 28 00 
    658       628.998 DT     010A Rx 7  13 A1 52 62 61 51 01 
    659       629.216 DT     010B Rx 7  0B 01 00 00 F0 FF 0F 
    660       629.438 DT     010C Rx 7  7F F1 A0 30 21 90 00 
    661       629.654 DT     010D Rx 7  CE E1 70 71 F0 FF 0F 
    662       629.891 DT     0129 Rx 8  37 26 4F 20 00 20 FF 3F 
    663       630.043 DT     0219 Rx 3  06 00 21 
    664       630.285 DT     0259 Rx 8  D3 C0 02 00 00 00 F0 E0 
    665       630.449 DT     0249 Rx 4  AF 0E 00 00 
    666       634.049 DT     02B9 Rx 8  00 00 D8 25 2A 9A DA 56 
    667       634.295 DT     03FE Rx 8  00 40 00 00 00 00 30 71 
    668       635.095 DT     025F Rx 8  DF 8C 01 C3 44 C1 0A E0 
    669       637.560 DT     02E1 Rx 8  05 00 00 00 00 00 00 00 
    670       638.810 DT     03C2 Rx 8  00 55 55 55 00 00 55 45 
    671       639.446 DT     0545 Rx 8  01 00 00 00 00 10 90 EB 
    672       639.686 DT     0129 Rx 8  20 27 4F 20 00 20 FF 3F 
    673       643.374 DT     020E Rx 8  99 C4 E8 62 15 02 06 D4 
    674       643.644 DT     021E Rx 8  00 00 00 00 00 00 80 00 
    675       643.895 DT     022E Rx 8  6E 66 A0 48 41 C3 10 00 
    676       644.063 DT     0488 Rx 4  40 00 0C D8 
    677       644.295 DT     023E Rx 8  28 C6 63 95 01 6E 06 9B 
    678       644.555 DT     026E Rx 8  03 00 FE EF FF FE EF FF 
    679       649.131 DT     0221 Rx 8  40 41 05 05 00 50 11 0F 
    680       649.607 DT     0129 Rx 8  F7 28 4F 20 00 20 FF 3F 
    681       649.737 DT     0228 Rx 2  20 4A 
    682       649.974 DT     07FF Rx 8  03 31 08 A1 E0 42 16 41 
    683       650.208 DT     0318 Rx 8  16 03 1B 0F 11 17 05 8B 
    684       650.344 DT     0418 Rx 2  22 06 
    685       650.461 DT     0128 Rx 1  00 
    686       651.378 DT     02E1 Rx 8  10 21 04 00 00 00 26 08 
    687       655.194 DT     03C3 Rx 8  55 55 55 01 00 00 00 00 
    688       659.492 DT     0129 Rx 8  A2 29 4F 20 00 20 FF 3F 
    689       659.930 DT     02D1 Rx 2  7F 01 
    690       663.400 DT     026E Rx 8  04 00 FE EF FF FE EF FF 
    691       663.998 DT     0488 Rx 4  40 00 0D D9 
    692       667.168 DT     02E1 Rx 8  29 0A A3 6A 17 00 00 00 
    693       668.444 DT     039D Rx 5  7F 62 55 28 00 
    694       668.999 DT     010A Rx 7  14 A2 52 62 61 51 01 
    695       669.217 DT     010B Rx 7  0C 02 00 00 F0 FF 0F 
    696       669.437 DT     010C Rx 7  80 F2 A0 30 21 90 00 
    697       669.657 DT     010D Rx 7  CF E2 70 71 F0 FF 0F 
    698       669.895 DT     0129 Rx 8  7D 2A 4F 20 00 20 FF 3F 
    699       670.047 DT     0219 Rx 3  07 00 22 
    700       670.289 DT     0545 Rx 8  02 00 1A 00 00 00 A0 06 
    701       674.045 DT     02B9 Rx 8  00 00 D8 25 2A 9A FA 76 
    702       674.291 DT     03FE Rx 8  00 40 00 00 00 00 40 81 
    703       676.094 DT     0419 Rx 1  00 
    704       678.922 DT     02E8 Rx 8  C2 00 00 00 00 80 40 6C 
    705       679.170 DT     03CA Rx 8  00 00 00 00 00 00 00 06 
    706       679.460 DT     0129 Rx 8  8C 2B 4F 20 00 20 FF 3F 
    707       679.628 DT     0249 Rx 4  CE 0F 00 00 
    708       681.988 DT     027D Rx 3  01 06 86 
    709       683.130 DT     02E1 Rx 8  02 00 00 00 00 00 01 00 
    710       683.373 DT     020E Rx 8  99 C4 E8 62 15 02 46 14 
    711       683.639 DT     021E Rx 8  00 00 00 00 00 00 80 11 
    712       683.891 DT     022E Rx 8  6E 66 A0 48 41 C3 50 40 
    713       684.057 DT     0488 Rx 4  40 00 0E DA 
    714       684.287 DT     023E Rx 8  28 C6 63 95 01 6E 16 AB 
    715       684.549 DT     026E Rx 8  05 00 FE EF FF FE EF FF 
    716       686.401 DT     03C2 Rx 8  29 55 00 00 00 00 00 00 
    717       689.504 DT     0129 Rx 8  EC 2C 4F 20 00 20 FF 3F 
    718       693.054 DT     0420 Rx 6  28 01 40 4B 00 60 
    719       694.022 DT     0399 Rx 8  F0 20 C0 E0 B0 C8 67 2B 
    720       694.172 DT     0413 Rx 3  4B 4B 4B 
    721       696.078 DT     03CB Rx 5  00 00 00 00 01 
    722       699.182 DT     0221 Rx 8  41 01 55 00 00 00 20 DA 
    723       699.421 DT     02E1 Rx 8  03 6C 00 02 2C 45 00 00 
    724       699.659 DT     0129 Rx 8  FE 2D 4F 20 00 20 FF 3F 
    725       699.899 DT     0405 Rx 8  10 00 00 00 00 4C 52 57 
    726       701.923 DT     0545 Rx 8  80 01 2C 60 A1 0A BA BC 
    727       703.399 DT     026E Rx 8  06 00 FE EF FF FE EF FF 
    728       703.953 DT     0409 Rx 1  00 
    729       704.067 DT     0415 Rx 1  45 
    730       704.237 DT     0488 Rx 4  40 00 0F DB 
    731       704.487 DT     0720 Rx 8  00 00 00 00 00 00 00 00 
    732       708.487 DT     039D Rx 5  80 63 55 28 00 
    733       709.003 DT     010A Rx 7  15 A3 52 62 61 51 01 
    734       709.219 DT     010B Rx 7  0D 03 00 00 F0 FF 0F 
    735       709.439 DT     010C Rx 7  81 F3 A0 30 21 90 00 
    736       709.655 DT     010D Rx 7  D0 E3 70 71 F0 FF 0F 
    737       709.893 DT     0129 Rx 8  21 2E 4F 20 00 20 FF 3F 
    738       710.043 DT     0219 Rx 3  08 00 23 
    739       710.287 DT     0239 Rx 8  00 00 64 7D 7D 7D F0 E0 
    740       710.532 DT     0247 Rx 8  03 00 1B 00 00 40 FC 00 
    741       710.780 DT     024A Rx 8  00 00 01 0F 1F 00 00 00 
    742       711.016 DT     0102 Rx 8  22 33 00 00 E8 38 11 08 
    743       714.046 DT     02B9 Rx 8  00 00 D8 25 2A 9A 1A 96 
    744       714.290 DT     03FE Rx 8  00 40 00 00 00 00 50 91 
    745       715.148 DT     0103 Rx 8  11 30 00 00 96 12 11 02 
    746       715.416 DT     02E1 Rx 8  FC 19 12 0A 9E 11 0A 00 
    747       719.619 DT     0129 Rx 8  D0 2F 4F 20 00 20 FF 3F 
    748       723.383 DT     020E Rx 8  99 C4 E8 62 15 02 86 54 
    749       723.649 DT     021E Rx 8  00 00 00 00 00 00 80 22 
    750       723.901 DT     022E Rx 8  6E 66 A0 48 41 C3 90 80 
    751       724.071 DT     0488 Rx 4  40 00 00 CC 
    752       724.301 DT     023E Rx 8  28 C6 63 95 01 6E 26 BB 
    753       724.542 DT     02A8 Rx 8  C2 00 00 00 00 80 50 3C 
    754       724.788 DT     024E Rx 8  02 80 00 04 00 00 00 00 
    755       725.050 DT     025E Rx 8  02 20 00 81 00 20 00 81 
    756       725.312 DT     026E Rx 8  07 00 FE EF FF FE EF FF 
    757       725.520 DT     032E Rx 5  00 5D 30 E1 9F 
    758       725.734 DT     033E Rx 5  00 FF FF E1 20 
    759       725.940 DT     034E Rx 5  59 9E 21 0E 77 
    760       726.144 DT     035E Rx 5  28 26 27 0E E4 
    761       726.381 DT     039E Rx 6  FF FF FF FF BE 0A 
    762       729.031 DT     0259 Rx 8  D3 C0 02 00 00 00 00 F0 
    763       729.459 DT     0129 Rx 8  98 20 4F 20 01 20 FF 3F 
    764       730.425 DT     0249 Rx 4  9B 00 00 00 
    765       730.995 DT     02E1 Rx 8  05 00 00 00 00 00 00 00 
    766       735.719 DT     025F Rx 8  DF 8C 01 C3 44 C1 0A E0 
    767       737.403 DT     03C2 Rx 8  00 55 55 55 00 00 55 45 
    768       737.910 DT     0545 Rx 8  01 00 00 00 00 10 C0 1B 
    769       739.608 DT     0129 Rx 8  4B 21 4F 20 FF 1F FF 3F 
    770       743.400 DT     026E Rx 8  08 00 FE EF FF FE EF FF 
    771       744.030 DT     05D9 Rx 8  02 00 00 00 41 4E 7A 01 
    772       744.200 DT     0488 Rx 4  40 00 01 CD 
    773       746.954 DT     02E1 Rx 8  10 21 04 00 00 00 26 08 
    774       748.470 DT     039D Rx 5  81 64 55 28 00 
    775       748.998 DT     010A Rx 7  16 A4 52 62 61 51 01 
    776       749.216 DT     010B Rx 7  0E 04 00 00 F0 FF 0F 
    777       749.437 DT     010C Rx 7  82 F4 A0 30 21 90 00 
    778       749.655 DT     010D Rx 7  D1 E4 70 71 F0 FF 0F 
    779       749.889 DT     0129 Rx 8  6B 22 4F 20 00 20 FF 3F 
    780       750.037 DT     0219 Rx 3  09 00 24 
    781       750.275 DT     0221 Rx 8  40 41 05 05 00 50 31 2F 
    782       750.405 DT     0228 Rx 2  30 5A 
    783       750.637 DT     07FF Rx 8  04 CC 16 54 61 12 B4 2A 
    784       750.874 DT     0318 Rx 8  16 03 1B 0F 11 17 07 8D 
    785       751.008 DT     0418 Rx 2  32 06 
    786       751.124 DT     0128 Rx 1  00 
    787       754.046 DT     02B9 Rx 8  00 00 D8 25 2A 9A 3A B6 
    788       754.292 DT     03FE Rx 8  00 40 00 00 00 00 60 A1 
    789       755.434 DT     03C3 Rx 8  00 00 00 00 00 49 00 00 
    790       758.551 DT     035D Rx 8  00 00 00 00 00 00 00 00 
    791       759.486 DT     0129 Rx 8  15 23 4F 20 FF 1F FF 3F 
    792       759.736 DT     02D1 Rx 2  7F 01 
    793       763.376 DT     02E1 Rx 8  29 0A A3 6A 17 00 00 00 
    794       763.606 DT     020E Rx 8  99 C4 E8 62 15 02 C6 94 
    795       763.870 DT     021E Rx 8  00 00 00 00 00 00 80 33 
    796       764.038 DT     0488 Rx 4  40 00 02 CE 
    797       764.266 DT     022E Rx 8  6E 66 A0 48 41 C3 D0 C0 
    798       764.525 DT     023E Rx 8  28 C6 63 95 01 6E 36 CB 
    799       764.785 DT     026E Rx 8  09 00 FE EF FF FE EF FF 
    800       767.935 DT     0545 Rx 8  02 00 16 00 00 00 D0 32 
    801       769.463 DT     0129 Rx 8  FA 24 4F 20 00 20 FF 3F 
    802       776.093 DT     0419 Rx 1  00 
    803       778.745 DT     02E8 Rx 8  C2 00 00 00 00 80 50 7C 
    804       778.989 DT     02E1 Rx 8  02 00 00 00 00 00 01 00 
    805       779.516 DT     0129 Rx 8  84 25 4F 20 FF 1F FF 3F 
    806       779.864 DT     0249 Rx 4  E8 01 00 00 
    807       781.996 DT     027D Rx 3  01 07 87 
    808       783.398 DT     026E Rx 8  0A 00 FE EF FF FE EF FF 
    809       784.010 DT     0488 Rx 4  40 00 03 CF 
    810       785.930 DT     03C2 Rx 8  29 55 00 00 00 00 00 00 
    811       788.486 DT     039D Rx 5  82 65 55 28 00 
    812       789.000 DT     010A Rx 7  17 A5 52 62 61 51 01 
    813       789.220 DT     010B Rx 7  0F 05 00 00 F0 FF 0F 
    814       789.440 DT     010C Rx 7  83 F5 A0 30 21 90 00 
    815       789.659 DT     010D Rx 7  D2 E5 70 71 F0 FF 0F 
    816       789.895 DT     0129 Rx 8  37 26 4F 20 00 20 FF 3F 
    817       790.047 DT     0219 Rx 3  0A 00 25 
    818       793.061 DT     0420 Rx 6  28 01 40 4B 00 70 
    819       794.045 DT     02B9 Rx 8  00 00 D8 25 2A 9A 5A D6 
    820       794.287 DT     03FE Rx 8  00 40 00 00 00 00 70 B1 
    821       794.943 DT     02E1 Rx 8  03 6C 00 02 2C 45 00 00 
    822       796.081 DT     03CB Rx 5  00 00 00 00 01 
    823       799.183 DT     0221 Rx 8  41 01 55 00 00 00 40 FA 
    824       799.492 DT     0129 Rx 8  20 27 4F 20 00 20 FF 3F 
    825       800.938 DT     0545 Rx 8  80 01 36 C0 A1 0B EA 57 
    826       803.374 DT     020E Rx 8  99 C4 E8 62 15 02 06 D4 
    827       803.640 DT     021E Rx 8  00 00 00 00 00 00 80 44 
    828       803.890 DT     022E Rx 8  6E 66 A0 48 41 C3 10 00 
    829       804.010 DT     0409 Rx 1  00 
    830       804.240 DT     023E Rx 8  28 C6 63 95 01 6E 46 DB 
    831       804.406 DT     0488 Rx 4  40 00 04 D0 
    832       804.647 DT     026E Rx 8  0B 00 FE EF FF FE EF FF 
    833       804.897 DT     0720 Rx 8  00 00 00 00 00 00 00 00 
    834       809.061 DT     0239 Rx 8  00 00 64 7D 7D 7D F0 F0 
    835       809.305 DT     0247 Rx 8  03 00 1B 00 00 40 FC 00 
    836       809.553 DT     024A Rx 8  00 00 01 0F 1F 00 00 00 
    837       809.789 DT     0129 Rx 8  F7 28 4F 20 00 20 FF 3F 
    838       810.605 DT     0334 Rx 8  3F 3F C8 00 E2 3F 50 EE 
    839       810.910 DT     0102 Rx 8  22 33 00 00 E8 38 11 08 
    840       811.887 DT     02E1 Rx 8  FC 19 11 0A 9E 0F 0A 00 
    841       815.155 DT     0103 Rx 8  11 30 00 00 96 12 11 02 
    842       819.453 DT     0129 Rx 8  0F 29 4F 20 01 20 FF 3F 
    843       823.429 DT     024E Rx 8  03 80 00 04 00 00 00 00 
    844       823.705 DT     025E Rx 8  03 20 00 81 00 20 00 81 
    845       823.961 DT     026E Rx 8  20 00 7A 77 84 7B 17 7B 
    846       824.128 DT     0488 Rx 4  40 00 05 D1 
    847       824.368 DT     02A8 Rx 8  C2 00 00 00 00 80 60 4C 
    848       824.610 DT     030E Rx 8  00 00 05 01 00 00 10 27 
    849       824.834 DT     031E Rx 6  01 10 7F 15 1A 1E 
    850       825.040 DT     032E Rx 5  00 5D 30 F1 AF 
    851       825.256 DT     033E Rx 5  00 FF FF F1 30 
    852       825.460 DT     034E Rx 5  59 9E 21 0F 78 
    853       825.669 DT     035E Rx 5  28 26 27 0F E5 
    854       825.901 DT     039E Rx 6  FF FF FF FF CF 0A 
    855       827.169 DT     02E1 Rx 8  05 00 00 00 00 00 00 00 
    856       828.437 DT     039D Rx 5  83 66 55 28 00 
    857       829.003 DT     010A Rx 7  18 A6 52 62 61 51 01 
    858       829.219 DT     010B Rx 7  10 06 00 00 F0 FF 0F 
    859       829.436 DT     010C Rx 7  84 F6 A0 30 21 90 00 
    860       829.654 DT     010D Rx 7  D3 E6 70 71 F0 FF 0F 
    861       829.888 DT     0129 Rx 8  14 2A 4F 20 FF 1F FF 3F 
    862       830.036 DT     0219 Rx 3  0B 00 26 
    863       830.202 DT     0249 Rx 4  2A 02 00 00 
    864       830.442 DT     0259 Rx 8  D3 C0 02 00 00 00 10 00 
    865       833.946 DT     0545 Rx 8  01 00 00 00 00 10 F0 4B 
    866       834.176 DT     02B9 Rx 8  00 00 D8 25 2A 9A 7A F6 
    867       834.422 DT     03FE Rx 8  00 40 00 00 00 00 80 C1 
    868       834.666 DT     0389 Rx 8  00 00 00 60 00 80 1F 8B 
    869       836.943 DT     025F Rx 8  DF 8C 01 C3 44 C1 0A E0 
    870       838.259 DT     03C2 Rx 8  00 55 55 55 00 00 55 45 
    871       839.493 DT     0129 Rx 8  21 2B 4F 20 01 20 FF 3F 
    872       842.973 DT     02E1 Rx 8  10 21 04 00 00 00 26 08 
    873       843.371 DT     020E Rx 8  99 C4 E8 6A 15 02 46 1C 
    874       843.637 DT     021E Rx 8  00 00 00 00 00 00 80 55 
    875       843.889 DT     022E Rx 8  6E 66 A0 48 41 C3 50 40 
    876       844.056 DT     0488 Rx 4  40 00 06 D2 
    877       844.286 DT     023E Rx 8  28 C6 63 95 01 6E 56 EB 
    878       844.538 DT     026E Rx 8  21 00 10 EA 79 2B 0A 86 
    879       849.132 DT     0221 Rx 8  40 41 05 05 00 50 51 4F 
    880       849.606 DT     0129 Rx 8  EC 2C 4F 20 00 20 FF 3F 
    881       849.737 DT     0228 Rx 2  40 6A 
    882       849.983 DT     07FF Rx 8  05 08 A0 40 00 00 00 00 
    883       850.215 DT     0318 Rx 8  16 03 1B 0F 11 17 09 8F 
    884       850.351 DT     0418 Rx 2  42 06 
    885       850.467 DT     0128 Rx 1  00 
    886       854.035 DT     03FE Rx 8  00 40 00 00 00 00 91 D2 
    887       855.153 DT     03C3 Rx 8  55 55 55 01 00 00 00 00 
    888       859.174 DT     02E1 Rx 8  29 0A A3 6A 17 00 00 00 
    889       859.652 DT     0129 Rx 8  53 2D 4F 20 01 20 FF 3F 
    890       859.852 DT     02D1 Rx 2  7F 01 
    891       863.388 DT     026E Rx 8  22 00 B1 D9 87 84 19 8A 
    892       864.004 DT     0488 Rx 4  40 00 07 D3 
    893       867.199 DT     0545 Rx 8  02 00 14 00 00 00 00 60 
    894       868.231 DT     039D Rx 5  84 67 55 28 00 
    895       869.001 DT     010A Rx 7  19 A7 52 62 61 51 01 
    896       869.219 DT     010B Rx 7  11 07 00 00 F0 FF 0F 
    897       869.439 DT     010C Rx 7  85 F7 A0 30 21 90 00 
    898       869.656 DT     010D Rx 7  D4 E7 70 71 F0 FF 0F 
    899       869.894 DT     0129 Rx 8  21 2E 4F 20 00 20 FF 3F 
    900       870.042 DT     0219 Rx 3  0C 00 27 
    901       870.288 DT     05D9 Rx 8  10 03 03 00 00 00 00 00 
    902       874.056 DT     02B9 Rx 8  00 00 D8 25 2A 9A 9A 16 
    903       874.962 DT     02E1 Rx 8  02 00 00 00 00 00 01 00 
    904       876.096 DT     0419 Rx 1  00 
    905       878.754 DT     02E8 Rx 8  C2 00 00 00 00 80 60 8C 
    906       879.452 DT     0129 Rx 8  7D 2F 4F 20 01 20 FF 3F 
    907       879.619 DT     0249 Rx 4  D3 03 00 00 
    908       881.989 DT     027D Rx 3  01 08 88 
    909       883.371 DT     020E Rx 8  99 C4 E8 6A 15 02 86 5C 
    910       883.635 DT     021E Rx 8  00 00 00 00 00 00 80 66 
    911       883.885 DT     022E Rx 8  6E 66 A0 48 41 C3 90 80 
    912       884.052 DT     0488 Rx 4  40 00 08 D4 
    913       884.286 DT     023E Rx 8  28 C6 63 95 01 6E 66 FB 
    914       884.546 DT     026E Rx 8  03 00 FE EF FF FE EF FF 
    915       886.406 DT     03C2 Rx 8  29 55 00 00 00 00 00 00 
    916       889.518 DT     0129 Rx 8  35 20 4F 20 00 20 FF 3F 
    917       890.950 DT     02E1 Rx 8  03 6C 00 02 2C 45 00 00 
    918       893.056 DT     0420 Rx 6  28 01 40 4B 00 80 
    919       894.034 DT     03FE Rx 8  00 40 00 00 00 00 A1 E2 
    920       896.096 DT     03CB Rx 5  00 00 00 00 01 
    921       899.181 DT     0221 Rx 8  41 01 55 00 00 00 60 1A 
    922       899.649 DT     0129 Rx 8  22 21 4F 20 00 20 FF 3F 
    923       900.015 DT     0545 Rx 8  40 01 2C C0 A1 0B 1A 3D 
    924       903.399 DT     026E Rx 8  04 00 FE EF FF FE EF FF 
    925       903.955 DT     0409 Rx 1  00 
    926       904.121 DT     0488 Rx 4  40 00 09 D5 
    927       904.371 DT     0720 Rx 8  00 00 00 00 00 00 00 00 
    928       907.593 DT     02E1 Rx 8  FC 19 12 0A 9E 0D 0A 00 
    929       908.279 DT     039D Rx 5  85 68 55 28 00 
    930       909.004 DT     010A Rx 7  1A A8 52 62 61 51 01 
    931       909.224 DT     010B Rx 7  12 08 00 00 F0 FF 0F 
    932       909.446 DT     010C Rx 7  86 F8 A0 30 21 90 00 
    933       909.664 DT     010D Rx 7  D5 E8 70 71 F0 FF 0F 
    934       909.898 DT     0129 Rx 8  6B 22 4F 20 00 20 FF 3F 
    935       910.046 DT     0219 Rx 3  0D 00 28 
    936       910.290 DT     0239 Rx 8  00 00 64 7D 7D 7D F0 00 
    937       910.534 DT     0247 Rx 8  03 00 1B 00 00 40 FC 00 
    938       910.783 DT     024A Rx 8  00 00 01 0F 1F 00 00 00 
    939       911.019 DT     0102 Rx 8  22 33 00 00 E8 38 11 08 
    940       914.049 DT     02B9 Rx 8  00 00 D8 25 2A 9A BA 36 
    941       915.155 DT     0103 Rx 8  11 30 00 00 96 12 11 02 
    942       919.460 DT     0129 Rx 8  7C 23 4F 20 00 20 FF 3F 
    943       923.216 DT     02E1 Rx 8  05 00 00 00 00 00 00 00 
    944       923.442 DT     020E Rx 8  99 C4 E8 6A 15 02 C6 9C 
    945       923.709 DT     021E Rx 8  00 00 00 00 00 00 80 77 
    946       923.959 DT     022E Rx 8  6E 66 A0 48 41 C3 D0 C0 
    947       924.125 DT     0488 Rx 4  40 00 0A D6 
    948       924.357 DT     023E Rx 8  28 C6 63 95 01 6E 76 0B 
    949       924.599 DT     02A8 Rx 8  C2 00 00 00 00 80 70 5C 
    950       924.845 DT     024E Rx 8  00 80 00 04 00 00 00 00 
    951       925.110 DT     025E Rx 8  00 20 00 81 00 20 00 81 
    952       925.372 DT     026E Rx 8  05 00 FE EF FF FE EF FF 
    953       925.582 DT     032E Rx 5  00 5D 30 01 BF 
    954       925.798 DT     033E Rx 5  00 FF FF 01 40 
    955       926.004 DT     034E Rx 5  59 9E 21 00 69 
    956       926.211 DT     035E Rx 5  28 26 27 00 D6 
    957       926.445 DT     039E Rx 6  FF FF FF FF D0 09 
    958       928.071 DT     03C9 Rx 7  03 11 C3 05 30 38 00 
    959       929.031 DT     0259 Rx 8  D3 C0 02 00 00 00 20 10 
    960       929.545 DT     0129 Rx 8  FA 24 4F 20 00 20 FF 3F 
    961       930.269 DT     0249 Rx 4  D3 04 00 00 
    962       932.976 DT     0545 Rx 8  01 00 00 00 00 10 20 7B 
    963       934.040 DT     03FE Rx 8  00 40 00 00 00 00 B1 F2 
    964       936.200 DT     025F Rx 8  DF 8C 01 C3 44 C1 0A E0 
    965       938.366 DT     03C2 Rx 8  00 55 55 55 00 00 55 45 
    966       939.122 DT     02E1 Rx 8  10 21 04 00 00 00 26 08 
    967       939.498 DT     0129 Rx 8  84 25 4F 20 FF 1F FF 3F 
    968       943.398 DT     026E Rx 8  06 00 FE EF FF FE EF FF 
    969       944.009 DT     0488 Rx 4  40 00 0B D7 
    970       948.310 DT     039D Rx 5  86 69 55 28 00 
    971       948.967 DT     0221 Rx 8  40 41 05 05 00 50 71 6F 
    972       949.179 DT     010A Rx 7  1B A9 52 62 61 51 01 
    973       949.393 DT     010B Rx 7  13 09 00 00 F0 FF 0F 
    974       949.611 DT     010C Rx 7  87 F9 A0 30 21 90 00 
    975       949.831 DT     010D Rx 7  D6 E9 70 71 F0 FF 0F 
    976       950.067 DT     0129 Rx 8  37 26 4F 20 00 20 FF 3F 
    977       950.215 DT     0219 Rx 3  0E 00 29 
    978       950.445 DT     0405 Rx 8  11 33 45 37 46 41 30 4D 
    979       950.580 DT     0228 Rx 2  50 7A 
    980       950.816 DT     07FF Rx 8  01 91 45 44 42 4C 7A 00 
    981       951.046 DT     0318 Rx 8  16 03 1B 0F 11 17 0B 91 
    982       951.180 DT     0418 Rx 2  52 06 
    983       951.296 DT     0128 Rx 1  00 
    984       954.050 DT     02B9 Rx 8  00 00 D8 25 2A 9A DA 56 
    985       955.178 DT     02E1 Rx 8  29 0A A3 6A 17 00 00 00 
    986       955.393 DT     025A Rx 6  00 00 00 00 00 00 
    987       955.645 DT     03C3 Rx 8  00 00 00 00 00 49 00 00 
    988       959.493 DT     0129 Rx 8  49 27 4F 20 FF 1F FF 3F 
    989       959.933 DT     02D1 Rx 2  7F 01 
    990       960.689 DT     0238 Rx 8  80 3F 14 C1 1F 00 E4 D1 
    991       960.884 DT     0284 Rx 5  10 00 00 00 00 
    992       963.372 DT     020E Rx 8  98 C4 E8 6A 15 02 06 DB 
    993       963.636 DT     021E Rx 8  00 00 00 00 00 00 80 88 
    994       963.886 DT     022E Rx 8  6E 66 A0 48 41 C3 10 00 
    995       964.054 DT     0488 Rx 4  40 00 0C D8 
    996       964.284 DT     023E Rx 8  28 C6 63 95 01 6E 86 1B 
    997       964.546 DT     026E Rx 8  07 00 FE EF FF FE EF FF 
    998       966.439 DT     0545 Rx 8  02 00 11 00 00 00 30 8D 
    999       969.453 DT     0129 Rx 8  F7 28 4F 20 00 20 FF 3F 
   1000       971.447 DT     02E1 Rx 8  02 00 00 00 00 00 01 00 
   1001       974.042 DT     03FE Rx 8  00 40 00 00 00 00 C1 02 
   1002       976.096 DT     0419 Rx 1  00 
   1003       978.778 DT     02E8 Rx 8  C2 00 00 00 00 80 70 9C 
   1004       979.659 DT     0129 Rx 8  CB 29 4F 20 FF 1F FF 3F 
   1005       979.827 DT     0249 Rx 4  83 05 00 00 
   1006       981.991 DT     027D Rx 3  01 09 89 
   1007       983.399 DT     026E Rx 8  08 00 FE EF FF FE EF FF 
   1008       984.007 DT     0488 Rx 4  40 00 0D D9 
   1009       985.931 DT     03C2 Rx 8  29 55 00 00 00 00 00 00 
   1010       986.968 DT     02E1 Rx 8  03 6C 00 02 2C 45 00 00 
   1011       988.260 DT     039D Rx 5  87 6A 55 28 00 
   1012       989.010 DT     010A Rx 7  1C AA 52 62 61 51 01 
   1013       989.226 DT     010B Rx 7  14 0A 00 00 F0 FF 0F 
   1014       989.446 DT     010C Rx 7  88 FA A0 30 21 90 00 
   1015       989.664 DT     010D Rx 7  D7 EA 70 71 F0 FF 0F 
   1016       989.902 DT     0129 Rx 8  7D 2A 4F 20 00 20 FF 3F 
   1017       990.054 DT     0219 Rx 3  0F 00 2A 
   1018       993.058 DT     0420 Rx 6  28 01 40 4B 00 90 
   1019       994.041 DT     05D9 Rx 8  01 00 00 00 00 08 00 00 
   1020       994.273 DT     02B9 Rx 8  00 00 D8 25 2A 9A FA 76 
   1021       996.083 DT     03CB Rx 5  00 00 00 00 01 
   1022       998.925 DT     0545 Rx 8  40 01 31 B0 A1 0A 4A 61 
   1023       999.169 DT     0221 Rx 8  41 01 55 00 00 00 80 3A 
   1024       999.489 DT     0129 Rx 8  8C 2B 4F 20 00 20 FF 3F 
   1025      1003.172 DT     02E1 Rx 8  FC 19 11 0A 9E 12 0A 00 
   1026      1003.412 DT     020E Rx 8  98 C4 E8 6A 15 02 46 1B 
   1027      1003.682 DT     021E Rx 8  00 00 00 00 00 00 80 99 
   1028      1003.936 DT     022E Rx 8  6E 66 A0 48 41 C3 50 40 
   1029      1004.056 DT     0409 Rx 1  00 
   1030      1004.288 DT     023E Rx 8  28 C6 63 95 01 6E 96 2B 
   1031      1004.454 DT     0488 Rx 4  40 00 0E DA 
   1032      1004.692 DT     026E Rx 8  09 00 FE EF FF FE EF FF 
   1033      1004.943 DT     0720 Rx 8  00 00 00 00 00 00 00 00 
   1034      1009.059 DT     0239 Rx 8  00 00 64 7D 7D 7D F0 10 
   1035      1009.303 DT     0247 Rx 8  03 00 1B 00 00 40 FC 00 
   1036      1009.551 DT     024A Rx 8  00 00 01 0F 1F 00 00 00 
   1037      1009.785 DT     0129 Rx 8  EC 2C 4F 20 00 20 FF 3F 
   1038      1010.925 DT     0102 Rx 8  22 33 00 00 E8 38 11 08 
   1039      1014.038 DT     03FE Rx 8  00 40 00 00 00 00 D1 12 
   1040      1015.154 DT     0103 Rx 8  11 30 00 00 96 12 11 02 
   1041      1018.962 DT     02E1 Rx 8  05 00 00 00 00 00 00 00 
   1042      1019.654 DT     0129 Rx 8  FE 2D 4F 20 00 20 FF 3F 
   1043      1023.400 DT     024E Rx 8  01 80 00 04 00 00 00 00 
   1044      1023.666 DT     025E Rx 8  01 20 00 81 00 20 00 81 
   1045      1023.926 DT     026E Rx 8  0A 00 FE EF FF FE EF FF 
   1046      1024.095 DT     0488 Rx 4  40 00 0F DB 
   1047      1024.337 DT     02A8 Rx 8  C2 00 00 00 00 80 80 6C 
   1048      1024.519 DT     032E Rx 5  00 5D 30 11 CF 
   1049      1024.731 DT     033E Rx 5  00 FF FF 11 50 
   1050      1024.939 DT     034E Rx 5  59 9E 21 01 6A 
   1051      1025.147 DT     035E Rx 5  28 26 27 01 D7 
   1052      1025.383 DT     039E Rx 6  FF FF FF FF E1 09 
   1053      1028.263 DT     039D Rx 5  88 6B 55 28 00 
   1054      1029.005 DT     010A Rx 7  1D AB 52 62 61 51 01 
   1055      1029.221 DT     010B Rx 7  15 0B 00 00 F0 FF 0F 
   1056      1029.443 DT     010C Rx 7  89 FB A0 30 21 90 00 
   1057      1029.661 DT     010D Rx 7  D8 EB 70 71 F0 FF 0F 
   1058      1029.899 DT     0129 Rx 8  21 2E 4F 20 00 20 FF 3F 
   1059      1030.049 DT     0219 Rx 3  00 00 1B 
   1060      1030.289 DT     0259 Rx 8  D3 C0 02 00 00 00 30 20 
   1061      1030.455 DT     0249 Rx 4  4C 06 00 00 
   1062      1031.990 DT     0545 Rx 8  01 00 00 00 00 10 50 AB 
   1063      1034.054 DT     02B9 Rx 8  00 00 D8 25 2A 9A 1A 96 
   1064      1036.076 DT     025F Rx 8  DF 8C 01 C3 44 C1 0A E0 
   1065      1037.544 DT     02E1 Rx 8  10 21 04 00 00 00 26 08 
   1066      1038.252 DT     03C2 Rx 8  00 55 55 55 00 00 55 45 
   1067      1039.478 DT     0129 Rx 8  D0 2F 4F 20 00 20 FF 3F 
   1068      1043.372 DT     020E Rx 8  98 C4 E8 6A 15 02 86 5B 
   1069      1043.636 DT     021E Rx 8  00 00 00 00 00 00 80 AA 
   1070      1043.887 DT     022E Rx 8  6E 66 A0 48 41 C3 90 80 
   1071      1044.057 DT     0488 Rx 4  40 00 00 CC 
   1072      1044.289 DT     023E Rx 8  28 C6 63 95 01 6E A6 3B 
   1073      1044.551 DT     026E Rx 8  0B 00 FE EF FF FE EF FF 
   1074      1049.391 DT     0221 Rx 8  40 41 05 05 00 50 91 8F 
   1075      1049.633 DT     0129 Rx 8  98 20 4F 20 01 20 FF 3F 
   1076      1049.766 DT     0228 Rx 2  60 8A 
   1077      1050.000 DT     07FF Rx 8  02 5F 4E AC DE CD D6 30 
   1078      1050.232 DT     0318 Rx 8  16 03 1B 0F 11 17 0D 93 
   1079      1050.366 DT     0418 Rx 2  62 06 
   1080      1050.482 DT     0128 Rx 1  00 
   1081      1051.667 DT     02E1 Rx 8  29 0A A3 6A 17 00 00 00 
   1082      1054.039 DT     03FE Rx 8  00 40 00 00 00 00 E1 22 
   1083      1055.163 DT     03C3 Rx 8  55 55 55 01 00 00 00 00 
   1084      1059.497 DT     0129 Rx 8  8F 21 4F 20 01 20 FF 3F 
   1085      1059.747 DT     02D1 Rx 2  7F 01 
   1086      1063.393 DT     026E Rx 8  20 00 7A 77 84 7B 17 7B 
   1087      1064.009 DT     0488 Rx 4  40 00 01 CD 
   1088      1064.955 DT     0545 Rx 8  02 00 14 00 00 00 60 C0 
   1089      1066.954 DT     02E1 Rx 8  02 00 00 00 00 00 01 00 
   1090      1068.272 DT     039D Rx 5  89 6C 55 28 00 
   1091      1068.506 DT     032D Rx 8  14 05 00 00 7B 5E D8 F0 
   1092      1069.004 DT     010A Rx 7  1E AC 52 62 61 51 01 
   1093      1069.222 DT     010B Rx 7  16 0C 00 00 F0 FF 0F 
   1094      1069.440 DT     010C Rx 7  8A FC A0 30 21 90 00 
   1095      1069.658 DT     010D Rx 7  D9 EC 70 71 F0 FF 0F 
   1096      1069.890 DT     0129 Rx 8  C6 22 4F 20 01 20 FF 3F 
   1097      1070.041 DT     0219 Rx 3  01 00 1C 
   1098      1073.374 DT     030E Rx 8  00 00 05 01 00 00 20 37 
   1099      1074.051 DT     02B9 Rx 8  00 00 D8 25 2A 9A 3A B6 
   1100      1076.111 DT     0419 Rx 1  00 
   1101      1078.759 DT     02E8 Rx 8  C2 00 00 00 00 80 80 AC 
   1102      1079.545 DT     0129 Rx 8  7C 23 4F 20 00 20 FF 3F 
   1103      1079.713 DT     0249 Rx 4  5E 07 00 00 
   1104      1081.992 DT     027D Rx 3  01 0A 8A 
   1105      1083.104 DT     032B Rx 8  00 00 00 00 00 00 00 00 
   1106      1083.340 DT     02E1 Rx 8  03 6C 00 02 2C 45 00 00 
   1107      1083.566 DT     020E Rx 8  98 C4 E8 6A 15 02 C6 9B 
   1108      1083.817 DT     036C Rx 8  00 00 00 00 00 00 00 00 
   1109      1084.063 DT     021E Rx 8  00 00 00 00 00 00 80 BB 
   1110      1084.311 DT     0459 Rx 8  00 00 00 00 00 00 00 00 
   1111      1084.539 DT     022E Rx 8  6E 66 A0 48 41 C3 D0 C0 
   1112      1084.789 DT     0350 Rx 8  00 00 00 00 00 00 00 00 
   1113      1085.019 DT     023E Rx 8  28 C6 63 95 01 6E B6 4B 
   1114      1085.187 DT     0488 Rx 4  40 00 02 CE 
   1115      1085.417 DT     026E Rx 8  21 00 10 EA 79 2B 0A 86 
   1116      1086.174 DT     03C2 Rx 8  29 55 00 00 00 00 00 00 
   1117      1088.344 DT     035D Rx 8  01 00 00 00 00 00 00 00 
   1118      1089.516 DT     0129 Rx 8  93 24 4F 20 FF 1F FF 3F 
   1119      1093.064 DT     0420 Rx 6  28 01 40 4B 00 A0 
   1120      1094.040 DT     03FE Rx 8  00 40 00 00 00 00 F1 32 
   1121      1096.082 DT     03CB Rx 5  00 00 00 00 01 
   1122      1097.920 DT     0545 Rx 8  40 01 2C B0 A1 0A 7A 8C 
   1123      1099.178 DT     0221 Rx 8  41 01 55 00 00 00 A0 5A 
   1124      1099.413 DT     02E1 Rx 8  FC 19 15 0A 9E 13 0A 00 
   1125      1099.651 DT     0129 Rx 8  ED 25 4F 20 00 20 FF 3F 
   1126      1103.387 DT     026E Rx 8  22 00 B1 D9 87 84 19 8A 
   1127      1104.097 DT     0329 Rx 8  00 00 00 00 00 00 00 00 
   1128      1104.345 DT     0369 Rx 8  00 00 00 00 00 00 00 00 
   1129      1104.465 DT     0409 Rx 1  00 
   1130      1104.713 DT     0425 Rx 8  00 00 00 00 00 00 00 00 
   1131      1104.963 DT     0429 Rx 8  00 00 00 00 00 00 00 00 
   1132      1105.214 DT     0439 Rx 8  00 00 00 00 00 00 00 00 
   1133      1105.462 DT     0449 Rx 8  00 00 00 00 00 00 00 00 
   1134      1105.712 DT     0479 Rx 8  00 00 00 00 00 00 00 00 
   1135      1105.886 DT     0488 Rx 4  40 00 03 CF 
   1136      1106.136 DT     0720 Rx 8  00 00 00 00 00 00 00 00 
   1137      1108.282 DT     039D Rx 5  8A 6D 55 28 00 
   1138      1109.072 DT     010A Rx 7  1F AD 52 62 61 51 01 
   1139      1109.286 DT     010B Rx 7  17 0D 00 00 F0 FF 0F 
   1140      1109.506 DT     010C Rx 7  8B FD A0 30 21 90 00 
   1141      1109.722 DT     010D Rx 7  DA ED 70 71 F0 FF 0F 
   1142      1109.959 DT     0129 Rx 8  37 26 4F 20 00 20 FF 3F 
   1143      1110.109 DT     0219 Rx 3  02 00 1D 
   1144      1110.353 DT     0239 Rx 8  00 00 64 7D 7D 7D F0 20 
   1145      1110.597 DT     0247 Rx 8  03 00 1B 00 00 40 FC 00 
   1146      1110.845 DT     024A Rx 8  00 00 01 0F 1F 00 00 00 
   1147      1111.081 DT     0102 Rx 8  22 33 00 00 E8 38 11 08 
   1148      1111.199 DT     025B Rx 1  00 
   1149      1111.409 DT     025D Rx 6  00 00 FF 00 00 00 
   1150      1111.603 DT     03DF Rx 5  00 00 04 00 01 
   1151      1111.814 DT     03F4 Rx 6  07 FE 60 02 C8 01 
   1152      1112.040 DT     0293 Rx 8  01 0C 55 91 55 15 A4 96 
   1153      1112.284 DT     03FA Rx 8  01 01 02 02 04 02 05 FF 
   1154      1112.418 DT     0410 Rx 2  45 00 
   1155      1112.668 DT     0428 Rx 8  00 00 00 00 00 38 1F 00 
   1156      1112.892 DT     0499 Rx 8  76 77 77 6B 6C 71 71 6D 
   1157      1113.126 DT     0549 Rx 8  01 E4 05 19 26 BF E7 43 
   1158      1114.053 DT     02B9 Rx 8  00 00 D8 25 2A 9A 5A D6 
   1159      1115.179 DT     0103 Rx 8  11 30 00 00 96 14 11 02 
   1160      1115.899 DT     02E1 Rx 8  05 00 00 00 00 00 00 00 
   1161      1119.041 DT     05D9 Rx 8  03 00 FF 00 00 00 00 00 
   1162      1119.453 DT     0129 Rx 8  20 27 4F 20 00 20 FF 3F 
   1163      1123.381 DT     020E Rx 8  98 C4 E8 6A 15 02 06 DB 
   1164      1123.651 DT     021E Rx 8  00 00 00 00 00 00 80 CC 
   1165      1123.903 DT     022E Rx 8  6E 66 A0 48 41 C3 10 00 
   1166      1124.070 DT     0488 Rx 4  40 00 04 D0 
   1167      1124.300 DT     023E Rx 8  28 C6 63 95 01 6E C6 5B 
   1168      1124.542 DT     02A8 Rx 8  C2 00 00 00 00 80 90 7C 
   1169      1124.788 DT     024E Rx 8  02 80 00 04 00 00 00 00 
   1170      1125.050 DT     025E Rx 8  02 20 00 81 00 20 00 81 
   1171      1125.310 DT     026E Rx 8  03 00 FE EF FF FE EF FF 
   1172      1125.518 DT     032E Rx 5  00 5D 30 21 DF 
   1173      1125.734 DT     033E Rx 5  00 FF FF 21 60 
   1174      1125.939 DT     034E Rx 5  59 9E 21 02 6B 
   1175      1126.145 DT     035E Rx 5  28 26 27 02 D8 
   1176      1126.383 DT     039E Rx 6  FF FF FF FF F2 09 
   1177      1129.035 DT     0259 Rx 8  D3 C0 02 00 00 00 40 30 
   1178      1129.451 DT     0129 Rx 8  F7 28 4F 20 00 20 FF 3F 
   1179      1130.421 DT     0249 Rx 4  3F 08 00 00 
   1180      1131.468 DT     02E1 Rx 8  10 21 04 00 00 00 26 08 
   1181      1131.954 DT     0545 Rx 8  01 00 00 00 00 10 80 DB 
   1182      1134.045 DT     03FE Rx 8  00 40 00 00 00 00 01 42 
   1183      1135.971 DT     025F Rx 8  DF 8C 01 C3 44 C1 0A E0 
   1184      1137.899 DT     03C2 Rx 8  00 55 55 55 00 00 55 45 
   1185      1139.486 DT     0129 Rx 8  A2 29 4F 20 00 20 FF 3F 
   1186      1143.399 DT     026E Rx 8  04 00 FE EF FF FE EF FF 
   1187      1144.006 DT     0488 Rx 4  40 00 05 D1 
   1188      1147.426 DT     02E1 Rx 8  29 0A A3 6A 17 00 00 00 
   1189      1148.298 DT     039D Rx 5  8B 6E 55 28 00 
   1190      1149.010 DT     010A Rx 7  20 AE 52 62 61 51 01 
   1191      1149.228 DT     010B Rx 7  18 0E 00 00 F0 FF 0F 
   1192      1149.448 DT     010C Rx 7  8C FE A0 30 21 90 00 
   1193      1149.668 DT     010D Rx 7  DB EE 70 71 F0 FF 0F 
   1194      1149.906 DT     0129 Rx 8  7D 2A 4F 20 00 20 FF 3F 
   1195      1150.057 DT     0219 Rx 3  03 00 1E 
   1196      1150.293 DT     0221 Rx 8  40 41 05 05 00 50 B1 AF 
   1197      1150.421 DT     0228 Rx 2  70 9A 
   1198      1150.657 DT     07FF Rx 8  03 31 08 A1 E0 42 16 41 
   1199      1150.891 DT     0318 Rx 8  16 03 1B 0F 11 17 0F 95 
   1200      1151.025 DT     0418 Rx 2  72 06 
   1201      1151.141 DT     0128 Rx 1  00 
   1202      1154.049 DT     02B9 Rx 8  00 00 D8 25 2A 9A 7A F6 
   1203      1154.298 DT     03FE Rx 8  00 40 00 00 00 00 10 51 
   1204      1155.322 DT     03C3 Rx 8  00 00 00 00 00 49 00 00 
   1205      1159.650 DT     0129 Rx 8  8C 2B 4F 20 00 20 FF 3F 
   1206      1159.848 DT     02D1 Rx 2  7F 01 
   1207      1163.168 DT     02E1 Rx 8  02 00 00 00 00 00 01 00 
   1208      1163.408 DT     020E Rx 8  98 C4 E8 6A 15 02 46 1B 
   1209      1163.674 DT     021E Rx 8  00 00 00 00 00 00 80 DD 
   1210      1163.927 DT     022E Rx 8  6E 66 A0 48 41 C3 50 40 
   1211      1164.093 DT     0488 Rx 4  40 00 06 D2 
   1212      1164.325 DT     023E Rx 8  28 C6 63 95 01 6E D6 6B 
   1213      1164.563 DT     0545 Rx 8  02 00 12 00 00 00 90 EE 
   1214      1164.803 DT     026E Rx 8  05 00 FE EF FF FE EF FF 
   1215      1169.535 DT     0129 Rx 8  85 2C 4F 20 FF 1F FF 3F 
   1216      1176.099 DT     0419 Rx 1  00 
   1217      1178.756 DT     02E8 Rx 8  C2 00 00 00 00 80 90 BC 
   1218      1178.992 DT     02E1 Rx 8  03 6C 00 02 2C 45 00 00 
   1219      1179.448 DT     0129 Rx 8  FE 2D 4F 20 00 20 FF 3F 
   1220      1179.614 DT     0249 Rx 4  5E 09 00 00 
   1221      1181.994 DT     027D Rx 3  01 0B 8B 
   1222      1183.396 DT     026E Rx 8  06 00 FE EF FF FE EF FF 
   1223      1184.006 DT     0488 Rx 4  40 00 07 D3 
   1224      1185.941 DT     03C2 Rx 8  29 55 00 00 00 00 00 00 
   1225      1188.248 DT     039D Rx 5  8C 6F 55 28 00 
   1226      1189.010 DT     010A Rx 7  21 AF 52 62 61 51 01 
   1227      1189.226 DT     010B Rx 7  19 0F 00 00 F0 FF 0F 
   1228      1189.446 DT     010C Rx 7  8D FF A0 30 21 90 00 
   1229      1189.664 DT     010D Rx 7  DC EF 70 71 F0 FF 0F 
   1230      1189.902 DT     0129 Rx 8  21 2E 4F 20 00 20 FF 3F 
   1231      1190.054 DT     0219 Rx 3  04 00 1F 
   1232      1193.060 DT     0420 Rx 6  28 01 40 4B 00 B0 
   1233      1194.053 DT     02B9 Rx 8  00 00 D8 25 2A 9A 9A 16 
   1234      1194.283 DT     0399 Rx 8  F0 20 C0 E0 B0 C8 77 3B 
   1235      1194.531 DT     03FE Rx 8  00 40 00 00 00 00 20 61 
   1236      1194.679 DT     0413 Rx 3  4B 4B 49 
   1237      1195.353 DT     02E1 Rx 8  FC 19 11 0A 9E 0F 0A 00 
   1238      1196.103 DT     03CB Rx 5  00 00 00 00 01 
   1239      1196.935 DT     0545 Rx 8  80 01 31 50 A1 08 AA 9F 
   1240      1198.962 DT     0221 Rx 8  41 01 55 00 00 00 C0 7A 
   1241      1199.576 DT     0129 Rx 8  D0 2F 4F 20 00 20 FF 3F 
   1242      1199.810 DT     0405 Rx 8  12 43 33 37 39 34 34 35 
   1243      1203.372 DT     020E Rx 8  98 C4 E8 6A 15 02 86 5B 
   1244      1203.636 DT     021E Rx 8  00 00 00 00 00 00 80 EE 
   1245      1203.886 DT     022E Rx 8  6E 66 A0 48 41 C3 90 80 
   1246      1204.006 DT     0409 Rx 1  00 
   1247      1204.236 DT     023E Rx 8  28 C6 63 95 01 6E E6 7B 
   1248      1204.351 DT     0415 Rx 1  45 
   1249      1204.591 DT     026E Rx 8  07 00 FE EF FF FE EF FF 
   1250      1204.757 DT     0488 Rx 4  40 00 08 D4 
   1251      1205.007 DT     0720 Rx 8  00 00 00 00 00 00 00 00 
   1252      1209.061 DT     0239 Rx 8  00 00 64 7D 7D 7D F0 30 
   1253      1209.305 DT     0247 Rx 8  03 00 1B 00 00 40 FC 00 
   1254      1209.553 DT     024A Rx 8  00 00 01 0F 1F 00 00 00 
   1255      1209.791 DT     0129 Rx 8  35 20 4F 20 00 20 FF 3F 
   1256      1210.924 DT     0102 Rx 8  22 33 00 00 E8 38 11 08 
   1257      1211.172 DT     02E1 Rx 8  05 00 00 00 00 00 00 00 
   1258      1215.170 DT     0103 Rx 8  11 30 00 00 96 12 11 02 
   1259      1219.554 DT     0129 Rx 8  22 21 4F 20 00 20 FF 3F 
   1260      1223.394 DT     024E Rx 8  03 80 00 04 00 00 00 00 
   1261      1223.658 DT     025E Rx 8  03 20 00 81 00 20 00 81 
   1262      1223.920 DT     026E Rx 8  08 00 FE EF FF FE EF FF 
   1263      1224.163 DT     05D9 Rx 8  44 07 00 00 00 00 00 20 
   1264      1224.403 DT     02A8 Rx 8  C2 00 00 00 00 80 A0 8C 
   1265      1224.585 DT     032E Rx 5  00 5D 30 31 EF 
   1266      1224.751 DT     0488 Rx 4  40 00 09 D5 
   1267      1224.937 DT     033E Rx 5  00 FF FF 31 70 
   1268      1225.143 DT     034E Rx 5  59 9E 21 03 6C 
   1269      1225.351 DT     035E Rx 5  28 26 27 03 D9 
   1270      1225.586 DT     039E Rx 6  FF FF FF FF 03 0A 
   1271      1227.172 DT     02E1 Rx 8  10 21 04 00 00 00 26 08 
   1272      1228.252 DT     039D Rx 5  7D 60 55 28 00 
   1273      1229.010 DT     010A Rx 7  12 A0 52 62 61 51 01 
   1274      1229.234 DT     010B Rx 7  0A 00 00 00 F0 FF 0F 
   1275      1229.452 DT     010C Rx 7  7E F0 A0 30 21 90 00 
   1276      1229.672 DT     010D Rx 7  CD E0 70 71 F0 FF 0F 
   1277      1229.906 DT     0129 Rx 8  6B 22 4F 20 00 20 FF 3F 
   1278      1230.061 DT     0219 Rx 3  05 00 20 
   1279      1230.301 DT     0259 Rx 8  D3 C0 02 00 00 00 50 40 
   1280      1230.467 DT     0249 Rx 4  E2 0A 00 00 
   1281      1230.709 DT     0545 Rx 8  01 00 00 00 00 10 B0 0B 
   1282      1234.057 DT     02B9 Rx 8  00 00 D8 25 2A 9A BA 36 
   1283      1234.303 DT     03FE Rx 8  00 40 00 00 00 00 30 71 
   1284      1235.105 DT     025F Rx 8  DF 8C 01 C3 44 C1 0A E0 
   1285      1237.950 DT     03C2 Rx 8  00 55 55 55 00 00 55 45 
   1286      1239.604 DT     0129 Rx 8  7C 23 4F 20 00 20 FF 3F 
   1287      1243.209 DT     02E1 Rx 8  29 0A A3 6A 17 00 00 00 
   1288      1243.435 DT     020E Rx 8  98 C4 E8 6A 15 02 C6 9B 
   1289      1243.703 DT     021E Rx 8  00 00 00 00 00 00 80 FF 
   1290      1243.951 DT     022E Rx 8  6E 66 A0 48 41 C3 D0 C0 
   1291      1244.118 DT     0488 Rx 4  40 00 0A D6 
   1292      1244.350 DT     023E Rx 8  28 C6 63 95 01 6E F6 8B 
   1293      1244.610 DT     026E Rx 8  09 00 FE EF FF FE EF FF 
   1294      1249.148 DT     0221 Rx 8  40 41 05 05 00 50 D1 CF 
   1295      1249.620 DT     0129 Rx 8  93 24 4F 20 FF 1F FF 3F 
   1296      1249.750 DT     0228 Rx 2  80 AA 
   1297      1249.983 DT     07FF Rx 8  04 CC 16 54 61 12 B4 2A 
   1298      1250.215 DT     0318 Rx 8  16 03 1B 0F 11 17 11 97 
   1299      1250.355 DT     0418 Rx 2  82 06 
   1300      1250.471 DT     0128 Rx 1  00 
   1301      1255.195 DT     03C3 Rx 8  55 55 55 01 00 00 00 00 
   1302      1259.214 DT     02E1 Rx 8  02 00 00 00 00 00 01 00 
   1303      1259.690 DT     0129 Rx 8  ED 25 4F 20 00 20 FF 3F 
   1304      1259.890 DT     02D1 Rx 2  7F 01 
   1305      1260.834 DT     03F3 Rx 3  10 1B 00 
   1306      1261.072 DT     03F8 Rx 8  03 28 80 00 59 29 15 20 
   1307      1263.184 DT     0545 Rx 8  02 00 16 00 00 00 C0 22 
   1308      1263.436 DT     026E Rx 8  0A 00 FE EF FF FE EF FF 
   1309      1264.008 DT     0488 Rx 4  40 00 0B D7 
   1310      1268.254 DT     039D Rx 5  7E 61 55 28 00 
   1311      1269.008 DT     010A Rx 7  13 A1 52 62 61 51 01 
   1312      1269.227 DT     010B Rx 7  0B 01 00 00 F0 FF 0F 
   1313      1269.449 DT     010C Rx 7  7F F1 A0 30 21 90 00 
   1314      1269.665 DT     010D Rx 7  CE E1 70 71 F0 FF 0F 
   1315      1269.901 DT     0129 Rx 8  37 26 4F 20 00 20 FF 3F 
   1316      1270.053 DT     0219 Rx 3  06 00 21 
   1317      1274.055 DT     02B9 Rx 8  00 00 D8 25 2A 9A DA 56 
   1318      1274.301 DT     03FE Rx 8  00 40 00 00 00 00 40 81 
   1319      1274.971 DT     02E1 Rx 8  03 6C 00 02 2C 45 00 00 
   1320      1276.102 DT     0419 Rx 1  00 
   1321      1278.792 DT     02E8 Rx 8  C2 00 00 00 00 80 A0 CC 
   1322      1279.504 DT     0129 Rx 8  8D 27 4F 20 01 20 FF 3F 
   1323      1279.850 DT     0249 Rx 4  28 0B 00 00 
   1324      1281.996 DT     027D Rx 3  01 0C 8C 
   1325      1283.370 DT     020E Rx 8  98 C4 E8 6A 15 02 06 DB 
   1326      1283.641 DT     021E Rx 8  00 00 00 00 00 00 80 00 
   1327      1283.891 DT     022E Rx 8  6E 66 A0 48 41 C3 10 00 
   1328      1284.059 DT     0488 Rx 4  40 00 0C D8 
   1329      1284.291 DT     023E Rx 8  28 C6 63 95 01 6E 06 9B 
   1330      1284.553 DT     026E Rx 8  0B 00 FE EF FF FE EF FF 
   1331      1286.181 DT     03C2 Rx 8  29 55 00 00 00 00 00 00 
   1332      1289.526 DT     0129 Rx 8  F7 28 4F 20 00 20 FF 3F 
   1333      1291.438 DT     02E1 Rx 8  FC 19 0F 1A 9E 0F 0A 00 
   1334      1293.062 DT     0420 Rx 6  28 01 40 4B 00 C0 
   1335      1296.087 DT     03CB Rx 5  00 00 00 00 01 
   1336      1296.319 DT     0545 Rx 8  40 01 31 80 A1 0B DA C2 
   1337      1299.190 DT     0221 Rx 8  41 01 55 00 00 00 E0 9A 
   1338      1299.448 DT     0129 Rx 8  A2 29 4F 20 00 20 FF 3F 
   1339      1303.392 DT     026E Rx 8  20 00 7A 77 84 7B 17 7B 
   1340      1303.962 DT     0409 Rx 1  00 
   1341      1304.128 DT     0488 Rx 4  40 00 0D D9 
   1342      1304.378 DT     0720 Rx 8  00 00 00 00 00 00 00 00 
   1343      1307.180 DT     02E1 Rx 8  05 00 00 00 00 00 00 00 
   1344      1308.310 DT     039D Rx 5  7F 62 55 28 00 
   1345      1309.011 DT     010A Rx 7  14 A2 52 62 61 51 01 
   1346      1309.229 DT     010B Rx 7  0C 02 00 00 F0 FF 0F 
   1347      1309.449 DT     010C Rx 7  80 F2 A0 30 21 90 00 
   1348      1309.669 DT     010D Rx 7  CF E2 70 71 F0 FF 0F 
   1349      1309.907 DT     0129 Rx 8  7D 2A 4F 20 00 20 FF 3F 
   1350      1310.059 DT     0219 Rx 3  07 00 22 
   1351      1310.305 DT     0239 Rx 8  00 00 64 7D 7D 7D F0 40 
   1352      1310.550 DT     0247 Rx 8  03 00 1B 00 00 40 FC 00 
   1353      1310.780 DT     004F Rx 8  1B 1E E8 02 9C E7 0A 96 
   1354      1311.016 DT     0102 Rx 8  22 33 00 00 E8 38 11 08 
   1355      1311.264 DT     024A Rx 8  00 00 01 0F 1F 00 00 00 
   1356      1311.510 DT     03B8 Rx 8  00 00 74 74 00 00 00 00 
   1357      1311.752 DT     0334 Rx 8  3F 3F C8 00 E2 3F 60 FE 
   1358      1311.998 DT     03FD Rx 8  00 00 00 42 60 01 02 80 
   1359      1314.058 DT     02B9 Rx 8  00 00 D8 25 2A 9A FA 76 
   1360      1314.302 DT     03FE Rx 8  00 40 00 00 00 00 50 91 
   1361      1315.171 DT     0103 Rx 8  11 30 00 00 96 12 11 02 
   1362      1319.639 DT     0129 Rx 8  8C 2B 4F 20 00 20 FF 3F 
   1363      1322.985 DT     02E1 Rx 8  10 21 04 00 00 00 26 08 
   1364      1323.379 DT     020E Rx 8  98 C4 E8 6A 15 02 46 1B 
   1365      1323.659 DT     021E Rx 8  00 00 00 00 00 00 80 11 
   1366      1323.913 DT     022E Rx 8  6E 66 A0 48 41 C3 50 40 
   1367      1324.080 DT     0488 Rx 4  40 00 0E DA 
   1368      1324.310 DT     023E Rx 8  28 C6 63 95 01 6E 16 AB 
   1369      1324.550 DT     02A8 Rx 8  C2 00 00 00 00 80 B0 9C 
   1370      1324.796 DT     024E Rx 8  00 80 00 04 00 00 00 00 
   1371      1325.060 DT     025E Rx 8  00 20 00 81 00 20 00 81 
   1372      1325.332 DT     026E Rx 8  21 00 10 EA 79 2C 0A 86 
   1373      1325.600 DT     030E Rx 8  00 00 05 01 00 00 30 47 
   1374      1325.824 DT     031E Rx 6  01 20 8F 15 1A 1E 
   1375      1326.085 DT     0326 Rx 8  0D 00 00 00 07 14 43 64 
   1376      1326.301 DT     032E Rx 5  00 5D 30 41 FF 
   1377      1326.523 DT     033E Rx 5  00 FF FF 41 80 
   1378      1326.727 DT     034E Rx 5  59 9E 21 04 6D 
   1379      1326.933 DT     035E Rx 5  28 26 27 04 DA 
   1380      1327.209 DT     037E Rx 8  00 00 00 00 00 00 00 00 
   1381      1327.499 DT     039E Rx 6  FF FF FF FF 14 0A 
   1382      1329.040 DT     0259 Rx 8  D3 C0 02 00 00 00 60 50 
   1383      1329.284 DT     0545 Rx 8  01 00 00 00 00 10 E0 3B 
   1384      1329.518 DT     0129 Rx 8  EC 2C 4F 20 00 20 FF 3F 
   1385      1330.418 DT     0249 Rx 4  3A 0C 00 00 
   1386      1334.070 DT     0389 Rx 8  00 00 00 60 00 80 2F 9B 
   1387      1335.274 DT     025F Rx 8  DF 8C 01 C3 44 C1 0A E0 
   1388      1337.405 DT     03C2 Rx 8  00 55 55 55 00 00 55 45 
   1389      1339.243 DT     02E1 Rx 8  29 0A A3 6A 17 00 00 00 
   1390      1339.481 DT     0129 Rx 8  FE 2D 4F 20 00 20 FF 3F 
   1391      1343.385 DT     026E Rx 8  22 00 B1 D9 87 84 19 8A 
   1392      1344.013 DT     0488 Rx 4  40 00 0F DB 
   1393      1348.257 DT     039D Rx 5  80 63 55 28 00 
   1394      1349.012 DT     010A Rx 7  15 A3 52 62 61 51 01 
   1395      1349.228 DT     010B Rx 7  0D 03 00 00 F0 FF 0F 
   1396      1349.449 DT     010C Rx 7  81 F3 A0 30 21 90 00 
   1397      1349.665 DT     010D Rx 7  D0 E3 70 71 F0 FF 0F 
   1398      1349.903 DT     0129 Rx 8  21 2E 4F 20 00 20 FF 3F 
   1399      1350.053 DT     0219 Rx 3  08 00 23 
   1400      1350.285 DT     0221 Rx 8  40 41 05 05 00 50 F1 EF 
   1401      1350.415 DT     0228 Rx 2  90 BA 
   1402      1350.661 DT     07FF Rx 8  05 08 A0 40 00 00 00 00 
   1403      1350.894 DT     0318 Rx 8  16 03 1B 0F 11 17 13 99 
   1404      1351.028 DT     0418 Rx 2  92 06 
   1405      1351.144 DT     0128 Rx 1  00 
   1406      1354.060 DT     02B9 Rx 8  00 00 D8 25 2A 9A 1A 96 
   1407      1354.306 DT     03FE Rx 8  00 40 00 00 00 00 60 A1 
   1408      1354.966 DT     02E1 Rx 8  02 00 00 00 00 00 01 00 
   1409      1355.450 DT     03C3 Rx 8  00 00 00 00 00 49 00 00 
   1410      1359.516 DT     0129 Rx 8  D0 2F 4F 20 00 20 FF 3F 
   1411      1359.759 DT     02D1 Rx 2  7F 01 
   1412      1361.205 DT     03FD Rx 8  01 00 0A 00 00 00 02 80 
   1413      1361.975 DT     0545 Rx 8  02 00 19 00 00 00 F0 55 
   1414      1363.371 DT     020E Rx 8  98 C4 E8 6A 15 02 86 5B 
   1415      1363.635 DT     021E Rx 8  00 00 00 00 00 00 80 22 
   1416      1363.886 DT     022E Rx 8  6E 66 A0 48 41 C3 90 80 
   1417      1364.056 DT     0488 Rx 4  40 00 00 CC 
   1418      1364.286 DT     023E Rx 8  28 C6 63 95 01 6E 26 BB 
   1419      1364.692 DT     026E Rx 8  03 00 FE EF FF FE EF FF 
   1420      1369.452 DT     0129 Rx 8  35 20 4F 20 00 20 FF 3F 
   1421      1371.688 DT     02E1 Rx 8  03 6C 00 02 2C 45 00 00 
   1422      1376.104 DT     0419 Rx 1  00 
   1423      1378.765 DT     02E8 Rx 8  C2 00 00 00 00 80 B0 DC 
   1424      1379.657 DT     0129 Rx 8  4B 21 4F 20 FF 1F FF 3F 
   1425      1379.823 DT     0249 Rx 4  13 0D 00 00 
   1426      1381.997 DT     027D Rx 3  01 0D 8D 
   1427      1383.395 DT     026E Rx 8  04 00 FE EF FF FE EF FF 
   1428      1384.021 DT     0488 Rx 4  40 00 01 CD 
   1429      1385.941 DT     03C2 Rx 8  29 55 00 00 00 00 00 00 
   1430      1387.194 DT     02E1 Rx 8  FC 19 13 1A 9E 19 0A 00 
   1431      1388.258 DT     039D Rx 5  81 64 55 28 00 
   1432      1389.010 DT     010A Rx 7  16 A4 52 62 61 51 01 
   1433      1389.228 DT     010B Rx 7  0E 04 00 00 F0 FF 0F 
   1434      1389.448 DT     010C Rx 7  82 F4 A0 30 21 90 00 
   1435      1389.666 DT     010D Rx 7  D1 E4 70 71 F0 FF 0F 
   1436      1389.900 DT     0129 Rx 8  6B 22 4F 20 00 20 FF 3F 
   1437      1390.048 DT     0219 Rx 3  09 00 24 
   1438      1393.062 DT     0420 Rx 6  28 01 40 4B 00 D0 
   1439      1394.055 DT     02B9 Rx 8  00 00 D8 25 2A 9A 3A B6 
   1440      1394.297 DT     03FE Rx 8  00 40 00 00 00 00 70 B1 
   1441      1395.329 DT     0545 Rx 8  80 01 31 C0 A1 0B 0A 72 
   1442      1396.089 DT     03CB Rx 5  00 00 00 00 01 
   1443      1399.441 DT     0221 Rx 8  41 01 55 00 00 00 00 BA 
   1444      1399.683 DT     0129 Rx 8  7C 23 4F 20 00 20 FF 3F 
   1445      1402.979 DT     02E1 Rx 8  05 00 00 00 00 00 00 00 
   1446      1403.369 DT     020E Rx 8  98 C4 E8 6A 15 02 C6 9B 
   1447      1403.633 DT     021E Rx 8  00 00 00 00 00 00 80 33 
   1448      1403.881 DT     022E Rx 8  6E 66 A0 48 41 C3 D0 C0 
   1449      1404.001 DT     0409 Rx 1  00 
   1450      1404.233 DT     023E Rx 8  28 C6 63 95 01 6E 36 CB 
   1451      1404.401 DT     0488 Rx 4  40 00 02 CE 
   1452      1404.641 DT     026E Rx 8  05 00 FE EF FF FE EF FF 
   1453      1404.891 DT     0720 Rx 8  00 00 00 00 00 00 00 00 
   1454      1409.063 DT     0239 Rx 8  00 00 64 7D 7D 7D F0 50 
   1455      1409.308 DT     0247 Rx 8  03 00 1B 00 00 40 FC 00 
   1456      1409.556 DT     024A Rx 8  00 00 01 0F 1F 00 00 00 
   1457      1409.788 DT     0129 Rx 8  93 24 4F 20 FF 1F FF 3F 
   1458      1410.890 DT     0448 Rx 8  00 00 00 00 00 00 00 4B 
   1459      1411.126 DT     0102 Rx 8  22 33 00 00 E8 38 11 08 
   1460      1415.186 DT     0103 Rx 8  11 30 00 00 96 14 11 02 
   1461      1418.310 DT     035D Rx 8  02 00 00 00 00 C1 07 00 
   1462      1418.967 DT     02E1 Rx 8  10 21 04 00 00 00 26 08 
   1463      1419.439 DT     0129 Rx 8  84 25 4F 20 FF 1F FF 3F 
   1464      1423.399 DT     024E Rx 8  01 80 00 04 00 00 00 00 
   1465      1423.665 DT     025E Rx 8  01 20 00 81 00 20 00 81 
   1466      1423.929 DT     026E Rx 8  06 00 FE EF FF FE EF FF 
   1467      1424.103 DT     0488 Rx 4  40 00 03 CF 
   1468      1424.343 DT     02A8 Rx 8  C2 00 00 00 00 80 C0 AC 
   1469      1424.527 DT     032E Rx 5  00 5D 30 51 0F 
   1470      1424.741 DT     033E Rx 5  00 FF FF 51 90 
   1471      1424.949 DT     034E Rx 5  59 9E 21 05 6E 
   1472      1425.162 DT     035E Rx 5  28 26 27 05 DB 
   1473      1425.402 DT     039E Rx 6  FF FF FF FF 25 0A 
   1474      1428.082 DT     03C9 Rx 7  03 11 03 06 30 38 00 
   1475      1428.326 DT     0545 Rx 8  01 00 00 00 00 10 10 6B 
   1476      1428.506 DT     039D Rx 5  82 65 55 28 00 
   1477      1429.010 DT     010A Rx 7  17 A5 52 62 61 51 01 
   1478      1429.230 DT     010B Rx 7  0F 05 00 00 F0 FF 0F 
   1479      1429.451 DT     010C Rx 7  83 F5 A0 30 21 90 00 
   1480      1429.669 DT     010D Rx 7  D2 E5 70 71 F0 FF 0F 
   1481      1429.905 DT     0129 Rx 8  37 26 4F 20 00 20 FF 3F 
   1482      1430.057 DT     0219 Rx 3  0A 00 25 
   1483      1430.221 DT     0249 Rx 4  AF 0E 00 00 
   1484      1430.461 DT     0259 Rx 8  D3 C0 02 00 00 00 70 60 
   1485      1434.059 DT     02B9 Rx 8  00 00 D8 25 2A 9A 5A D6 
   1486      1434.305 DT     03FE Rx 8  00 40 00 00 00 00 80 C1 
   1487      1435.120 DT     025F Rx 8  DF 8C 01 C3 44 C1 0A E0 
   1488      1437.500 DT     02E1 Rx 8  29 0A A3 6A 17 00 00 00 
   1489      1437.966 DT     03C2 Rx 8  00 55 55 55 00 00 55 45 
   1490      1439.550 DT     0129 Rx 8  20 27 4F 20 00 20 FF 3F 
   1491      1443.368 DT     020E Rx 8  98 C4 E8 6A 15 02 06 DB 
   1492      1443.635 DT     021E Rx 8  00 00 00 00 00 00 80 44 
   1493      1443.883 DT     022E Rx 8  6E 66 A0 48 41 C3 10 00 
   1494      1444.049 DT     0488 Rx 4  40 00 04 D0 
   1495      1444.281 DT     023E Rx 8  28 C6 63 95 05 6E 46 DF 
   1496      1444.543 DT     026E Rx 8  07 00 FE EF FF FE EF FF 
   1497      1449.159 DT     0221 Rx 8  40 41 05 05 00 50 11 0F 
   1498      1449.636 DT     0129 Rx 8  F7 28 4F 20 00 20 FF 3F 
   1499      1449.994 DT     0405 Rx 8  10 00 00 00 00 4C 52 57 
   1500      1450.126 DT     0228 Rx 2  A0 CA 
   1501      1450.362 DT     07FF Rx 8  01 91 45 44 42 4C 7A 00 
   1502      1450.594 DT     0318 Rx 8  16 03 1C 0F 11 17 15 9C 
   1503      1450.729 DT     0418 Rx 2  A2 06 
   1504      1450.845 DT     0128 Rx 1  00 
   1505      1451.401 DT     02E1 Rx 8  02 00 00 00 00 00 01 00 
   1506      1455.227 DT     03C3 Rx 8  55 55 55 01 00 00 00 00 
   1507      1459.046 DT     03FE Rx 8  00 40 00 00 00 00 91 D2 
   1508      1459.450 DT     0129 Rx 8  A2 29 4F 20 00 20 FF 3F 
   1509      1459.894 DT     02D1 Rx 2  7F 01 
   1510      1460.737 DT     0238 Rx 8  80 3F 14 C1 1F 00 F4 E1 
   1511      1460.983 DT     0545 Rx 8  02 00 1A 00 00 00 20 86 
   1512      1461.175 DT     0284 Rx 5  10 00 00 00 00 
   1513      1463.395 DT     026E Rx 8  08 00 FE EF FF FE EF FF 
   1514      1464.013 DT     0488 Rx 4  40 00 05 D1 
   1515      1466.953 DT     02E1 Rx 8  03 6C 00 02 2C 45 00 00 
   1516      1468.255 DT     039D Rx 5  83 66 55 28 00 
   1517      1469.015 DT     010A Rx 7  18 A6 52 62 61 51 01 
   1518      1469.232 DT     010B Rx 7  10 06 00 00 F0 FF 0F 
   1519      1469.448 DT     010C Rx 7  84 F6 A0 30 21 90 00 
   1520      1469.666 DT     010D Rx 7  D3 E6 70 71 F0 FF 0F 
   1521      1469.904 DT     0129 Rx 8  7D 2A 4F 20 00 20 FF 3F 
   1522      1470.052 DT     0219 Rx 3  0B 00 26 
   1523      1474.058 DT     02B9 Rx 8  00 00 D8 25 2A 9A 7A F6 
   1524      1476.106 DT     0419 Rx 1  00 
   1525      1478.806 DT     02E8 Rx 8  C2 00 00 00 00 80 C0 EC 
   1526      1479.451 DT     0129 Rx 8  8C 2B 4F 20 00 20 FF 3F 
   1527      1479.619 DT     0249 Rx 4  CE 0F 00 00 
   1528      1482.001 DT     027D Rx 3  01 0E 8E 
   1529      1482.975 DT     0321 Rx 8  F8 D9 A7 7B 02 7A 10 A3 
   1530      1483.365 DT     020E Rx 8  98 C4 E8 6A 15 02 46 1B 
   1531      1483.631 DT     021E Rx 8  00 00 00 00 00 00 80 55 
   1532      1483.861 DT     02E1 Rx 8  FC 19 12 1A 9E 13 0A 00 
   1533      1484.093 DT     022E Rx 8  6E 66 A0 48 41 C3 50 40 
   1534      1484.260 DT     0488 Rx 4  40 00 06 D2 
   1535      1484.490 DT     023E Rx 8  28 C6 63 95 01 6E 56 EB 
   1536      1484.750 DT     026E Rx 8  09 00 FE EF FF FE EF FF 
   1537      1486.198 DT     03C2 Rx 8  29 55 00 00 00 00 00 00 
   1538      1489.530 DT     0129 Rx 8  EC 2C 4F 20 00 20 FF 3F 
   1539      1493.066 DT     0420 Rx 6  28 01 40 4B 00 E0 
   1540      1494.152 DT     0545 Rx 8  40 01 31 80 A1 0B 3A 22 
   1541      1496.091 DT     03CB Rx 5  00 00 00 00 01 
   1542      1498.971 DT     02E1 Rx 8  05 00 00 00 00 00 00 00 
   1543      1499.213 DT     03FE Rx 8  00 40 00 00 00 00 A1 E2 
   1544      1499.453 DT     0221 Rx 8  41 01 55 00 00 00 20 DA 
   1545      1499.691 DT     0129 Rx 8  FE 2D 4F 20 00 20 FF 3F 
   1546      1503.393 DT     026E Rx 8  0A 00 FE EF FF FE EF FF 
   1547      1503.979 DT     0409 Rx 1  00 
   1548      1504.148 DT     0488 Rx 4  40 00 07 D3 
   1549      1504.398 DT     0720 Rx 8  00 00 00 00 00 00 00 00 
   1550      1508.292 DT     039D Rx 5  84 67 55 28 00 
   1551      1509.012 DT     010A Rx 7  19 A7 52 62 61 51 01 
   1552      1509.230 DT     010B Rx 7  11 07 00 00 F0 FF 0F 
   1553      1509.450 DT     010C Rx 7  85 F7 A0 30 21 90 00 
   1554      1509.666 DT     010D Rx 7  D4 E7 70 71 F0 FF 0F 
   1555      1509.900 DT     0129 Rx 8  8C 2E 4F 20 01 20 FF 3F 
   1556      1510.048 DT     0219 Rx 3  0C 00 27 
   1557      1510.291 DT     0239 Rx 8  00 00 64 7D 7D 7D F0 60 
   1558      1510.536 DT     0247 Rx 8  03 00 1B 00 00 40 FC 00 
   1559      1510.784 DT     024A Rx 8  00 00 01 0F 1F 00 00 00 
   1560      1511.020 DT     0102 Rx 8  22 33 00 00 E8 38 11 08 
   1561      1511.252 DT     0353 Rx 8  7B 0F 39 80 02 0A F8 FA 
   1562      1511.494 DT     02F8 Rx 8  E7 39 29 00 00 DE 00 1F 
   1563      1514.058 DT     02B9 Rx 8  00 00 D8 25 2A 9A 9A 16 
   1564      1514.990 DT     02E1 Rx 8  10 21 04 00 00 00 26 08 
   1565      1515.227 DT     0103 Rx 8  11 30 00 00 96 12 11 02 
   1566      1519.445 DT     0129 Rx 8  7D 2F 4F 20 01 20 FF 3F 
   1567      1523.377 DT     020E Rx 8  98 C4 E8 62 15 02 86 53 
   1568      1523.643 DT     021E Rx 8  00 00 00 00 00 00 80 66 
   1569      1523.895 DT     022E Rx 8  6E 66 A0 48 41 C3 90 80 
   1570      1524.061 DT     0488 Rx 4  40 00 08 D4 
   1571      1524.295 DT     023E Rx 8  28 C6 63 95 01 6E 66 FB 
   1572      1524.536 DT     02A8 Rx 8  C2 00 00 00 00 80 D0 BC 
   1573      1524.782 DT     024E Rx 8  02 80 00 04 00 00 00 00 
   1574      1525.098 DT     025E Rx 8  02 20 00 81 00 20 00 81 
   1575      1525.360 DT     026E Rx 8  0B 00 FE EF FF FE EF FF 
   1576      1525.568 DT     032E Rx 5  00 5D 30 61 1F 
   1577      1525.782 DT     033E Rx 5  00 FF FF 61 A0 
   1578      1526.030 DT     034E Rx 5  59 9E 21 06 6F 
   1579      1526.296 DT     035E Rx 5  28 26 27 06 DC 
   1580      1526.531 DT     039E Rx 6  FF FF FF FF 36 0A 
   1581      1527.235 DT     0545 Rx 8  01 00 00 00 00 10 40 9B 
   1582      1529.097 DT     0259 Rx 8  D3 C0 02 00 00 00 80 70 
   1583      1529.589 DT     0129 Rx 8  35 20 4F 20 00 20 FF 3F 
   1584      1530.313 DT     0249 Rx 4  9B 00 00 00 
   1585      1531.569 DT     02E1 Rx 8  29 0A A3 6A 17 00 00 00 
   1586      1535.576 DT     025F Rx 8  DF 8C 01 C3 44 C1 0A E0 
   1587      1537.706 DT     03C2 Rx 8  00 55 55 55 00 00 55 45 
   1588      1539.086 DT     03FC Rx 7  AF 00 00 00 00 00 00 
   1589      1539.332 DT     03FE Rx 8  00 40 00 00 00 00 B1 F2 
   1590      1539.696 DT     0129 Rx 8  8F 21 4F 20 01 20 FF 3F 
   1591      1543.444 DT     026E Rx 8  20 00 7A 77 84 7B 17 7B 
   1592      1544.076 DT     0488 Rx 4  40 00 09 D5 
   1593      1547.150 DT     02E1 Rx 8  02 00 00 00 00 00 01 00 
   1594      1548.295 DT     039D Rx 5  85 68 55 28 00 
