;$FILEVERSION=2.0
;$STARTTIME=44637.6832699537
;$COLUMNS=N,O,T,I,d,l,D
;
;   C:\Users\bayerld\Documents\Tesla\20220317-chassiscan-schlieﬂen.trc
;   Start time: 17.03.2022 16:23:54.524.0
;   Generated by PCAN-View v4.2.5.569
;-------------------------------------------------------------------------------
;   Connection                 Bit rate
;   PCANLight_USB_15@pcan_usb  500 kBit/s
;-------------------------------------------------------------------------------
;   Message   Time    Type ID     Rx/Tx
;   Number    Offset  |    [hex]  |  Data Length
;   |         [ms]    |    |      |  |  Data [hex] ...
;   |         |       |    |      |  |  |
;---+-- ------+------ +- --+----- +- +- +- +- -- -- -- -- -- -- --
      1         1.176 DT     03CB Rx 5  00 00 00 00 01 
      2         3.789 DT     0129 Rx 8  ED 25 4F 20 00 20 FF 3F 
      3         4.553 DT     02E1 Rx 8  10 21 04 00 00 00 26 08 
      4         4.791 DT     0221 Rx 8  41 01 55 00 00 00 A0 5A 
      5         7.897 DT     026E Rx 8  06 00 FE EF FF FE EF FF 
      6         9.051 DT     0409 Rx 1  00 
      7         9.225 DT     0488 Rx 4  40 00 03 CF 
      8         9.475 DT     0720 Rx 8  00 00 00 00 00 00 00 00 
      9        12.325 DT     039D Rx 5  5E 55 41 28 00 
     10        13.868 DT     0129 Rx 8  37 26 4F 20 00 20 FF 3F 
     11        14.100 DT     010A Rx 7  17 A5 52 62 61 51 01 
     12        14.320 DT     010B Rx 7  0F 05 00 00 F0 FF 0F 
     13        14.538 DT     010C Rx 7  84 F5 A0 30 22 90 00 
     14        14.756 DT     010D Rx 7  D2 E5 70 71 F0 FF 0F 
     15        14.908 DT     0219 Rx 3  0A 00 25 
     16        15.152 DT     0239 Rx 8  00 00 64 7D 7D 7D F0 20 
     17        15.382 DT     004F Rx 8  1B 1E E8 02 9C E7 0A 96 
     18        15.626 DT     0247 Rx 8  03 00 1B 00 00 40 FC 00 
     19        15.875 DT     024A Rx 8  00 00 01 0F 1F 00 00 00 
     20        16.121 DT     03B8 Rx 8  00 00 74 74 00 00 00 00 
     21        16.367 DT     05D9 Rx 8  10 03 03 00 00 00 00 00 
     22        16.603 DT     0102 Rx 8  22 33 00 00 E8 38 11 08 
     23        16.841 DT     0334 Rx 8  3F 3F C8 00 E2 3F C0 5E 
     24        17.087 DT     03FD Rx 8  00 00 00 42 60 01 02 80 
     25        19.143 DT     02B9 Rx 8  00 00 D8 25 2A 9A 5A D6 
     26        20.769 DT     02E1 Rx 8  29 0A A3 6A 17 00 00 00 
     27        21.006 DT     0103 Rx 8  11 30 00 00 96 12 11 01 
     28        23.792 DT     0129 Rx 8  20 27 4F 20 00 20 FF 3F 
     29        24.136 DT     03FE Rx 8  00 40 00 00 00 00 01 42 
     30        27.882 DT     020E Rx 8  99 C4 E8 6A 15 02 06 DC 
     31        28.159 DT     021E Rx 8  00 00 00 00 00 00 80 44 
     32        28.409 DT     022E Rx 8  6E 66 A0 48 41 A3 10 E0 
     33        28.661 DT     023E Rx 8  28 C6 63 95 01 6E 46 DB 
     34        28.891 DT     0545 Rx 8  40 01 31 10 A2 10 0A 88 
     35        29.137 DT     024E Rx 8  02 80 00 04 00 00 00 00 
     36        29.304 DT     0488 Rx 4  40 00 04 D0 
     37        29.544 DT     025E Rx 8  02 20 00 81 00 20 00 81 
     38        29.806 DT     026E Rx 8  07 00 FE EF FF FE EF FF 
     39        30.060 DT     02A8 Rx 8  C2 00 00 00 00 80 90 7C 
     40        30.302 DT     030E Rx 8  00 00 05 01 00 00 F0 07 
     41        30.528 DT     031E Rx 6  01 80 EF 15 1A 1E 
     42        30.794 DT     0326 Rx 8  0B 00 03 21 00 00 00 00 
     43        31.002 DT     032E Rx 5  00 5D 30 21 DF 
     44        31.219 DT     033E Rx 5  00 FF FF 21 60 
     45        31.423 DT     034E Rx 5  59 9E 21 02 6B 
     46        31.629 DT     035E Rx 5  28 26 27 02 D8 
     47        31.911 DT     037E Rx 8  01 04 00 00 00 00 00 00 
     48        32.149 DT     039E Rx 6  FF FF FF FF F2 09 
     49        33.995 DT     0129 Rx 8  F7 28 4F 20 00 20 FF 3F 
     50        34.265 DT     0249 Rx 4  3F 08 00 00 
     51        36.544 DT     02E1 Rx 8  02 00 00 00 00 00 01 00 
     52        39.158 DT     0389 Rx 8  00 00 00 60 00 80 8F FB 
     53        41.818 DT     025F Rx 8  DF 8C 01 C3 44 C1 0A E0 
     54        42.300 DT     03C2 Rx 8  00 55 55 55 00 00 55 45 
     55        43.780 DT     0129 Rx 8  CB 29 4F 20 FF 1F FF 3F 
     56        44.138 DT     03FE Rx 8  00 40 00 00 00 00 10 51 
     57        47.897 DT     026E Rx 8  08 00 FE EF FF FE EF FF 
     58        49.099 DT     0488 Rx 4  40 00 05 D1 
     59        52.280 DT     039D Rx 5  5F 56 41 28 00 
     60        52.533 DT     02E1 Rx 8  03 6C 00 02 2C 45 00 00 
     61        53.785 DT     0129 Rx 8  14 2A 4F 20 FF 1F FF 3F 
     62        54.101 DT     010A Rx 7  18 A6 52 62 61 51 01 
     63        54.317 DT     010B Rx 7  10 06 00 00 F0 FF 0F 
     64        54.537 DT     010C Rx 7  85 F6 A0 30 22 90 00 
     65        54.755 DT     010D Rx 7  D3 E6 70 71 F0 FF 0F 
     66        54.903 DT     0219 Rx 3  0B 00 26 
     67        55.139 DT     0221 Rx 8  40 41 05 05 00 50 B1 AF 
     68        55.443 DT     0228 Rx 2  70 9A 
     69        55.690 DT     07FF Rx 8  05 08 A0 40 00 00 00 00 
     70        55.932 DT     0318 Rx 8  16 03 36 0F 11 17 0F B0 
     71        56.066 DT     0418 Rx 2  72 06 
     72        56.182 DT     0128 Rx 1  00 
     73        59.144 DT     02B9 Rx 8  00 00 D8 25 2A 9A 7A F6 
     74        61.251 DT     03C3 Rx 8  00 00 00 00 00 49 00 00 
     75        62.207 DT     0545 Rx 8  01 00 00 00 00 10 10 6B 
     76        63.791 DT     0129 Rx 8  8C 2B 4F 20 00 20 FF 3F 
     77        65.407 DT     02D1 Rx 2  7F 01 
     78        66.229 DT     03FD Rx 8  01 00 0A 00 00 00 02 80 
     79        67.867 DT     020E Rx 8  99 C4 E8 6A 15 02 46 1C 
     80        68.131 DT     021E Rx 8  00 00 00 00 00 00 80 55 
     81        68.382 DT     022E Rx 8  6E 66 A0 48 41 A3 50 20 
     82        68.634 DT     023E Rx 8  28 C6 63 95 01 6E 56 EB 
     83        68.894 DT     026E Rx 8  09 00 FE EF FF FE EF FF 
     84        69.108 DT     0488 Rx 4  40 00 06 D2 
     85        69.464 DT     02E1 Rx 8  FC 19 14 0A 9E 14 0A 00 
     86        73.783 DT     0129 Rx 8  41 2C 4F 20 01 20 FF 3F 
     87        81.193 DT     0419 Rx 1  00 
     88        83.786 DT     0129 Rx 8  FE 2D 4F 20 00 20 FF 3F 
     89        83.952 DT     0249 Rx 4  5E 09 00 00 
     90        84.200 DT     03FE Rx 8  00 40 00 00 00 00 20 61 
     91        84.557 DT     02E1 Rx 8  05 00 00 00 00 00 00 00 
     92        84.797 DT     02E8 Rx 8  C2 00 00 00 00 80 90 BC 
     93        87.087 DT     027D Rx 3  01 0B 8B 
     94        87.895 DT     026E Rx 8  0A 00 FE EF FF FE EF FF 
     95        89.103 DT     0488 Rx 4  40 00 07 D3 
     96        91.541 DT     03C2 Rx 8  29 55 00 00 00 00 00 00 
     97        92.283 DT     039D Rx 5  60 57 41 28 00 
     98        93.791 DT     0129 Rx 8  21 2E 4F 20 00 20 FF 3F 
     99        94.099 DT     010A Rx 7  19 A7 52 62 61 51 01 
    100        94.317 DT     010B Rx 7  11 07 00 00 F0 FF 0F 
    101        94.534 DT     010C Rx 7  86 F7 A0 30 22 90 00 
    102        94.750 DT     010D Rx 7  D4 E7 70 71 F0 FF 0F 
    103        94.898 DT     0219 Rx 3  0C 00 27 
    104        95.140 DT     0545 Rx 8  02 00 22 00 00 00 20 8E 
    105        98.156 DT     0420 Rx 6  28 01 40 4B 00 B0 
    106        99.158 DT     0259 Rx 8  D3 C0 02 00 00 00 60 50 
    107        99.388 DT     02B9 Rx 8  00 00 D8 25 2A 9A 9A 16 
    108       100.568 DT     02E1 Rx 8  10 21 04 00 00 00 26 08 
    109       101.181 DT     03CB Rx 5  00 00 00 00 01 
    110       103.793 DT     0129 Rx 8  D0 2F 4F 20 00 20 FF 3F 
    111       104.787 DT     0221 Rx 8  41 01 55 00 00 00 C0 7A 
    112       107.869 DT     020E Rx 8  99 C4 E8 6A 15 02 86 5C 
    113       108.133 DT     021E Rx 8  00 00 00 00 00 00 80 66 
    114       108.383 DT     022E Rx 8  6E 66 A0 48 41 A3 90 60 
    115       108.639 DT     023E Rx 8  28 C6 63 95 01 6E 66 FB 
    116       108.902 DT     026E Rx 8  0B 00 FE EF FF FE EF FF 
    117       109.052 DT     0409 Rx 1  00 
    118       109.218 DT     0488 Rx 4  40 00 08 D4 
    119       109.468 DT     0720 Rx 8  00 00 00 00 00 00 00 00 
    120       113.792 DT     0129 Rx 8  35 20 4F 20 00 20 FF 3F 
    121       114.154 DT     0239 Rx 8  00 00 64 7D 7D 7D F0 30 
    122       114.398 DT     0247 Rx 8  03 00 1B 00 00 40 FC 00 
    123       114.647 DT     024A Rx 8  00 00 01 0F 1F 00 00 00 
    124       114.895 DT     0448 Rx 8  00 00 00 00 00 00 00 4B 
    125       116.531 DT     0102 Rx 8  22 33 00 00 E8 38 11 08 
    126       116.779 DT     02E1 Rx 8  29 0A A3 6A 17 00 00 00 
    127       120.865 DT     0103 Rx 8  11 30 00 00 96 14 11 01 
    128       123.786 DT     0129 Rx 8  22 21 4F 20 00 20 FF 3F 
    129       124.138 DT     03FE Rx 8  00 40 00 00 00 00 30 71 
    130       127.502 DT     0545 Rx 8  D0 01 31 40 A1 07 3A 6E 
    131       127.894 DT     024E Rx 8  03 80 00 04 00 00 00 00 
    132       128.158 DT     025E Rx 8  03 20 00 81 00 20 00 81 
    133       128.412 DT     026E Rx 8  20 00 7A 77 84 7C 17 7B 
    134       128.622 DT     032E Rx 5  00 5D 30 31 EF 
    135       128.835 DT     033E Rx 5  00 FF FF 31 70 
    136       129.041 DT     034E Rx 5  59 9E 21 03 6C 
    137       129.207 DT     0488 Rx 4  40 00 09 D5 
    138       129.387 DT     035E Rx 5  28 26 27 03 D9 
    139       129.621 DT     039E Rx 6  FF FF FF FF 03 0A 
    140       130.019 DT     02A8 Rx 8  C2 00 00 00 00 80 A0 8C 
    141       132.315 DT     039D Rx 5  61 58 41 28 00 
    142       132.746 DT     02E1 Rx 8  02 00 00 00 00 00 01 00 
    143       133.170 DT     03C9 Rx 7  03 11 83 07 30 38 00 
    144       134.000 DT     0129 Rx 8  6B 22 4F 20 00 20 FF 3F 
    145       134.212 DT     010A Rx 7  1A A8 52 62 61 51 01 
    146       134.433 DT     010B Rx 7  12 08 00 00 F0 FF 0F 
    147       134.651 DT     010C Rx 7  87 F8 A0 30 22 90 00 
    148       134.869 DT     010D Rx 7  D5 E8 70 71 F0 FF 0F 
    149       135.017 DT     0219 Rx 3  0D 00 28 
    150       135.184 DT     0249 Rx 4  E2 0A 00 00 
    151       139.138 DT     05D9 Rx 8  01 00 00 00 00 08 00 00 
    152       139.368 DT     02B9 Rx 8  00 00 D8 25 2A 9A BA 36 
    153       141.708 DT     025F Rx 8  DF 8C 01 C3 44 C1 0A E0 
    154       142.190 DT     03C2 Rx 8  00 55 55 55 00 00 55 45 
    155       143.778 DT     0129 Rx 8  D1 23 4F 20 01 20 FF 3F 
    156       147.868 DT     020E Rx 8  99 C4 E8 6A 15 02 C6 9C 
    157       148.132 DT     021E Rx 8  00 00 00 00 00 00 80 77 
    158       148.381 DT     022E Rx 8  6E 66 A0 48 41 A3 D0 A0 
    159       148.617 DT     02E1 Rx 8  03 6C 00 02 2C 45 00 00 
    160       148.849 DT     023E Rx 8  28 C6 63 95 01 6E 76 0B 
    161       149.103 DT     026E Rx 8  21 00 11 EA 79 2D FA 85 
    162       149.269 DT     0488 Rx 4  40 00 0A D6 
    163       153.779 DT     0129 Rx 8  57 24 4F 20 01 20 FF 3F 
    164       154.742 DT     0221 Rx 8  40 41 05 05 00 50 D1 CF 
    165       155.748 DT     0405 Rx 8  10 00 00 00 00 4C 52 57 
    166       155.880 DT     0228 Rx 2  80 AA 
    167       156.116 DT     07FF Rx 8  01 91 45 44 42 4C 7A 00 
    168       156.348 DT     0318 Rx 8  16 03 37 0F 11 17 11 B3 
    169       156.488 DT     0418 Rx 2  82 06 
    170       156.605 DT     0128 Rx 1  00 
    171       160.765 DT     0545 Rx 8  01 00 00 00 00 10 40 9B 
    172       161.003 DT     03C3 Rx 8  55 55 55 01 00 00 00 00 
    173       163.887 DT     0129 Rx 8  ED 25 4F 20 00 20 FF 3F 
    174       164.140 DT     03FE Rx 8  00 40 00 00 00 00 40 81 
    175       164.764 DT     02E1 Rx 8  FC 19 0F 0A 9E 11 0A 00 
    176       165.002 DT     0238 Rx 8  80 3F 14 C1 1F 00 54 41 
    177       165.196 DT     0284 Rx 5  10 00 00 00 00 
    178       165.450 DT     02D1 Rx 2  7F 01 
    179       167.886 DT     026E Rx 8  22 00 B1 D9 87 84 19 8A 
    180       169.108 DT     0488 Rx 4  40 00 0B D7 
    181       172.268 DT     039D Rx 5  62 59 41 28 00 
    182       173.784 DT     0129 Rx 8  37 26 4F 20 00 20 FF 3F 
    183       174.102 DT     010A Rx 7  1B A9 52 62 61 51 01 
    184       174.317 DT     010B Rx 7  13 09 00 00 F0 FF 0F 
    185       174.537 DT     010C Rx 7  88 F9 A0 30 22 90 00 
    186       174.757 DT     010D Rx 7  D6 E9 70 71 F0 FF 0F 
    187       174.905 DT     0219 Rx 3  0E 00 29 
    188       179.155 DT     02B9 Rx 8  00 00 D8 25 2A 9A DA 56 
    189       180.813 DT     02E1 Rx 8  05 00 00 00 00 00 00 00 
    190       181.195 DT     0419 Rx 1  00 
    191       182.347 DT     035D Rx 8  00 00 00 00 00 00 00 00 
    192       183.789 DT     0129 Rx 8  20 27 4F 20 00 20 FF 3F 
    193       183.956 DT     0249 Rx 4  28 0B 00 00 
    194       184.792 DT     02E8 Rx 8  C2 00 00 00 00 80 A0 CC 
    195       187.090 DT     027D Rx 3  01 0C 8C 
    196       187.871 DT     020E Rx 8  99 C4 E8 6A 15 02 06 DC 
    197       188.135 DT     021E Rx 8  00 00 00 00 00 00 80 88 
    198       188.383 DT     022E Rx 8  6E 66 A0 48 41 A3 10 E0 
    199       188.612 DT     0321 Rx 8  F8 DD A7 7B 02 7A C0 57 
    200       188.842 DT     023E Rx 8  28 C6 63 95 01 6E 86 1B 
    201       189.102 DT     026E Rx 8  03 00 FE EF FF FE EF FF 
    202       189.270 DT     0488 Rx 4  40 00 0C D8 
    203       191.800 DT     03C2 Rx 8  29 55 00 00 00 00 00 00 
    204       193.526 DT     0545 Rx 8  02 00 22 00 00 00 50 BE 
    205       193.788 DT     0129 Rx 8  F7 28 4F 20 00 20 FF 3F 
    206       196.541 DT     02E1 Rx 8  10 21 04 00 00 00 26 08 
    207       198.157 DT     0420 Rx 6  28 01 40 4B 00 C0 
    208       199.133 DT     0259 Rx 8  D3 C0 02 00 00 00 70 60 
    209       201.179 DT     03CB Rx 5  00 00 00 00 01 
    210       203.785 DT     0129 Rx 8  A2 29 4F 20 00 20 FF 3F 
    211       204.137 DT     03FE Rx 8  00 40 00 00 00 00 50 91 
    212       204.770 DT     0221 Rx 8  41 01 55 00 00 00 E0 9A 
    213       207.898 DT     026E Rx 8  04 00 FE EF FF FE EF FF 
    214       209.060 DT     0409 Rx 1  00 
    215       209.226 DT     0488 Rx 4  40 00 0D D9 
    216       209.476 DT     0720 Rx 8  00 00 00 00 00 00 00 00 
    217       212.308 DT     039D Rx 5  63 5A 41 28 00 
    218       213.210 DT     02E1 Rx 8  29 0A A3 6A 17 00 00 00 
    219       213.790 DT     0129 Rx 8  7D 2A 4F 20 00 20 FF 3F 
    220       214.106 DT     010A Rx 7  1C AA 52 62 61 51 01 
    221       214.323 DT     010B Rx 7  14 0A 00 00 F0 FF 0F 
    222       214.545 DT     010C Rx 7  89 FA A0 30 22 90 00 
    223       214.763 DT     010D Rx 7  D7 EA 70 71 F0 FF 0F 
    224       214.915 DT     0219 Rx 3  0F 00 2A 
    225       215.161 DT     0239 Rx 8  00 00 64 7D 7D 7D F0 40 
    226       215.405 DT     0247 Rx 8  03 00 1B 00 00 40 FC 00 
    227       215.653 DT     024A Rx 8  00 00 01 0F 1F 00 00 00 
    228       215.885 DT     0353 Rx 8  7B 0F 39 80 02 0A F8 FA 
    229       216.128 DT     02F8 Rx 8  E7 39 29 00 00 DE 00 1F 
    230       216.534 DT     0102 Rx 8  22 33 00 00 E8 38 11 08 
    231       219.150 DT     02B9 Rx 8  00 00 D8 25 2A 9A FA 76 
    232       220.840 DT     0103 Rx 8  11 30 00 00 96 14 11 01 
    233       223.788 DT     0129 Rx 8  8C 2B 4F 20 00 20 FF 3F 
    234       226.978 DT     0545 Rx 8  80 01 31 C0 A1 0B 6A D2 
    235       227.876 DT     020E Rx 8  99 C4 E8 6A 15 02 46 1C 
    236       228.147 DT     021E Rx 8  00 00 00 00 00 00 80 99 
    237       228.411 DT     022E Rx 8  6E 66 A0 48 41 A3 50 20 
    238       228.655 DT     02E1 Rx 8  02 00 00 00 00 00 01 00 
    239       228.887 DT     023E Rx 8  28 C6 63 95 01 6E 96 2B 
    240       229.155 DT     024E Rx 8  00 80 00 04 00 00 00 00 
    241       229.321 DT     0488 Rx 4  40 00 0E DA 
    242       229.563 DT     025E Rx 8  00 20 00 81 00 20 00 81 
    243       229.836 DT     026E Rx 8  05 00 FE EF FF FE EF FF 
    244       230.076 DT     02A8 Rx 8  C2 00 00 00 00 80 B0 9C 
    245       230.366 DT     032E Rx 5  00 5D 30 41 FF 
    246       230.584 DT     033E Rx 5  00 FF FF 41 80 
    247       230.788 DT     034E Rx 5  59 9E 21 04 6D 
    248       230.996 DT     035E Rx 5  28 26 27 04 DA 
    249       231.230 DT     039E Rx 6  FF FF FF FF 14 0A 
    250       234.098 DT     0129 Rx 8  41 2C 4F 20 01 20 FF 3F 
    251       234.373 DT     0249 Rx 4  3A 0C 00 00 
    252       241.440 DT     025F Rx 8  DF 8C 01 C3 44 C1 0A E0 
    253       242.156 DT     03C2 Rx 8  00 55 55 55 00 00 55 45 
    254       243.976 DT     0129 Rx 8  FE 2D 4F 20 00 20 FF 3F 
    255       244.226 DT     03FC Rx 7  AE 00 00 00 00 00 00 
    256       244.473 DT     03FE Rx 8  00 40 00 00 00 00 60 A1 
    257       244.709 DT     02E1 Rx 8  03 6C 00 02 2C 45 00 00 
    258       247.995 DT     026E Rx 8  06 00 FE EF FF FE EF FF 
    259       249.207 DT     0488 Rx 4  40 00 0F DB 
    260       252.357 DT     039D Rx 5  64 5B 41 28 00 
    261       253.883 DT     0129 Rx 8  48 2E 4F 20 FF 1F FF 3F 
    262       254.203 DT     010A Rx 7  1D AB 52 62 61 51 01 
    263       254.419 DT     010B Rx 7  15 0B 00 00 F0 FF 0F 
    264       254.637 DT     010C Rx 7  8A FB A0 30 22 90 00 
    265       254.855 DT     010D Rx 7  D8 EB 70 71 F0 FF 0F 
    266       255.005 DT     0219 Rx 3  00 00 1B 
    267       255.238 DT     0221 Rx 8  40 41 05 05 00 50 F1 EF 
    268       255.552 DT     0228 Rx 2  90 BA 
    269       255.786 DT     07FF Rx 8  02 5F 4E AC DE CD D6 30 
    270       256.016 DT     0318 Rx 8  16 03 37 0F 11 17 13 B5 
    271       256.150 DT     0418 Rx 2  92 06 
    272       256.267 DT     0128 Rx 1  00 
    273       259.247 DT     02B9 Rx 8  00 00 D8 25 2A 9A 1A 96 
    274       259.665 DT     0545 Rx 8  01 00 00 00 00 10 70 CB 
    275       260.851 DT     02E1 Rx 8  FC 19 13 0A 9E 16 0A 00 
    276       261.109 DT     03C3 Rx 8  00 00 00 00 00 49 00 00 
    277       263.941 DT     0129 Rx 8  D0 2F 4F 20 00 20 FF 3F 
    278       264.239 DT     05D9 Rx 8  03 00 FF 00 00 00 00 00 
    279       265.349 DT     03DC Rx 8  40 73 93 0A 00 00 00 00 
    280       265.484 DT     02D1 Rx 2  7F 01 
    281       265.730 DT     03D9 Rx 8  02 00 00 90 00 00 00 00 
    282       265.962 DT     02D3 Rx 8  F6 00 A4 02 12 F2 0B 54 
    283       267.968 DT     020E Rx 8  99 C4 E8 6A 15 02 86 5C 
    284       268.232 DT     021E Rx 8  00 00 00 00 00 00 80 AA 
    285       268.482 DT     022E Rx 8  6E 66 A0 48 41 A3 90 60 
    286       268.736 DT     023E Rx 8  28 C6 63 95 01 6E A6 3B 
    287       268.999 DT     026E Rx 8  07 00 FE EF FF FE EF FF 
    288       269.205 DT     0488 Rx 4  40 00 00 CC 
    289       273.889 DT     0129 Rx 8  35 20 4F 20 00 20 FF 3F 
    290       277.135 DT     02E1 Rx 8  05 00 00 00 00 00 00 00 
    291       277.967 DT     030E Rx 8  00 00 05 01 00 00 00 17 
    292       281.323 DT     0419 Rx 1  00 
    293       283.886 DT     0129 Rx 8  22 21 4F 20 00 20 FF 3F 
    294       284.052 DT     0249 Rx 4  13 0D 00 00 
    295       284.294 DT     03FE Rx 8  00 40 00 00 00 00 70 B1 
    296       284.882 DT     02E8 Rx 8  C2 00 00 00 00 80 B0 DC 
    297       287.190 DT     027D Rx 3  01 0D 8D 
    298       287.994 DT     026E Rx 8  08 00 FE EF FF FE EF FF 
    299       289.210 DT     0488 Rx 4  40 00 01 CD 
    300       291.648 DT     03C2 Rx 8  29 55 00 00 00 00 00 00 
    301       292.352 DT     039D Rx 5  65 5C 41 28 00 
    302       292.886 DT     02E1 Rx 8  10 21 04 00 00 00 26 08 
    303       293.313 DT     0545 Rx 8  02 00 1F 00 00 00 80 EB 
    304       293.877 DT     0129 Rx 8  C6 22 4F 20 01 20 FF 3F 
    305       294.204 DT     010A Rx 7  1E AC 52 62 61 51 01 
    306       294.422 DT     010B Rx 7  16 0C 00 00 F0 FF 0F 
    307       294.640 DT     010C Rx 7  8B FC A0 30 22 90 00 
    308       294.858 DT     010D Rx 7  D9 EC 70 71 F0 FF 0F 
    309       295.008 DT     0219 Rx 3  01 00 1C 
    310       298.260 DT     0420 Rx 6  28 01 40 4B 00 D0 
    311       299.259 DT     0259 Rx 8  D3 C0 02 00 00 00 80 70 
    312       299.489 DT     02B9 Rx 8  00 00 D8 25 2A 9A 3A B6 
    313       301.283 DT     03CB Rx 5  00 00 00 00 01 
    314       303.893 DT     0129 Rx 8  7C 23 4F 20 00 20 FF 3F 
    315       304.633 DT     0221 Rx 8  41 01 55 00 00 00 00 BA 
    316       307.967 DT     020E Rx 8  99 C4 E8 6A 15 02 C6 9C 
    317       308.233 DT     021E Rx 8  00 00 00 00 00 00 80 BB 
    318       308.481 DT     022E Rx 8  6E 66 A0 48 41 A3 D0 A0 
    319       308.734 DT     023E Rx 8  28 C6 63 95 01 6E B6 4B 
    320       308.968 DT     02E1 Rx 8  29 0A A3 6A 17 00 00 00 
    321       309.206 DT     026E Rx 8  09 00 FE EF FF FE EF FF 
    322       309.326 DT     0409 Rx 1  00 
    323       309.574 DT     0425 Rx 8  00 00 00 00 00 00 00 00 
    324       309.742 DT     0488 Rx 4  40 00 02 CE 
    325       309.993 DT     0720 Rx 8  00 00 00 00 00 00 00 00 
    326       313.885 DT     0129 Rx 8  FA 24 4F 20 00 20 FF 3F 
    327       314.301 DT     0239 Rx 8  00 00 64 7D 7D 7D F0 50 
    328       314.545 DT     0247 Rx 8  03 00 1B 00 00 40 FC 00 
    329       314.793 DT     024A Rx 8  00 00 01 0F 1F 00 00 00 
    330       315.003 DT     025D Rx 6  00 00 FF 00 00 00 
    331       315.197 DT     03DF Rx 5  00 00 04 00 01 
    332       315.441 DT     03FA Rx 8  01 01 02 02 04 02 05 FF 
    333       315.669 DT     0293 Rx 8  01 0C 55 91 55 15 14 06 
    334       315.804 DT     0410 Rx 2  45 00 
    335       316.638 DT     0102 Rx 8  22 33 00 00 E8 38 11 08 
    336       320.944 DT     0103 Rx 8  11 30 00 00 96 12 11 01 
    337       323.884 DT     0129 Rx 8  40 25 4F 20 01 20 FF 3F 
    338       324.240 DT     03FE Rx 8  00 40 00 00 00 00 80 C1 
    339       324.650 DT     02E1 Rx 8  02 00 00 00 00 00 01 00 
    340       325.615 DT     0545 Rx 8  40 01 36 40 A1 07 9A 43 
    341       327.997 DT     024E Rx 8  01 80 00 04 00 00 00 00 
    342       328.263 DT     025E Rx 8  01 20 00 81 00 20 00 81 
    343       328.523 DT     026E Rx 8  0A 00 FE EF FF FE EF FF 
    344       328.733 DT     032E Rx 5  00 5D 30 51 0F 
    345       328.947 DT     033E Rx 5  00 FF FF 51 90 
    346       329.155 DT     034E Rx 5  59 9E 21 05 6E 
    347       329.329 DT     0488 Rx 4  40 00 03 CF 
    348       329.513 DT     035E Rx 5  28 26 27 05 DB 
    349       329.746 DT     039E Rx 6  FF FF FF FF 25 0A 
    350       330.128 DT     02A8 Rx 8  C2 00 00 00 00 80 C0 AC 
    351       332.380 DT     039D Rx 5  66 5D 41 28 00 
    352       334.104 DT     0129 Rx 8  37 26 4F 20 00 20 FF 3F 
    353       334.316 DT     010A Rx 7  1F AD 52 62 61 51 01 
    354       334.530 DT     010B Rx 7  17 0D 00 00 F0 FF 0F 
    355       334.748 DT     010C Rx 7  8C FD A0 30 22 90 00 
    356       334.964 DT     010D Rx 7  DA ED 70 71 F0 FF 0F 
    357       335.115 DT     0219 Rx 3  02 00 1D 
    358       335.279 DT     0249 Rx 4  AF 0E 00 00 
    359       339.249 DT     02B9 Rx 8  00 00 D8 25 2A 9A 5A D6 
    360       340.809 DT     02E1 Rx 8  03 6C 00 02 2C 45 00 00 
    361       341.803 DT     025F Rx 8  DF 8C 01 C3 44 C1 0A E0 
    362       342.285 DT     03C2 Rx 8  00 55 55 55 00 00 55 45 
    363       343.887 DT     0129 Rx 8  20 27 4F 20 00 20 FF 3F 
    364       347.970 DT     020E Rx 8  99 C4 E8 6A 15 02 06 DC 
    365       348.239 DT     021E Rx 8  00 00 00 00 00 00 80 CC 
    366       348.487 DT     022E Rx 8  6E 66 A0 48 41 A3 10 E0 
    367       348.739 DT     023E Rx 8  28 C6 63 95 01 6E C6 5B 
    368       349.001 DT     026E Rx 8  0B 00 FE EF FF FE EF FF 
    369       349.273 DT     03FE Rx 8  00 40 00 00 00 00 91 D2 
    370       349.439 DT     0488 Rx 4  40 00 04 D0 
    371       353.878 DT     0129 Rx 8  5A 28 4F 20 01 20 FF 3F 
    372       354.870 DT     0221 Rx 8  40 41 05 05 00 50 11 0F 
    373       355.556 DT     0228 Rx 2  A0 CA 
    374       355.792 DT     07FF Rx 8  03 31 08 A1 E0 42 16 41 
    375       356.024 DT     0318 Rx 8  16 03 37 0F 11 17 15 B7 
    376       356.158 DT     0418 Rx 2  A2 06 
    377       356.274 DT     0128 Rx 1  00 
    378       357.257 DT     02E1 Rx 8  FC 19 10 0A 9E 0F 0A 00 
    379       359.519 DT     0545 Rx 8  01 00 00 00 00 10 A0 FB 
    380       360.951 DT     03C3 Rx 8  55 55 55 01 00 00 00 00 
    381       363.883 DT     0129 Rx 8  A2 29 4F 20 00 20 FF 3F 
    382       365.408 DT     02D1 Rx 2  7F 01 
    383       367.994 DT     026E Rx 8  20 00 7A 77 84 7C 17 7B 
    384       369.238 DT     05D9 Rx 8  24 07 00 00 00 00 F0 1F 
    385       369.404 DT     0488 Rx 4  40 00 05 D1 
    386       372.396 DT     039D Rx 5  67 5E 41 28 00 
    387       372.646 DT     02E1 Rx 8  05 00 00 00 00 00 00 00 
    388       373.880 DT     0129 Rx 8  14 2A 4F 20 FF 1F FF 3F 
    389       374.208 DT     010A Rx 7  20 AE 52 62 61 51 01 
    390       374.426 DT     010B Rx 7  18 0E 00 00 F0 FF 0F 
    391       374.647 DT     010C Rx 7  8D FE A0 30 22 90 00 
    392       374.867 DT     010D Rx 7  DB EE 70 71 F0 FF 0F 
    393       375.017 DT     0219 Rx 3  03 00 1E 
    394       379.253 DT     02B9 Rx 8  00 00 D8 25 2A 9A 7A F6 
    395       381.299 DT     0419 Rx 1  00 
    396       383.887 DT     0129 Rx 8  21 2B 4F 20 01 20 FF 3F 
    397       384.055 DT     0249 Rx 4  CE 0F 00 00 
    398       384.303 DT     03CA Rx 8  00 00 00 00 00 00 00 06 
    399       384.891 DT     02E8 Rx 8  C2 00 00 00 00 80 C0 EC 
    400       387.194 DT     027D Rx 3  01 0E 8E 
    401       387.966 DT     020E Rx 8  99 C4 E8 6A 15 02 46 1C 
    402       388.232 DT     021E Rx 8  00 00 00 00 00 00 80 DD 
    403       388.482 DT     022E Rx 8  6E 66 A0 48 41 A3 50 20 
    404       388.734 DT     023E Rx 8  28 C6 63 95 05 6E D6 6F 
    405       388.976 DT     02E1 Rx 8  10 21 04 00 00 00 26 08 
    406       389.206 DT     026E Rx 8  21 00 11 EA 79 2E FA 85 
    407       389.449 DT     03FE Rx 8  00 40 00 00 00 00 A1 E2 
    408       389.615 DT     0488 Rx 4  40 00 06 D2 
    409       391.647 DT     0545 Rx 8  02 00 1C 00 00 00 B0 18 
    410       392.131 DT     03C2 Rx 8  29 55 00 00 00 00 00 00 
    411       393.875 DT     0129 Rx 8  85 2C 4F 20 FF 1F FF 3F 
    412       398.259 DT     0420 Rx 6  28 01 40 4B 00 E0 
    413       399.240 DT     0259 Rx 8  D3 C0 02 00 00 00 90 80 
    414       399.470 DT     0399 Rx 8  F0 20 C0 E0 B0 C8 E7 AB 
    415       399.618 DT     0413 Rx 3  4B 49 49 
    416       401.283 DT     03CB Rx 5  00 00 00 00 01 
    417       403.881 DT     0129 Rx 8  53 2D 4F 20 01 20 FF 3F 
    418       405.131 DT     0221 Rx 8  41 01 55 00 00 00 20 DA 
    419       405.368 DT     02E1 Rx 8  29 0A A3 6A 17 00 00 00 
    420       405.680 DT     0405 Rx 8  11 33 45 37 46 41 30 4D 
    421       407.984 DT     026E Rx 8  22 00 B1 D9 87 84 19 8A 
    422       409.164 DT     0409 Rx 1  00 
    423       409.278 DT     0415 Rx 1  45 
    424       409.446 DT     0488 Rx 4  40 00 07 D3 
    425       409.696 DT     0720 Rx 8  00 00 00 00 00 00 00 00 
    426       412.366 DT     039D Rx 5  68 5F 41 28 00 
    427       413.879 DT     0129 Rx 8  48 2E 4F 20 FF 1F FF 3F 
    428       414.207 DT     010A Rx 7  21 AF 52 62 61 51 01 
    429       414.423 DT     010B Rx 7  19 0F 00 00 F0 FF 0F 
    430       414.641 DT     010C Rx 7  8E FF A0 30 22 90 00 
    431       414.859 DT     010D Rx 7  DC EF 70 71 F0 FF 0F 
    432       415.011 DT     0219 Rx 3  04 00 1F 
    433       415.253 DT     0239 Rx 8  00 00 64 7D 7D 7D F0 60 
    434       415.497 DT     0247 Rx 8  03 00 1B 00 00 40 FC 00 
    435       415.745 DT     024A Rx 8  00 00 01 0F 1F 00 00 00 
    436       416.642 DT     0102 Rx 8  22 33 00 00 E8 38 11 08 
    437       419.250 DT     02B9 Rx 8  00 00 D8 25 2A 9A 9A 16 
    438       420.650 DT     02E1 Rx 8  02 00 00 00 00 00 01 00 
    439       420.968 DT     0103 Rx 8  11 30 00 00 96 14 11 01 
    440       423.876 DT     0129 Rx 8  B9 2F 4F 20 FF 1F FF 3F 
    441       424.635 DT     0545 Rx 8  80 01 31 90 A1 0C CA 03 
    442       427.977 DT     020E Rx 8  99 C4 E8 6A 15 02 86 5C 
    443       428.249 DT     021E Rx 8  00 00 00 00 00 00 80 EE 
    444       428.501 DT     022E Rx 8  6E 66 A0 48 41 A3 90 60 
    445       428.753 DT     023E Rx 8  28 C6 63 95 01 6E E6 7B 
    446       429.021 DT     024E Rx 8  02 80 00 04 00 00 00 00 
    447       429.267 DT     03FE Rx 8  00 40 00 00 00 00 B1 F2 
    448       429.507 DT     025E Rx 8  02 20 00 81 00 20 00 81 
    449       429.674 DT     0488 Rx 4  40 00 08 D4 
    450       429.912 DT     026E Rx 8  03 00 FE EF FF FE EF FF 
    451       430.154 DT     02A8 Rx 8  C2 00 00 00 00 80 D0 BC 
    452       430.336 DT     032E Rx 5  00 5D 30 61 1F 
    453       430.550 DT     033E Rx 5  00 FF FF 61 A0 
    454       430.756 DT     034E Rx 5  59 9E 21 06 6F 
    455       430.964 DT     035E Rx 5  28 26 27 06 DC 
    456       431.196 DT     039E Rx 6  FF FF FF FF 36 0A 
    457       434.113 DT     0129 Rx 8  35 20 4F 20 00 20 FF 3F 
    458       434.379 DT     0249 Rx 4  9B 00 00 00 
    459       437.347 DT     02E1 Rx 8  03 6C 00 02 2C 45 00 00 
    460       441.933 DT     025F Rx 8  DF 8C 01 C3 44 C1 0A E0 
    461       442.817 DT     03C2 Rx 8  00 55 55 55 00 00 55 45 
    462       443.966 DT     0129 Rx 8  8F 21 4F 20 01 20 FF 3F 
    463       447.993 DT     026E Rx 8  04 00 FE EF FF FE EF FF 
    464       449.208 DT     0488 Rx 4  40 00 09 D5 
    465       452.364 DT     039D Rx 5  59 50 41 28 00 
    466       452.856 DT     02E1 Rx 8  FC 19 12 0A 9E 13 0A 00 
    467       453.879 DT     0129 Rx 8  02 22 4F 20 FF 1F FF 3F 
    468       454.209 DT     010A Rx 7  12 A0 52 62 61 51 01 
    469       454.433 DT     010B Rx 7  0A 00 00 00 F0 FF 0F 
    470       454.653 DT     010C Rx 7  7F F0 A0 30 22 90 00 
    471       454.873 DT     010D Rx 7  CD E0 70 71 F0 FF 0F 
    472       455.028 DT     0219 Rx 3  05 00 20 
    473       455.266 DT     0221 Rx 8  40 41 05 05 00 50 31 2F 
    474       455.558 DT     0228 Rx 2  B0 DA 
    475       455.790 DT     07FF Rx 8  04 CC 16 54 61 12 B4 2A 
    476       456.022 DT     0318 Rx 8  16 03 37 0F 11 17 17 B9 
    477       456.159 DT     0418 Rx 2  B2 06 
    478       456.275 DT     0128 Rx 1  00 
    479       457.665 DT     0545 Rx 8  01 00 00 00 00 10 D0 2B 
    480       459.251 DT     02B9 Rx 8  00 00 D8 25 2A 9A BA 36 
    481       461.143 DT     03C3 Rx 8  00 00 00 00 00 49 00 00 
    482       463.951 DT     0129 Rx 8  7C 23 4F 20 00 20 FF 3F 
    483       465.468 DT     02D1 Rx 2  7F 01 
    484       467.965 DT     020E Rx 8  99 C4 E8 6A 15 02 C6 9C 
    485       468.234 DT     021E Rx 8  00 00 00 00 00 00 80 FF 
    486       468.482 DT     022E Rx 8  6E 66 A0 48 41 A3 D0 A0 
    487       468.736 DT     023E Rx 8  28 C6 63 95 01 6E F6 8B 
    488       468.984 DT     02E1 Rx 8  05 00 00 00 00 00 00 00 
    489       469.224 DT     026E Rx 8  05 00 FE EF FF FE EF FF 
    490       469.470 DT     03FE Rx 8  00 40 00 00 00 00 C1 02 
    491       469.636 DT     0488 Rx 4  40 00 0A D6 
    492       473.883 DT     0129 Rx 8  FA 24 4F 20 00 20 FF 3F 
    493       481.323 DT     0419 Rx 1  00 
    494       483.883 DT     0129 Rx 8  ED 25 4F 20 00 20 FF 3F 
    495       484.051 DT     0249 Rx 4  E8 01 00 00 
    496       484.667 DT     02E1 Rx 8  10 21 04 00 00 00 26 08 
    497       484.912 DT     02E8 Rx 8  C2 00 00 00 00 80 D0 FC 
    498       487.198 DT     027D Rx 3  01 0F 8F 
    499       487.994 DT     026E Rx 8  06 00 FE EF FF FE EF FF 
    500       489.210 DT     0488 Rx 4  40 00 0B D7 
    501       490.638 DT     0545 Rx 8  02 00 19 00 00 00 E0 45 
    502       491.670 DT     03C2 Rx 8  29 55 00 00 00 00 00 00 
    503       492.392 DT     039D Rx 5  5A 51 41 28 00 
    504       493.877 DT     0129 Rx 8  9A 26 4F 20 01 20 FF 3F 
    505       494.207 DT     010A Rx 7  13 A1 52 62 61 51 01 
    506       494.425 DT     010B Rx 7  0B 01 00 00 F0 FF 0F 
    507       494.647 DT     010C Rx 7  80 F1 A0 30 22 90 00 
    508       494.863 DT     010D Rx 7  CE E1 70 71 F0 FF 0F 
    509       495.015 DT     0219 Rx 3  06 00 21 
    510       498.263 DT     0420 Rx 6  28 01 40 4B 00 F0 
    511       499.259 DT     0259 Rx 8  D3 C0 02 00 00 00 A0 90 
    512       499.492 DT     02B9 Rx 8  00 00 D8 25 2A 9A DA 56 
    513       500.876 DT     02E1 Rx 8  29 0A A3 6A 17 00 00 00 
    514       501.286 DT     03CB Rx 5  00 00 00 00 01 
    515       503.874 DT     0129 Rx 8  49 27 4F 20 FF 1F FF 3F 
    516       504.642 DT     0221 Rx 8  41 01 55 00 00 00 40 FA 
    517       507.969 DT     020E Rx 8  99 C4 E8 6A 15 02 06 DC 
    518       508.239 DT     021E Rx 8  00 00 00 00 00 00 80 00 
    519       508.488 DT     022E Rx 8  6E 66 A0 48 41 A3 10 E0 
    520       508.742 DT     023E Rx 8  28 C6 63 95 01 6E 06 9B 
    521       509.004 DT     026E Rx 8  07 00 FE EF FF FE EF FF 
    522       509.266 DT     03FE Rx 8  00 40 00 00 00 00 D1 12 
    523       509.386 DT     0409 Rx 1  00 
    524       509.554 DT     0488 Rx 4  40 00 0C D8 
    525       509.804 DT     0720 Rx 8  00 00 00 00 00 00 00 00 
    526       512.446 DT     035D Rx 8  01 00 00 00 00 00 00 00 
    527       513.878 DT     0129 Rx 8  5A 28 4F 20 01 20 FF 3F 
    528       514.260 DT     0239 Rx 8  00 00 64 7D 7D 7D F0 70 
    529       514.505 DT     0247 Rx 8  03 00 1B 00 00 40 FC 00 
    530       514.753 DT     024A Rx 8  00 00 01 0F 1F 00 00 00 
    531       515.549 DT     0334 Rx 8  3F 3F C8 00 E2 3F D0 6E 
    532       516.647 DT     0102 Rx 8  22 33 00 00 E8 38 11 08 
    533       517.023 DT     02E1 Rx 8  02 00 00 00 00 00 01 00 
    534       520.963 DT     0103 Rx 8  11 30 00 00 96 12 11 01 
    535       523.770 DT     0545 Rx 8  80 01 31 60 A1 0A FA 01 
    536       524.010 DT     0129 Rx 8  0F 29 4F 20 01 20 FF 3F 
    537       527.992 DT     024E Rx 8  03 80 00 04 00 00 00 00 
    538       528.260 DT     025E Rx 8  03 20 00 81 00 20 00 81 
    539       528.522 DT     026E Rx 8  08 00 FE EF FF FE EF FF 
    540       528.794 DT     030E Rx 8  00 00 05 01 00 00 10 27 
    541       529.016 DT     031E Rx 6  01 90 FF 15 1A 1E 
    542       529.223 DT     032E Rx 5  00 5D 30 71 2F 
    543       529.389 DT     0488 Rx 4  40 00 0D D9 
    544       529.577 DT     033E Rx 5  00 FF FF 71 B0 
    545       529.785 DT     034E Rx 5  59 9E 21 07 70 
    546       529.997 DT     035E Rx 5  28 26 27 07 DD 
    547       530.239 DT     02A8 Rx 8  C2 00 00 00 00 80 E0 CC 
    548       530.443 DT     039E Rx 6  FF FF FF FF 47 0A 
    549       532.381 DT     039D Rx 5  5B 52 41 28 00 
    550       532.843 DT     02E1 Rx 8  03 6C 00 02 2C 45 00 00 
    551       534.120 DT     0129 Rx 8  7D 2A 4F 20 00 20 FF 3F 
    552       534.330 DT     010A Rx 7  14 A2 52 62 61 51 01 
    553       534.548 DT     010B Rx 7  0C 02 00 00 F0 FF 0F 
    554       534.768 DT     010C Rx 7  81 F2 A0 30 22 90 00 
    555       534.988 DT     010D Rx 7  CF E2 70 71 F0 FF 0F 
    556       535.140 DT     0219 Rx 3  07 00 22 
    557       535.306 DT     0249 Rx 4  2A 02 00 00 
    558       539.254 DT     02B9 Rx 8  00 00 D8 25 2A 9A FA 76 
    559       539.497 DT     0389 Rx 8  00 00 00 60 00 80 9F 0B 
    560       541.735 DT     03C2 Rx 8  00 55 55 55 00 00 55 45 
    561       542.939 DT     025F Rx 8  DF 8C 01 C3 44 C1 0A E0 
    562       544.063 DT     0129 Rx 8  8C 2B 4F 20 00 20 FF 3F 
    563       547.965 DT     020E Rx 8  99 C4 E8 6A 15 02 46 1C 
    564       548.231 DT     021E Rx 8  00 00 00 00 00 00 80 11 
    565       548.481 DT     022E Rx 8  6E 66 A0 48 41 A3 50 20 
    566       548.733 DT     023E Rx 8  28 C6 63 95 01 6E 16 AB 
    567       548.970 DT     02E1 Rx 8  FC 19 12 0A 9E 0E 0A 00 
    568       549.208 DT     026E Rx 8  09 00 FE EF FF FE EF FF 
    569       549.450 DT     03FE Rx 8  00 40 00 00 00 00 E1 22 
    570       549.616 DT     0488 Rx 4  40 00 0E DA 
    571       553.878 DT     0129 Rx 8  EC 2C 4F 20 00 20 FF 3F 
    572       554.864 DT     0221 Rx 8  40 41 05 05 00 50 51 4F 
    573       555.562 DT     0228 Rx 2  C0 EA 
    574       555.809 DT     07FF Rx 8  05 08 A0 40 00 00 00 00 
    575       556.039 DT     0318 Rx 8  16 03 37 0F 11 17 19 BB 
    576       556.175 DT     0418 Rx 2  C2 06 
    577       556.291 DT     0128 Rx 1  00 
    578       557.043 DT     0545 Rx 8  01 00 00 00 00 10 00 5B 
    579       560.959 DT     03C3 Rx 8  55 55 55 01 00 00 00 00 
    580       563.945 DT     0129 Rx 8  FE 2D 4F 20 00 20 FF 3F 
    581       564.659 DT     02E1 Rx 8  05 00 00 00 00 00 00 00 
    582       565.439 DT     02D1 Rx 2  7F 01 
    583       568.169 DT     026E Rx 8  0A 00 FE EF FF FE EF FF 
    584       569.211 DT     0488 Rx 4  40 00 0F DB 
    585       572.379 DT     039D Rx 5  5C 53 41 28 00 
    586       573.886 DT     0129 Rx 8  21 2E 4F 20 00 20 FF 3F 
    587       574.212 DT     010A Rx 7  15 A3 52 62 61 51 01 
    588       574.428 DT     010B Rx 7  0D 03 00 00 F0 FF 0F 
    589       574.648 DT     010C Rx 7  82 F3 A0 30 22 90 00 
    590       574.864 DT     010D Rx 7  D0 E3 70 71 F0 FF 0F 
    591       575.014 DT     0219 Rx 3  08 00 23 
    592       579.252 DT     02B9 Rx 8  00 00 D8 25 2A 9A 1A 96 
    593       580.656 DT     02E1 Rx 8  10 21 04 00 00 00 26 08 
    594       581.303 DT     0419 Rx 1  00 
    595       583.875 DT     0129 Rx 8  B9 2F 4F 20 FF 1F FF 3F 
    596       584.041 DT     0249 Rx 4  D3 03 00 00 
    597       584.875 DT     02E8 Rx 8  C2 00 00 00 00 80 E0 0C 
    598       587.199 DT     027D Rx 3  01 00 80 
    599       587.965 DT     020E Rx 8  99 C4 E8 6A 15 02 86 5C 
    600       588.229 DT     021E Rx 8  00 00 00 00 00 00 80 22 
    601       588.479 DT     022E Rx 8  6E 66 A0 48 41 A3 90 60 
    602       588.732 DT     023E Rx 8  28 C6 63 95 01 6E 26 BB 
    603       588.994 DT     026E Rx 8  0B 00 FE EF FF FE EF FF 
    604       589.242 DT     03FE Rx 8  00 40 00 00 00 00 F1 32 
    605       589.412 DT     0488 Rx 4  40 00 00 CC 
    606       589.654 DT     0545 Rx 8  02 00 16 00 00 00 10 72 
    607       591.895 DT     03C2 Rx 8  29 55 00 00 00 00 00 00 
    608       593.877 DT     0129 Rx 8  5C 20 4F 20 FF 1F FF 3F 
    609       596.885 DT     02E1 Rx 8  29 0A A3 6A 17 00 00 00 
    610       598.267 DT     0420 Rx 6  28 01 40 4B 00 00 
    611       599.243 DT     0259 Rx 8  D3 C0 02 00 00 00 B0 A0 
    612       601.285 DT     03CB Rx 5  00 00 00 00 01 
    613       603.882 DT     0129 Rx 8  22 21 4F 20 00 20 FF 3F 
    614       604.896 DT     0221 Rx 8  41 01 55 00 00 00 60 1A 
    615       607.992 DT     026E Rx 8  20 00 7A 77 84 7C 17 7B 
    616       609.174 DT     0409 Rx 1  00 
    617       609.344 DT     0488 Rx 4  40 00 01 CD 
    618       609.594 DT     0720 Rx 8  00 00 00 00 00 00 00 00 
    619       612.351 DT     039D Rx 5  5D 54 41 28 00 
    620       612.893 DT     02E1 Rx 8  02 00 00 00 00 00 01 00 
    621       613.881 DT     0129 Rx 8  6B 22 4F 20 00 20 FF 3F 
    622       614.209 DT     010A Rx 7  16 A4 52 62 61 51 01 
    623       614.428 DT     010B Rx 7  0E 04 00 00 F0 FF 0F 
    624       614.648 DT     010C Rx 7  83 F4 A0 30 22 90 00 
    625       614.866 DT     010D Rx 7  D1 E4 70 71 F0 FF 0F 
    626       615.014 DT     0219 Rx 3  09 00 24 
    627       615.258 DT     0239 Rx 8  00 00 64 7D 7D 7D F0 80 
    628       615.502 DT     0247 Rx 8  03 00 1B 00 00 40 FC 00 
    629       615.750 DT     024A Rx 8  00 00 01 0F 1F 00 00 00 
    630       616.658 DT     0102 Rx 8  22 33 00 00 E8 38 11 08 
    631       619.255 DT     02B9 Rx 8  00 00 D8 25 2A 9A 3A B6 
    632       620.953 DT     0103 Rx 8  11 30 00 00 96 14 11 01 
    633       622.631 DT     0545 Rx 8  40 01 3B 40 A1 07 2A D8 
    634       623.889 DT     0129 Rx 8  7C 23 4F 20 00 20 FF 3F 
    635       627.989 DT     020E Rx 8  99 C4 E8 6A 15 02 C6 9C 
    636       628.255 DT     021E Rx 8  00 00 00 00 00 00 80 33 
    637       628.505 DT     022E Rx 8  6E 66 A0 48 41 A3 D0 A0 
    638       628.760 DT     023E Rx 8  28 C6 63 95 01 6E 36 CB 
    639       628.996 DT     02E1 Rx 8  03 6C 00 02 2C 45 00 00 
    640       629.242 DT     024E Rx 8  00 80 00 04 00 00 00 00 
    641       629.488 DT     03FE Rx 8  00 40 00 00 00 00 01 42 
    642       629.730 DT     025E Rx 8  00 20 00 81 00 20 00 81 
    643       629.898 DT     0488 Rx 4  40 00 02 CE 
    644       630.128 DT     026E Rx 8  21 00 11 EA 79 2E FA 85 
    645       630.368 DT     02A8 Rx 8  C2 00 00 00 00 80 F0 DC 
    646       630.551 DT     032E Rx 5  00 5D 30 81 3F 
    647       630.769 DT     033E Rx 5  00 FF FF 81 C0 
    648       630.975 DT     034E Rx 5  59 9E 21 08 71 
    649       631.181 DT     035E Rx 5  28 26 27 08 DE 
    650       631.415 DT     039E Rx 6  FF FF FF FF 58 0A 
    651       633.276 DT     03C9 Rx 7  03 11 C3 07 30 38 00 
    652       634.110 DT     0129 Rx 8  93 24 4F 20 FF 1F FF 3F 
    653       634.380 DT     0249 Rx 4  D3 04 00 00 
    654       641.972 DT     025F Rx 8  DF 8C 01 C3 44 C1 0A E0 
    655       642.452 DT     03C2 Rx 8  00 55 55 55 00 00 55 45 
    656       644.025 DT     0129 Rx 8  ED 25 4F 20 00 20 FF 3F 
    657       644.895 DT     02E1 Rx 8  FC 19 10 0A 9E 0F 0A 00 
    658       647.983 DT     026E Rx 8  22 00 B1 D9 87 84 19 8A 
    659       649.249 DT     03FE Rx 8  00 40 00 00 00 00 10 51 
    660       649.423 DT     0488 Rx 4  40 00 03 CF 
    661       652.345 DT     039D Rx 5  5E 55 41 28 00 
    662       653.881 DT     0129 Rx 8  37 26 4F 20 00 20 FF 3F 
    663       654.209 DT     010A Rx 7  17 A5 52 62 61 51 01 
    664       654.429 DT     010B Rx 7  0F 05 00 00 F0 FF 0F 
    665       654.647 DT     010C Rx 7  84 F5 A0 30 22 90 00 
    666       654.866 DT     010D Rx 7  D2 E5 70 71 F0 FF 0F 
    667       655.018 DT     0219 Rx 3  0A 00 25 
    668       655.252 DT     0221 Rx 8  40 41 05 05 00 50 71 6F 
    669       655.652 DT     0545 Rx 8  01 00 00 00 00 10 30 8B 
    670       655.878 DT     0405 Rx 8  12 43 33 37 39 34 34 35 
    671       656.012 DT     0228 Rx 2  D0 FA 
    672       656.249 DT     07FF Rx 8  01 91 45 44 42 4C 7A 00 
    673       656.481 DT     0318 Rx 8  16 03 37 0F 11 17 1B BD 
    674       656.617 DT     0418 Rx 2  D2 06 
    675       656.733 DT     0128 Rx 1  00 
    676       659.263 DT     02B9 Rx 8  00 00 D8 25 2A 9A 5A D6 
    677       660.671 DT     02E1 Rx 8  05 00 00 00 00 00 00 00 
    678       660.951 DT     03C3 Rx 8  00 00 00 00 00 49 00 00 
    679       661.360 DT     025A Rx 6  00 00 00 00 00 00 
    680       663.884 DT     0129 Rx 8  20 27 4F 20 00 20 FF 3F 
    681       664.730 DT     0238 Rx 8  80 3F 14 C1 1F 00 64 51 
    682       664.926 DT     0284 Rx 5  10 00 00 00 00 
    683       665.437 DT     02D1 Rx 2  7F 01 
    684       667.969 DT     020E Rx 8  99 C4 E8 6A 15 02 06 DC 
    685       668.235 DT     021E Rx 8  00 00 00 00 00 00 80 44 
    686       668.484 DT     022E Rx 8  6E 66 A0 48 41 A3 10 E0 
    687       668.736 DT     023E Rx 8  28 C6 63 95 01 6E 46 DB 
    688       668.996 DT     026E Rx 8  03 00 FE EF FF FE EF FF 
    689       669.208 DT     0488 Rx 4  40 00 04 D0 
    690       673.880 DT     0129 Rx 8  F7 28 4F 20 00 20 FF 3F 
    691       676.899 DT     02E1 Rx 8  10 21 04 00 00 00 26 08 
    692       681.303 DT     0419 Rx 1  00 
    693       683.879 DT     0129 Rx 8  0F 29 4F 20 01 20 FF 3F 
    694       684.047 DT     0249 Rx 4  83 05 00 00 
    695       684.881 DT     02E8 Rx 8  C2 00 00 00 00 80 F0 1C 
    696       687.201 DT     027D Rx 3  01 01 81 
    697       688.083 DT     026E Rx 8  04 00 FE EF FF FE EF FF 
    698       688.668 DT     0545 Rx 8  02 00 13 00 00 00 40 9F 
    699       689.248 DT     03FE Rx 8  00 40 00 00 00 00 20 61 
    700       689.414 DT     0488 Rx 4  40 00 05 D1 
    701       691.666 DT     03C2 Rx 8  29 55 00 00 00 00 00 00 
    702       692.370 DT     039D Rx 5  5F 56 41 28 00 
    703       692.894 DT     02E1 Rx 8  29 0A A3 6A 17 00 00 00 
    704       693.884 DT     0129 Rx 8  7D 2A 4F 20 00 20 FF 3F 
    705       694.213 DT     010A Rx 7  18 A6 52 62 61 51 01 
    706       694.429 DT     010B Rx 7  10 06 00 00 F0 FF 0F 
    707       694.649 DT     010C Rx 7  85 F6 A0 30 22 90 00 
    708       694.867 DT     010D Rx 7  D3 E6 70 71 F0 FF 0F 
    709       695.015 DT     0219 Rx 3  0B 00 26 
    710       698.267 DT     0420 Rx 6  28 01 40 4B 00 10 
    711       699.261 DT     0259 Rx 8  D3 C0 02 00 00 00 C0 B0 
    712       699.491 DT     02B9 Rx 8  00 00 D8 25 2A 9A 7A F6 
    713       701.288 DT     03CB Rx 5  00 00 00 00 01 
    714       703.884 DT     0129 Rx 8  8C 2B 4F 20 00 20 FF 3F 
    715       704.878 DT     0221 Rx 8  41 01 55 00 00 00 80 3A 
    716       707.964 DT     020E Rx 8  99 C4 E8 6A 15 02 46 1C 
    717       708.232 DT     021E Rx 8  00 00 00 00 00 00 80 55 
    718       708.482 DT     022E Rx 8  6E 66 A0 48 41 A3 50 20 
    719       708.726 DT     02E1 Rx 8  02 00 00 00 00 00 01 00 
    720       708.956 DT     023E Rx 8  28 C6 63 95 01 6E 56 EB 
    721       709.219 DT     026E Rx 8  05 00 FE EF FF FE EF FF 
    722       709.339 DT     0409 Rx 1  00 
    723       709.505 DT     0488 Rx 4  40 00 06 D2 
    724       709.755 DT     0720 Rx 8  00 00 00 00 00 00 00 00 
    725       713.883 DT     0129 Rx 8  EC 2C 4F 20 00 20 FF 3F 
    726       714.267 DT     0239 Rx 8  00 00 64 7D 7D 7D F0 90 
    727       714.511 DT     0247 Rx 8  03 00 1B 00 00 40 FC 00 
    728       714.760 DT     024A Rx 8  00 00 01 0F 1F 00 00 00 
    729       716.654 DT     0102 Rx 8  22 33 00 00 E8 38 11 08 
    730       720.991 DT     0103 Rx 8  11 30 00 00 96 14 11 01 
    731       722.359 DT     0545 Rx 8  80 01 31 D0 A1 0C 5A D3 
    732       723.881 DT     0129 Rx 8  FE 2D 4F 20 00 20 FF 3F 
    733       724.649 DT     02E1 Rx 8  03 6C 00 02 2C 45 00 00 
    734       727.995 DT     024E Rx 8  01 80 00 04 00 00 00 00 
    735       728.262 DT     025E Rx 8  01 20 00 81 00 20 00 81 
    736       728.524 DT     026E Rx 8  06 00 FE EF FF FE EF FF 
    737       728.730 DT     032E Rx 5  00 5D 30 91 4F 
    738       728.942 DT     033E Rx 5  00 FF FF 91 D0 
    739       729.148 DT     034E Rx 5  59 9E 21 09 72 
    740       729.394 DT     03FE Rx 8  00 40 00 00 00 00 30 71 
    741       729.577 DT     035E Rx 5  28 26 27 09 DF 
    742       729.745 DT     0488 Rx 4  40 00 07 D3 
    743       729.949 DT     039E Rx 6  FF FF FF FF 69 0A 
    744       730.191 DT     02A8 Rx 8  C2 00 00 00 00 80 00 EC 
    745       732.405 DT     039D Rx 5  60 57 41 28 00 
    746       733.875 DT     0129 Rx 8  8C 2E 4F 20 01 20 FF 3F 
    747       734.211 DT     010A Rx 7  19 A7 52 62 61 51 01 
    748       734.429 DT     010B Rx 7  11 07 00 00 F0 FF 0F 
    749       734.646 DT     010C Rx 7  86 F7 A0 30 22 90 00 
    750       734.862 DT     010D Rx 7  D4 E7 70 71 F0 FF 0F 
    751       735.010 DT     0219 Rx 3  0C 00 27 
    752       735.176 DT     0249 Rx 4  4C 06 00 00 
    753       739.262 DT     02B9 Rx 8  00 00 D8 25 2A 9A 9A 16 
    754       741.508 DT     025F Rx 8  DF 8C 01 C3 44 C1 0A E0 
    755       742.406 DT     02E1 Rx 8  FC 19 12 0A 9E 14 0A 00 
    756       742.872 DT     03C2 Rx 8  00 55 55 55 00 00 55 45 
    757       743.999 DT     0129 Rx 8  B9 2F 4F 20 FF 1F FF 3F 
    758       747.965 DT     020E Rx 8  99 C4 E8 6A 15 02 86 5C 
    759       748.229 DT     021E Rx 8  00 00 00 00 00 00 80 66 
    760       748.479 DT     022E Rx 8  6E 66 A0 48 41 A3 90 60 
    761       748.735 DT     023E Rx 8  28 C6 63 95 01 6E 66 FB 
    762       748.997 DT     026E Rx 8  07 00 FE EF FF FE EF FF 
    763       749.221 DT     0488 Rx 4  40 00 08 D4 
    764       753.885 DT     0129 Rx 8  35 20 4F 20 00 20 FF 3F 
    765       755.108 DT     0221 Rx 8  40 41 05 05 00 50 91 8F 
    766       755.602 DT     0545 Rx 8  01 00 00 00 00 10 60 BB 
    767       755.732 DT     0228 Rx 2  E0 0A 
    768       755.966 DT     07FF Rx 8  02 5F 4E AC DE CD D6 30 
    769       756.198 DT     0318 Rx 8  16 03 37 0F 11 17 1D BF 
    770       756.332 DT     0418 Rx 2  E2 06 
    771       756.449 DT     0128 Rx 1  00 
    772       757.047 DT     02E1 Rx 8  05 00 00 00 00 00 00 00 
    773       760.965 DT     03C3 Rx 8  55 55 55 01 00 00 00 00 
    774       763.943 DT     0129 Rx 8  8F 21 4F 20 01 20 FF 3F 
    775       765.635 DT     02D1 Rx 2  7F 01 
    776       768.043 DT     026E Rx 8  08 00 FE EF FF FE EF FF 
    777       769.248 DT     03FE Rx 8  00 40 00 00 00 00 40 81 
    778       769.414 DT     0488 Rx 4  40 00 09 D5 
    779       772.333 DT     039D Rx 5  61 58 41 28 00 
    780       772.567 DT     032D Rx 8  0D 00 00 00 B2 32 A2 6F 
    781       772.809 DT     02E1 Rx 8  10 21 04 00 00 00 26 08 
    782       773.871 DT     0129 Rx 8  C6 22 4F 20 01 20 FF 3F 
    783       774.213 DT     010A Rx 7  1A A8 52 62 61 51 01 
    784       774.433 DT     010B Rx 7  12 08 00 00 F0 FF 0F 
    785       774.652 DT     010C Rx 7  87 F8 A0 30 22 90 00 
    786       774.870 DT     010D Rx 7  D5 E8 70 71 F0 FF 0F 
    787       775.018 DT     0219 Rx 3  0D 00 28 
    788       777.972 DT     030E Rx 8  00 00 05 01 00 00 20 37 
    789       779.258 DT     02B9 Rx 8  00 00 D8 25 2A 9A BA 36 
    790       781.316 DT     0419 Rx 1  00 
    791       783.886 DT     0129 Rx 8  7C 23 4F 20 00 20 FF 3F 
    792       784.054 DT     0249 Rx 4  5E 07 00 00 
    793       784.893 DT     02E8 Rx 8  C2 00 00 00 00 80 00 2C 
    794       787.203 DT     027D Rx 3  01 02 82 
    795       787.879 DT     0545 Rx 8  02 00 11 00 00 00 70 CD 
    796       788.105 DT     020E Rx 8  99 C4 E8 6A 15 02 C6 9C 
    797       788.353 DT     032B Rx 8  00 00 00 00 00 00 00 00 
    798       788.597 DT     021E Rx 8  00 00 00 00 00 00 80 77 
    799       788.847 DT     036C Rx 8  00 00 00 00 00 00 00 00 
    800       789.075 DT     022E Rx 8  6E 66 A0 48 41 A3 D0 A0 
    801       789.310 DT     02E1 Rx 8  29 0A A3 6A 17 00 00 00 
    802       789.542 DT     023E Rx 8  28 C6 63 95 01 6E 76 0B 
    803       789.790 DT     0459 Rx 8  00 00 00 00 00 00 00 00 
    804       790.028 DT     026E Rx 8  09 00 FE EF FF FE EF FF 
    805       790.278 DT     0350 Rx 8  00 00 00 00 00 00 00 00 
    806       790.444 DT     0488 Rx 4  40 00 0A D6 
    807       791.908 DT     03C2 Rx 8  29 55 00 00 00 00 00 00 
    808       793.879 DT     0129 Rx 8  FA 24 4F 20 00 20 FF 3F 
    809       798.271 DT     0420 Rx 6  28 01 40 4B 00 20 
    810       799.243 DT     0259 Rx 8  D3 C0 02 00 00 00 D0 C0 
    811       801.289 DT     03CB Rx 5  00 00 00 00 01 
    812       803.877 DT     0129 Rx 8  40 25 4F 20 01 20 FF 3F 
    813       804.667 DT     02E1 Rx 8  02 00 00 00 00 00 01 00 
    814       804.905 DT     0221 Rx 8  41 01 55 00 00 00 A0 5A 
    815       807.989 DT     026E Rx 8  0A 00 FE EF FF FE EF FF 
    816       809.294 DT     0329 Rx 8  00 00 00 00 00 00 00 00 
    817       809.542 DT     0369 Rx 8  00 00 00 00 00 00 00 00 
    818       809.786 DT     03FE Rx 8  00 40 00 00 00 00 50 91 
    819       809.906 DT     0409 Rx 1  00 
    820       810.154 DT     0425 Rx 8  00 00 00 00 00 00 00 00 
    821       810.404 DT     0429 Rx 8  00 00 00 00 00 00 00 00 
    822       810.654 DT     0439 Rx 8  00 00 00 00 00 00 00 00 
    823       810.903 DT     0449 Rx 8  00 00 00 00 00 00 00 00 
    824       811.153 DT     0479 Rx 8  00 00 00 00 00 00 00 00 
    825       811.321 DT     0488 Rx 4  40 00 0B D7 
    826       811.571 DT     0720 Rx 8  00 00 00 00 00 00 00 00 
    827       812.359 DT     039D Rx 5  62 59 41 28 00 
    828       813.883 DT     0129 Rx 8  37 26 4F 20 00 20 FF 3F 
    829       814.273 DT     010A Rx 7  1B A9 52 62 61 51 01 
    830       814.487 DT     010B Rx 7  13 09 00 00 F0 FF 0F 
    831       814.707 DT     010C Rx 7  88 F9 A0 30 22 90 00 
    832       814.927 DT     010D Rx 7  D6 E9 70 71 F0 FF 0F 
    833       815.076 DT     0219 Rx 3  0E 00 29 
    834       815.318 DT     0239 Rx 8  00 00 64 7D 7D 7D F0 A0 
    835       815.562 DT     0247 Rx 8  03 00 1B 00 00 40 FC 00 
    836       815.810 DT     024A Rx 8  00 00 01 0F 1F 00 00 00 
    837       815.928 DT     025B Rx 1  00 
    838       816.138 DT     025D Rx 6  00 00 FF 00 00 00 
    839       816.332 DT     03DF Rx 5  00 00 04 00 01 
    840       816.538 DT     03F4 Rx 6  01 D3 F8 01 C6 01 
    841       816.775 DT     0102 Rx 8  22 33 00 00 E8 38 11 08 
    842       817.003 DT     0293 Rx 8  01 0C 55 91 55 15 24 16 
    843       817.247 DT     03FA Rx 8  01 01 02 02 04 02 05 FF 
    844       817.381 DT     0410 Rx 2  45 00 
    845       817.631 DT     0428 Rx 8  00 00 00 00 00 38 1F 00 
    846       817.853 DT     0499 Rx 8  77 77 77 6A 6C 71 71 6D 
    847       818.081 DT     0549 Rx 8  02 35 4E 2D 95 C3 77 E3 
    848       819.264 DT     02B9 Rx 8  00 00 D8 25 2A 9A DA 56 
    849       820.764 DT     02E1 Rx 8  03 6C 00 02 2C 45 00 00 
    850       821.002 DT     0103 Rx 8  11 30 00 00 96 14 11 01 
    851       821.460 DT     0545 Rx 8  80 01 31 60 A1 09 8A 90 
    852       823.882 DT     0129 Rx 8  20 27 4F 20 00 20 FF 3F 
    853       827.977 DT     020E Rx 8  99 C4 E8 6A 15 02 06 DC 
    854       828.243 DT     021E Rx 8  00 00 00 00 00 00 80 88 
    855       828.495 DT     022E Rx 8  6E 66 A0 48 41 C3 10 00 
    856       828.748 DT     023E Rx 8  28 C6 63 95 01 6E 86 1B 
    857       829.016 DT     024E Rx 8  02 80 00 04 00 00 00 00 
    858       829.278 DT     025E Rx 8  02 20 00 81 00 20 00 81 
    859       829.446 DT     0488 Rx 4  40 00 0C D8 
    860       829.686 DT     026E Rx 8  0B 00 FE EF FF FE EF FF 
    861       829.894 DT     032E Rx 5  00 5D 30 A1 5F 
    862       830.110 DT     033E Rx 5  00 FF FF A1 E0 
    863       830.353 DT     02A8 Rx 8  C2 00 00 00 00 80 10 FC 
    864       830.531 DT     034E Rx 5  59 9E 21 0A 73 
    865       830.737 DT     035E Rx 5  28 26 27 0A E0 
    866       830.971 DT     039E Rx 6  FF FF FF FF 7A 0A 
    867       833.875 DT     0129 Rx 8  9E 28 4F 20 FF 1F FF 3F 
    868       834.375 DT     0249 Rx 4  3F 08 00 00 
    869       837.346 DT     02E1 Rx 8  FC 19 0F 0A 9E 09 0A 00 
    870       842.192 DT     025F Rx 8  DF 8C 01 C3 44 C1 0A E0 
    871       842.434 DT     035D Rx 8  02 00 00 00 00 C1 07 00 
    872       842.676 DT     03C2 Rx 8  00 55 55 55 00 00 55 45 
    873       844.000 DT     0129 Rx 8  A2 29 4F 20 00 20 FF 3F 
    874       847.990 DT     026E Rx 8  20 00 7A 77 84 7C 17 7B 
    875       849.250 DT     03FE Rx 8  00 40 00 00 00 00 60 A1 
    876       849.417 DT     0488 Rx 4  40 00 0D D9 
    877       852.388 DT     039D Rx 5  63 5A 41 28 00 
    878       852.909 DT     02E1 Rx 8  05 00 00 00 00 00 00 00 
    879       853.655 DT     0545 Rx 8  01 00 00 00 00 10 90 EB 
    880       853.895 DT     0129 Rx 8  7D 2A 4F 20 00 20 FF 3F 
    881       854.891 DT     0221 Rx 8  40 41 05 05 00 50 B1 AF 
    882       855.217 DT     010A Rx 7  1C AA 52 62 61 51 01 
    883       855.433 DT     010B Rx 7  14 0A 00 00 F0 FF 0F 
    884       855.655 DT     010C Rx 7  89 FA A0 30 22 90 00 
    885       855.874 DT     010D Rx 7  D7 EA 70 71 F0 FF 0F 
    886       856.026 DT     0219 Rx 3  0F 00 2A 
    887       856.156 DT     0228 Rx 2  F0 1A 
    888       856.392 DT     07FF Rx 8  03 31 08 A1 E0 42 16 41 
    889       856.626 DT     0318 Rx 8  16 03 37 0F 11 17 1F C1 
    890       856.760 DT     0418 Rx 2  F2 06 
    891       856.876 DT     0128 Rx 1  00 
    892       859.260 DT     02B9 Rx 8  00 00 D8 25 2A 9A FA 76 
    893       861.167 DT     03C3 Rx 8  00 00 00 00 00 49 00 00 
    894       863.955 DT     0129 Rx 8  8C 2B 4F 20 00 20 FF 3F 
    895       865.607 DT     02D1 Rx 2  7F 01 
    896       867.963 DT     020E Rx 8  99 C4 E8 6A 15 02 46 1C 
    897       868.229 DT     021E Rx 8  00 00 00 00 00 00 80 99 
    898       868.481 DT     022E Rx 8  6E 66 A0 48 41 C3 50 40 
    899       868.736 DT     023E Rx 8  28 C6 63 95 01 6E 96 2B 
    900       868.978 DT     02E1 Rx 8  10 21 04 00 00 00 26 08 
    901       869.208 DT     026E Rx 8  21 00 11 EA 79 2E FA 85 
    902       869.448 DT     05D9 Rx 8  02 00 00 00 41 4E 7A 01 
    903       869.614 DT     0488 Rx 4  40 00 0E DA 
    904       873.870 DT     0129 Rx 8  85 2C 4F 20 FF 1F FF 3F 
    905       881.305 DT     0419 Rx 1  00 
    906       883.877 DT     0129 Rx 8  FE 2D 4F 20 00 20 FF 3F 
    907       884.044 DT     0249 Rx 4  5E 09 00 00 
    908       884.888 DT     02E8 Rx 8  C2 00 00 00 00 80 10 3C 
    909       885.122 DT     02E1 Rx 8  29 0A A3 6A 17 00 00 00 
    910       886.672 DT     0545 Rx 8  02 00 0F 00 00 00 A0 FB 
    911       887.204 DT     027D Rx 3  01 03 83 
    912       887.980 DT     026E Rx 8  22 00 B1 D9 87 84 19 8A 
    913       889.247 DT     03FE Rx 8  00 40 00 00 00 00 70 B1 
    914       889.415 DT     0488 Rx 4  40 00 0F DB 
    915       891.671 DT     03C2 Rx 8  29 55 00 00 00 00 00 00 
    916       892.381 DT     039D Rx 5  64 5B 41 28 00 
    917       893.875 DT     0129 Rx 8  48 2E 4F 20 FF 1F FF 3F 
    918       894.213 DT     010A Rx 7  1D AB 52 62 61 51 01 
    919       894.429 DT     010B Rx 7  15 0B 00 00 F0 FF 0F 
    920       894.647 DT     010C Rx 7  8A FB A0 30 22 90 00 
    921       894.866 DT     010D Rx 7  D8 EB 70 71 F0 FF 0F 
    922       895.016 DT     0219 Rx 3  00 00 1B 
    923       898.270 DT     0420 Rx 6  28 01 40 4B 00 30 
    924       899.268 DT     0259 Rx 8  D3 C0 02 00 00 00 E0 D0 
    925       899.498 DT     02B9 Rx 8  00 00 D8 25 2A 9A 1A 96 
    926       899.728 DT     0399 Rx 8  F0 20 C0 E0 B0 C8 F7 BB 
    927       899.874 DT     0413 Rx 3  49 49 49 
    928       900.673 DT     02E1 Rx 8  02 00 00 00 00 00 01 00 
    929       901.293 DT     03CB Rx 5  00 00 00 00 01 
    930       903.883 DT     0129 Rx 8  D0 2F 4F 20 00 20 FF 3F 
    931       904.667 DT     0221 Rx 8  41 01 55 00 00 00 C0 7A 
    932       905.715 DT     0405 Rx 8  10 00 00 00 00 4C 52 57 
    933       907.963 DT     020E Rx 8  99 C4 E8 6A 15 02 86 5C 
    934       908.227 DT     021E Rx 8  00 00 00 00 00 00 80 AA 
    935       908.477 DT     022E Rx 8  6E 66 A0 48 41 C3 90 80 
    936       908.732 DT     023E Rx 8  28 C6 63 95 01 6E A6 3B 
    937       908.992 DT     026E Rx 8  03 00 FE EF FF FE EF FF 
    938       909.172 DT     0409 Rx 1  00 
    939       909.286 DT     0415 Rx 1  45 
    940       909.456 DT     0488 Rx 4  40 00 00 CC 
    941       909.706 DT     0720 Rx 8  00 00 00 00 00 00 00 00 
    942       913.881 DT     0129 Rx 8  35 20 4F 20 00 20 FF 3F 
    943       914.267 DT     0239 Rx 8  00 00 64 7D 7D 7D F0 B0 
    944       914.511 DT     0247 Rx 8  03 00 1B 00 00 40 FC 00 
    945       914.759 DT     024A Rx 8  00 00 01 0F 1F 00 00 00 
    946       916.657 DT     0102 Rx 8  22 33 00 00 E8 38 11 08 
    947       916.901 DT     02E1 Rx 8  03 6C 00 02 2C 45 00 00 
    948       919.632 DT     0545 Rx 8  80 01 31 C0 A1 0F BA 26 
    949       920.964 DT     0103 Rx 8  11 30 00 00 96 12 11 01 
    950       923.870 DT     0129 Rx 8  4B 21 4F 20 FF 1F FF 3F 
    951       927.988 DT     024E Rx 8  03 80 00 04 00 00 00 00 
    952       928.254 DT     025E Rx 8  03 20 00 81 00 20 00 81 
    953       928.518 DT     026E Rx 8  04 00 FE EF FF FE EF FF 
    954       928.725 DT     032E Rx 5  00 5D 30 B1 6F 
    955       928.943 DT     033E Rx 5  00 FF FF B1 F0 
    956       929.147 DT     034E Rx 5  59 9E 21 0B 74 
    957       929.393 DT     03FE Rx 8  00 40 00 00 00 00 80 C1 
    958       929.575 DT     035E Rx 5  28 26 27 0B E1 
    959       929.745 DT     0488 Rx 4  40 00 01 CD 
    960       929.949 DT     039E Rx 6  FF FF FF FF 8B 0A 
    961       930.191 DT     02A8 Rx 8  C2 00 00 00 00 80 20 0C 
    962       932.396 DT     039D Rx 5  65 5C 41 28 00 
    963       933.090 DT     02E1 Rx 8  FC 19 10 1A 9E 13 0A 00 
    964       933.887 DT     0129 Rx 8  6B 22 4F 20 00 20 FF 3F 
    965       934.215 DT     010A Rx 7  1E AC 52 62 61 51 01 
    966       934.433 DT     010B Rx 7  16 0C 00 00 F0 FF 0F 
    967       934.651 DT     010C Rx 7  8B FC A0 30 22 90 00 
    968       934.869 DT     010D Rx 7  D9 EC 70 71 F0 FF 0F 
    969       935.019 DT     0219 Rx 3  01 00 1C 
    970       935.185 DT     0249 Rx 4  E2 0A 00 00 
    971       939.261 DT     02B9 Rx 8  00 00 D8 25 2A 9A 3A B6 
    972       941.222 DT     025F Rx 8  DF 8C 01 C3 44 C1 0A E0 
    973       942.246 DT     03C2 Rx 8  00 55 55 55 00 00 55 45 
    974       943.870 DT     0129 Rx 8  D1 23 4F 20 01 20 FF 3F 
    975       947.964 DT     020E Rx 8  99 C4 E8 6A 15 02 C6 9C 
    976       948.230 DT     021E Rx 8  00 00 00 00 00 00 80 BB 
    977       948.478 DT     022E Rx 8  6E 66 A0 48 41 C3 D0 C0 
    978       948.726 DT     02E1 Rx 8  05 00 00 00 00 00 00 00 
    979       948.956 DT     023E Rx 8  28 C6 63 95 01 6E B6 4B 
    980       949.221 DT     026E Rx 8  05 00 FE EF FF FE EF FF 
    981       949.465 DT     03FE Rx 8  00 40 00 00 00 00 91 D2 
    982       949.633 DT     0488 Rx 4  40 00 02 CE 
    983       952.657 DT     0545 Rx 8  01 00 00 00 00 10 C0 1B 
    984       953.877 DT     0129 Rx 8  FA 24 4F 20 00 20 FF 3F 
    985       954.876 DT     0221 Rx 8  40 41 05 05 00 50 D1 CF 
    986       955.582 DT     0228 Rx 2  00 2A 
    987       955.814 DT     07FF Rx 8  04 CC 16 54 61 12 B4 2A 
    988       956.048 DT     0318 Rx 8  16 03 37 0F 11 17 01 A3 
    989       956.188 DT     0418 Rx 2  02 06 
    990       956.304 DT     0128 Rx 1  00 
    991       960.974 DT     03C3 Rx 8  55 55 55 01 00 00 00 00 
    992       963.955 DT     0129 Rx 8  ED 25 4F 20 00 20 FF 3F 
    993       964.907 DT     02E1 Rx 8  10 21 04 00 00 00 26 08 
    994       965.057 DT     03F3 Rx 3  10 1B 00 
    995       965.295 DT     03F8 Rx 8  03 28 80 00 59 29 15 20 
    996       965.653 DT     02D1 Rx 2  7F 01 
    997       967.991 DT     026E Rx 8  06 00 FE EF FF FE EF FF 
    998       969.220 DT     0488 Rx 4  40 00 03 CF 
    999       972.324 DT     039D Rx 5  66 5D 41 28 00 
   1000       973.876 DT     0129 Rx 8  37 26 4F 20 00 20 FF 3F 
   1001       974.216 DT     010A Rx 7  1F AD 52 62 61 51 01 
   1002       974.430 DT     010B Rx 7  17 0D 00 00 F0 FF 0F 
   1003       974.648 DT     010C Rx 7  8C FD A0 30 22 90 00 
   1004       974.864 DT     010D Rx 7  DA ED 70 71 F0 FF 0F 
   1005       975.014 DT     0219 Rx 3  02 00 1D 
   1006       979.258 DT     02B9 Rx 8  00 00 D8 25 2A 9A 5A D6 
   1007       980.889 DT     02E1 Rx 8  29 0A A3 6A 17 00 00 00 
   1008       981.309 DT     0419 Rx 1  00 
   1009       983.888 DT     0129 Rx 8  20 27 4F 20 00 20 FF 3F 
   1010       984.054 DT     0249 Rx 4  28 0B 00 00 
   1011       984.892 DT     02E8 Rx 8  C2 00 00 00 00 80 20 4C 
   1012       985.704 DT     0545 Rx 8  02 00 0F 00 00 00 D0 2B 
   1013       987.205 DT     027D Rx 3  01 04 84 
   1014       987.971 DT     020E Rx 8  99 C4 E8 6A 15 02 06 DC 
   1015       988.239 DT     021E Rx 8  00 00 00 00 00 00 80 CC 
   1016       988.489 DT     022E Rx 8  6E 66 A0 48 41 C3 10 00 
   1017       988.741 DT     023E Rx 8  28 C6 63 95 01 6E C6 5B 
   1018       989.003 DT     026E Rx 8  07 00 FE EF FF FE EF FF 
   1019       989.270 DT     03FE Rx 8  00 40 00 00 00 00 A1 E2 
   1020       989.436 DT     0488 Rx 4  40 00 04 D0 
   1021       991.912 DT     03C2 Rx 8  29 55 00 00 00 00 00 00 
   1022       993.870 DT     0129 Rx 8  5A 28 4F 20 01 20 FF 3F 
   1023       994.250 DT     05D9 Rx 8  10 03 03 00 00 00 00 00 
   1024       996.668 DT     02E1 Rx 8  02 00 00 00 00 00 01 00 
   1025       998.270 DT     0420 Rx 6  28 01 40 4B 00 40 
   1026       999.247 DT     0259 Rx 8  D3 C0 02 00 00 00 F0 E0 
   1027      1001.293 DT     03CB Rx 5  00 00 00 00 01 
   1028      1003.869 DT     0129 Rx 8  CB 29 4F 20 FF 1F FF 3F 
   1029      1004.901 DT     0221 Rx 8  41 01 55 00 00 00 E0 9A 
   1030      1007.991 DT     026E Rx 8  08 00 FE EF FF FE EF FF 
   1031      1009.169 DT     0409 Rx 1  00 
   1032      1009.336 DT     0488 Rx 4  40 00 05 D1 
   1033      1009.586 DT     0720 Rx 8  00 00 00 00 00 00 00 00 
   1034      1012.340 DT     039D Rx 5  67 5E 41 28 00 
   1035      1012.888 DT     02E1 Rx 8  03 6C 00 02 2C 45 00 00 
   1036      1013.876 DT     0129 Rx 8  D0 2A 4F 20 01 20 FF 3F 
   1037      1014.218 DT     010A Rx 7  20 AE 52 62 61 51 01 
   1038      1014.436 DT     010B Rx 7  18 0E 00 00 F0 FF 0F 
   1039      1014.656 DT     010C Rx 7  8D FE A0 30 22 90 00 
   1040      1014.877 DT     010D Rx 7  DB EE 70 71 F0 FF 0F 
   1041      1015.027 DT     0219 Rx 3  03 00 1E 
   1042      1015.269 DT     0239 Rx 8  00 00 64 7D 7D 7D F0 C0 
   1043      1015.513 DT     0247 Rx 8  03 00 1B 00 00 40 FC 00 
   1044      1015.743 DT     004F Rx 8  1B 1E E8 02 9C E7 0A 96 
   1045      1015.991 DT     024A Rx 8  00 00 01 0F 1F 00 00 00 
   1046      1016.237 DT     03B8 Rx 8  00 00 74 74 00 00 00 00 
   1047      1016.481 DT     0334 Rx 8  3F 3F C8 00 E2 3F E0 7E 
   1048      1016.718 DT     0102 Rx 8  22 33 00 00 E8 38 11 08 
   1049      1016.962 DT     03FD Rx 8  00 00 00 42 60 01 02 80 
   1050      1018.644 DT     0545 Rx 8  40 01 31 E0 A1 0D EA 34 
   1051      1019.262 DT     02B9 Rx 8  00 00 D8 25 2A 9A 7A F6 
   1052      1020.976 DT     0103 Rx 8  11 30 00 00 96 12 11 01 
   1053      1023.879 DT     0129 Rx 8  8C 2B 4F 20 00 20 FF 3F 
   1054      1027.973 DT     020E Rx 8  99 C4 E8 6A 15 02 46 1C 
   1055      1028.421 DT     021E Rx 8  00 00 00 00 00 00 80 DD 
   1056      1028.675 DT     022E Rx 8  6E 66 A0 48 41 C3 50 40 
   1057      1028.907 DT     02E1 Rx 8  FC 19 13 1A 9E 17 0A 00 
   1058      1029.139 DT     023E Rx 8  28 C6 63 95 01 6E D6 6B 
   1059      1029.385 DT     03FE Rx 8  00 40 00 00 00 00 B1 F2 
   1060      1029.631 DT     024E Rx 8  00 80 00 04 00 00 00 00 
   1061      1029.797 DT     0488 Rx 4  40 00 06 D2 
   1062      1030.039 DT     025E Rx 8  00 20 00 81 00 20 00 81 
   1063      1030.280 DT     02A8 Rx 8  C2 00 00 00 00 80 30 1C 
   1064      1030.518 DT     026E Rx 8  09 00 FE EF FF FE EF FF 
   1065      1030.786 DT     030E Rx 8  00 00 05 01 00 00 30 47 
   1066      1031.010 DT     031E Rx 6  01 A0 0F 15 1A 1E 
   1067      1031.270 DT     0326 Rx 8  0D 00 00 00 07 14 43 64 
   1068      1031.478 DT     032E Rx 5  00 5D 30 C1 7F 
   1069      1031.698 DT     033E Rx 5  00 FF FF C1 00 
   1070      1031.912 DT     034E Rx 5  59 9E 21 0C 75 
   1071      1032.121 DT     035E Rx 5  28 26 27 0C E2 
   1072      1032.397 DT     037E Rx 8  00 00 00 00 00 00 00 00 
   1073      1032.635 DT     039E Rx 6  FF FF FF FF 9C 0A 
   1074      1033.885 DT     0129 Rx 8  41 2C 4F 20 01 20 FF 3F 
   1075      1034.389 DT     0249 Rx 4  3A 0C 00 00 
   1076      1039.269 DT     0389 Rx 8  00 00 00 60 00 80 AF 1B 
   1077      1041.969 DT     025F Rx 8  DF 8C 01 C3 44 C1 0A E0 
   1078      1042.621 DT     03C2 Rx 8  00 55 55 55 00 00 55 45 
   1079      1043.885 DT     0129 Rx 8  97 2D 4F 20 FF 1F FF 3F 
   1080      1044.683 DT     02E1 Rx 8  05 00 00 00 00 00 00 00 
   1081      1047.989 DT     026E Rx 8  0A 00 FE EF FF FE EF FF 
   1082      1049.219 DT     0488 Rx 4  40 00 07 D3 
   1083      1051.909 DT     0545 Rx 8  01 00 00 00 00 10 F0 4B 
   1084      1052.361 DT     039D Rx 5  68 5F 41 28 00 
   1085      1053.872 DT     0129 Rx 8  48 2E 4F 20 FF 1F FF 3F 
   1086      1054.218 DT     010A Rx 7  21 AF 52 62 61 51 01 
   1087      1054.434 DT     010B Rx 7  19 0F 00 00 F0 FF 0F 
   1088      1054.652 DT     010C Rx 7  8E FF A0 30 22 90 00 
   1089      1054.870 DT     010D Rx 7  DC EF 70 71 F0 FF 0F 
   1090      1055.022 DT     0219 Rx 3  04 00 1F 
   1091      1055.254 DT     0221 Rx 8  40 41 05 05 00 50 F1 EF 
   1092      1055.585 DT     0228 Rx 2  10 3A 
   1093      1055.831 DT     07FF Rx 8  05 08 A0 40 00 00 00 00 
   1094      1056.063 DT     0318 Rx 8  16 03 37 0F 11 17 03 A5 
   1095      1056.197 DT     0418 Rx 2  12 06 
   1096      1056.313 DT     0128 Rx 1  00 
   1097      1059.261 DT     02B9 Rx 8  00 00 D8 25 2A 9A 9A 16 
   1098      1060.667 DT     02E1 Rx 8  10 21 04 00 00 00 26 08 
   1099      1060.964 DT     03C3 Rx 8  00 00 00 00 00 49 00 00 
   1100      1063.880 DT     0129 Rx 8  D0 2F 4F 20 00 20 FF 3F 
   1101      1065.606 DT     02D1 Rx 2  7F 01 
   1102      1066.118 DT     03FD Rx 8  01 00 0A 00 00 00 02 80 
   1103      1067.962 DT     020E Rx 8  99 C4 E8 6A 15 02 86 5C 
   1104      1068.227 DT     021E Rx 8  00 00 00 00 00 00 80 EE 
   1105      1068.477 DT     022E Rx 8  6E 66 A0 48 41 C3 90 80 
   1106      1068.729 DT     023E Rx 8  28 C6 63 95 01 6E E6 7B 
   1107      1068.991 DT     026E Rx 8  0B 00 FE EF FF FE EF FF 
   1108      1069.255 DT     03FE Rx 8  00 40 00 00 00 00 C1 02 
   1109      1069.421 DT     0488 Rx 4  40 00 08 D4 
   1110      1073.882 DT     0129 Rx 8  35 20 4F 20 00 20 FF 3F 
   1111      1077.372 DT     02E1 Rx 8  29 0A A3 6A 17 00 00 00 
   1112      1081.308 DT     0419 Rx 1  00 
   1113      1083.874 DT     0129 Rx 8  22 21 4F 20 00 20 FF 3F 
   1114      1084.040 DT     0249 Rx 4  13 0D 00 00 
   1115      1084.876 DT     02E8 Rx 8  C2 00 00 00 00 80 30 5C 
   1116      1085.118 DT     0545 Rx 8  02 00 12 00 00 00 00 5E 
   1117      1087.207 DT     027D Rx 3  01 05 85 
   1118      1087.985 DT     026E Rx 8  20 00 7A 77 84 7B 17 7B 
   1119      1089.213 DT     0488 Rx 4  40 00 09 D5 
   1120      1091.684 DT     03C2 Rx 8  29 55 00 00 00 00 00 00 
   1121      1092.396 DT     039D Rx 5  59 50 41 28 00 
   1122      1092.684 DT     02E1 Rx 8  02 00 00 00 00 00 01 00 
   1123      1093.872 DT     0129 Rx 8  6B 22 4F 20 00 20 FF 3F 
   1124      1094.218 DT     010A Rx 7  12 A0 52 62 61 51 01 
   1125      1094.443 DT     010B Rx 7  0A 00 00 00 F0 FF 0F 
   1126      1094.663 DT     010C Rx 7  7F F0 A0 30 22 90 00 
   1127      1094.883 DT     010D Rx 7  CD E0 70 71 F0 FF 0F 
   1128      1095.037 DT     0219 Rx 3  05 00 20 
   1129      1098.271 DT     0420 Rx 6  28 01 40 4B 00 50 
   1130      1099.269 DT     0259 Rx 8  D3 C0 02 00 00 00 00 F0 
   1131      1099.499 DT     02B9 Rx 8  00 00 D8 25 2A 9A BA 36 
   1132      1101.295 DT     03CB Rx 5  00 00 00 00 01 
   1133      1103.884 DT     0129 Rx 8  7C 23 4F 20 00 20 FF 3F 
   1134      1104.902 DT     0221 Rx 8  41 01 55 00 00 00 00 BA 
   1135      1107.966 DT     020E Rx 8  99 C4 E8 62 15 02 C6 94 
   1136      1108.234 DT     021E Rx 8  00 00 00 00 00 00 80 FF 
   1137      1108.482 DT     022E Rx 8  6E 66 A0 48 41 C3 D0 C0 
   1138      1108.718 DT     02E1 Rx 8  03 6C 00 02 2C 45 00 00 
   1139      1108.950 DT     023E Rx 8  28 C6 63 95 01 6E F6 8B 
   1140      1109.202 DT     026E Rx 8  21 00 11 EA 79 2E FA 85 
   1141      1109.444 DT     03FE Rx 8  00 40 00 00 00 00 D1 12 
   1142      1109.565 DT     0409 Rx 1  00 
   1143      1109.731 DT     0488 Rx 4  40 00 0A D6 
   1144      1109.981 DT     0720 Rx 8  00 00 00 00 00 00 00 00 
   1145      1113.877 DT     0129 Rx 8  FA 24 4F 20 00 20 FF 3F 
   1146      1114.269 DT     0239 Rx 8  00 00 64 7D 7D 7D F0 D0 
   1147      1114.513 DT     0247 Rx 8  03 00 1B 00 00 40 FC 00 
   1148      1114.761 DT     024A Rx 8  00 00 01 0F 1F 00 00 00 
   1149      1115.010 DT     0448 Rx 8  00 00 00 00 00 00 00 4B 
   1150      1116.664 DT     0102 Rx 8  22 33 00 00 E8 38 11 08 
   1151      1117.642 DT     0545 Rx 8  80 01 31 90 A1 0C 1A 53 
   1152      1119.252 DT     05D9 Rx 8  01 00 00 00 00 08 00 00 
   1153      1120.990 DT     0103 Rx 8  11 30 00 00 96 14 11 01 
   1154      1123.874 DT     0129 Rx 8  40 25 4F 20 01 20 FF 3F 
   1155      1124.886 DT     02E1 Rx 8  FC 19 16 1A 9E 17 0A 00 
   1156      1127.992 DT     024E Rx 8  01 80 00 04 00 00 00 00 
   1157      1128.259 DT     025E Rx 8  01 20 00 81 00 20 00 81 
   1158      1128.511 DT     026E Rx 8  22 00 B1 D9 87 84 19 8A 
   1159      1128.717 DT     032E Rx 5  00 5D 30 D1 8F 
   1160      1128.931 DT     033E Rx 5  00 FF FF D1 10 
   1161      1129.135 DT     034E Rx 5  59 9E 21 0D 76 
   1162      1129.303 DT     0488 Rx 4  40 00 0B D7 
   1163      1129.483 DT     035E Rx 5  28 26 27 0D E3 
   1164      1129.715 DT     039E Rx 6  FF FF FF FF AD 0A 
   1165      1130.166 DT     02A8 Rx 8  C2 00 00 00 00 80 40 2C 
   1166      1132.346 DT     039D Rx 5  5A 51 41 28 00 
   1167      1133.290 DT     03C9 Rx 7  03 11 03 04 30 38 00 
   1168      1133.892 DT     0129 Rx 8  37 26 4F 20 00 20 FF 3F 
   1169      1134.216 DT     010A Rx 7  13 A1 52 62 61 51 01 
   1170      1134.434 DT     010B Rx 7  0B 01 00 00 F0 FF 0F 
   1171      1134.656 DT     010C Rx 7  80 F1 A0 30 22 90 00 
   1172      1134.872 DT     010D Rx 7  CE E1 70 71 F0 FF 0F 
   1173      1135.025 DT     0219 Rx 3  06 00 21 
   1174      1135.189 DT     0249 Rx 4  AF 0E 00 00 
   1175      1139.265 DT     02B9 Rx 8  00 00 D8 25 2A 9A DA 56 
   1176      1140.861 DT     02E1 Rx 8  05 00 00 00 00 00 00 00 
   1177      1142.079 DT     025F Rx 8  DF 8C 01 C3 44 C1 0A E0 
   1178      1142.730 DT     03C2 Rx 8  00 55 55 55 00 00 55 45 
   1179      1143.880 DT     0129 Rx 8  8D 27 4F 20 01 20 FF 3F 
   1180      1147.964 DT     020E Rx 8  99 C4 E8 62 15 02 06 D4 
   1181      1148.234 DT     021E Rx 8  00 00 00 00 00 00 80 00 
   1182      1148.485 DT     022E Rx 8  6E 66 A0 48 41 C3 10 00 
   1183      1148.739 DT     023E Rx 8  28 C6 63 95 01 6E 06 9B 
   1184      1148.999 DT     026E Rx 8  03 00 FE EF FF FE EF FF 
   1185      1149.273 DT     03FE Rx 8  00 40 00 00 00 00 E1 22 
   1186      1149.441 DT     0488 Rx 4  40 00 0C D8 
   1187      1150.683 DT     0545 Rx 8  01 00 00 00 00 10 20 7B 
   1188      1153.876 DT     0129 Rx 8  F7 28 4F 20 00 20 FF 3F 
   1189      1154.896 DT     0221 Rx 8  40 41 05 05 00 50 11 0F 
   1190      1155.878 DT     0405 Rx 8  11 33 45 37 46 41 30 4D 
   1191      1156.010 DT     0228 Rx 2  20 4A 
   1192      1156.247 DT     07FF Rx 8  01 91 45 44 42 4C 7A 00 
   1193      1156.481 DT     0318 Rx 8  16 03 38 0F 11 17 05 A8 
   1194      1156.617 DT     0418 Rx 2  22 06 
   1195      1156.733 DT     0128 Rx 1  00 
   1196      1157.153 DT     02E1 Rx 8  10 21 04 00 00 00 26 08 
   1197      1161.236 DT     03C3 Rx 8  55 55 55 01 00 00 00 00 
   1198      1163.960 DT     0129 Rx 8  A2 29 4F 20 00 20 FF 3F 
   1199      1165.130 DT     0238 Rx 8  80 3F 14 C1 1F 00 74 61 
   1200      1165.324 DT     0284 Rx 5  10 00 00 00 00 
   1201      1165.482 DT     02D1 Rx 2  7F 01 
   1202      1167.990 DT     026E Rx 8  04 00 FE EF FF FE EF FF 
   1203      1169.216 DT     0488 Rx 4  40 00 0D D9 
   1204      1172.330 DT     039D Rx 5  5B 52 41 28 00 
   1205      1172.579 DT     035D Rx 8  00 00 00 00 00 00 00 00 
   1206      1172.889 DT     02E1 Rx 8  29 0A A3 6A 17 00 00 00 
   1207      1173.879 DT     0129 Rx 8  7D 2A 4F 20 00 20 FF 3F 
   1208      1174.217 DT     010A Rx 7  14 A2 52 62 61 51 01 
   1209      1174.435 DT     010B Rx 7  0C 02 00 00 F0 FF 0F 
   1210      1174.655 DT     010C Rx 7  81 F2 A0 30 22 90 00 
   1211      1174.875 DT     010D Rx 7  CF E2 70 71 F0 FF 0F 
   1212      1175.028 DT     0219 Rx 3  07 00 22 
   1213      1179.268 DT     02B9 Rx 8  00 00 D8 25 2A 9A FA 76 
   1214      1181.312 DT     0419 Rx 1  00 
   1215      1183.662 DT     0545 Rx 8  02 00 14 00 00 00 30 90 
   1216      1183.902 DT     0129 Rx 8  21 2B 4F 20 01 20 FF 3F 
   1217      1184.070 DT     0249 Rx 4  CE 0F 00 00 
   1218      1184.812 DT     02E8 Rx 8  C2 00 00 00 00 80 40 6C 
   1219      1187.206 DT     027D Rx 3  01 06 86 
   1220      1187.961 DT     020E Rx 8  99 C4 E8 62 15 02 46 14 
   1221      1188.227 DT     021E Rx 8  00 00 00 00 00 00 80 11 
   1222      1188.479 DT     022E Rx 8  6E 66 A0 48 41 C3 50 40 
   1223      1188.707 DT     0321 Rx 8  F8 DD A7 7B 02 7A D0 67 
   1224      1188.937 DT     023E Rx 8  28 C6 63 95 01 6E 16 AB 
   1225      1189.183 DT     02E1 Rx 8  02 00 00 00 00 00 01 00 
   1226      1189.423 DT     026E Rx 8  05 00 FE EF FF FE EF FF 
   1227      1189.667 DT     03FE Rx 8  00 40 00 00 00 00 F1 32 
   1228      1189.834 DT     0488 Rx 4  40 00 0E DA 
   1229      1191.924 DT     03C2 Rx 8  29 55 00 00 00 00 00 00 
   1230      1193.870 DT     0129 Rx 8  EC 2C 4F 20 00 20 FF 3F 
   1231      1198.277 DT     0420 Rx 6  28 01 40 4B 00 60 
   1232      1199.249 DT     0259 Rx 8  D3 C0 02 00 00 00 10 00 
   1233      1201.295 DT     03CB Rx 5  00 00 00 00 01 
   1234      1203.871 DT     0129 Rx 8  53 2D 4F 20 01 20 FF 3F 
   1235      1204.670 DT     02E1 Rx 8  03 6C 00 02 2C 45 00 00 
   1236      1204.914 DT     0221 Rx 8  41 01 55 00 00 00 20 DA 
   1237      1207.990 DT     026E Rx 8  06 00 FE EF FF FE EF FF 
   1238      1209.182 DT     0409 Rx 1  00 
   1239      1209.350 DT     0488 Rx 4  40 00 0F DB 
   1240      1209.600 DT     0720 Rx 8  00 00 00 00 00 00 00 00 
   1241      1212.380 DT     039D Rx 5  5C 53 41 28 00 
   1242      1213.870 DT     0129 Rx 8  48 2E 4F 20 FF 1F FF 3F 
   1243      1214.220 DT     010A Rx 7  15 A3 52 62 61 51 01 
   1244      1214.437 DT     010B Rx 7  0D 03 00 00 F0 FF 0F 
   1245      1214.657 DT     010C Rx 7  82 F3 A0 30 22 90 00 
   1246      1214.873 DT     010D Rx 7  D0 E3 70 71 F0 FF 0F 
   1247      1215.023 DT     0219 Rx 3  08 00 23 
   1248      1215.267 DT     0239 Rx 8  00 00 64 7D 7D 7D F0 E0 
   1249      1215.511 DT     0247 Rx 8  03 00 1B 00 00 40 FC 00 
   1250      1215.759 DT     024A Rx 8  00 00 01 0F 1F 00 00 00 
   1251      1215.991 DT     0353 Rx 8  7B 0F 39 80 02 0A F8 FA 
   1252      1216.234 DT     02F8 Rx 8  E7 39 29 00 00 DE 00 1F 
   1253      1216.670 DT     0102 Rx 8  22 33 00 00 E8 38 11 08 
   1254      1217.146 DT     0545 Rx 8  40 01 31 E0 A1 0D 4A 94 
   1255      1219.268 DT     02B9 Rx 8  00 00 D8 25 2A 9A 1A 96 
   1256      1220.900 DT     02E1 Rx 8  FC 19 14 4A 9E 0F 0A 00 
   1257      1221.136 DT     0103 Rx 8  11 30 00 00 96 12 11 01 
   1258      1223.866 DT     0129 Rx 8  B9 2F 4F 20 FF 1F FF 3F 
   1259      1227.973 DT     020E Rx 8  99 C4 E8 62 15 02 86 54 
   1260      1228.239 DT     021E Rx 8  00 00 00 00 00 00 80 22 
   1261      1228.491 DT     022E Rx 8  6E 66 A0 48 41 C3 90 80 
   1262      1228.743 DT     023E Rx 8  28 C6 63 95 01 6E 26 BB 
   1263      1229.025 DT     024E Rx 8  02 80 00 04 00 00 00 00 
   1264      1229.271 DT     03FE Rx 8  00 40 00 00 00 00 01 42 
   1265      1229.511 DT     025E Rx 8  02 20 00 81 00 20 00 81 
   1266      1229.681 DT     0488 Rx 4  40 00 00 CC 
   1267      1229.921 DT     026E Rx 8  07 00 FE EF FF FE EF FF 
   1268      1230.188 DT     02A8 Rx 8  C2 00 00 00 00 80 50 3C 
   1269      1230.270 DT     032E Rx 5  00 5D 30 E1 9F 
   1270      1230.484 DT     033E Rx 5  00 FF FF E1 20 
   1271      1230.690 DT     034E Rx 5  59 9E 21 0E 77 
   1272      1230.896 DT     035E Rx 5  28 26 27 0E E4 
   1273      1231.130 DT     039E Rx 6  FF FF FF FF BE 0A 
   1274      1233.798 DT     0129 Rx 8  35 20 4F 20 00 20 FF 3F 
   1275      1234.507 DT     0249 Rx 4  9B 00 00 00 
   1276      1236.805 DT     02E1 Rx 8  05 00 00 00 00 00 00 00 
   1277      1241.631 DT     025F Rx 8  DF 8C 01 C3 44 C1 0A E0 
   1278      1242.283 DT     03C2 Rx 8  00 55 55 55 00 00 55 45 
   1279      1243.783 DT     0129 Rx 8  4B 21 4F 20 FF 1F FF 3F 
   1280      1244.137 DT     03FC Rx 7  AD 00 00 00 00 00 00 
   1281      1244.384 DT     05D9 Rx 8  03 00 FF 00 00 00 00 00 
   1282      1247.890 DT     026E Rx 8  08 00 FE EF FF FE EF FF 
   1283      1249.129 DT     0488 Rx 4  40 00 01 CD 
   1284      1249.613 DT     0545 Rx 8  01 00 00 00 00 10 50 AB 
   1285      1252.263 DT     039D Rx 5  5D 54 41 28 00 
   1286      1252.575 DT     02E1 Rx 8  10 21 04 00 00 00 26 08 
   1287      1253.769 DT     0129 Rx 8  6B 22 4F 20 00 20 FF 3F 
   1288      1254.119 DT     010A Rx 7  16 A4 52 62 61 51 01 
   1289      1254.338 DT     010B Rx 7  0E 04 00 00 F0 FF 0F 
   1290      1254.558 DT     010C Rx 7  83 F4 A0 30 22 90 00 
   1291      1254.776 DT     010D Rx 7  D1 E4 70 71 F0 FF 0F 
   1292      1254.924 DT     0219 Rx 3  09 00 24 
   1293      1255.162 DT     0221 Rx 8  40 41 05 05 00 50 31 2F 
   1294      1255.410 DT     03FE Rx 8  00 40 00 00 00 00 10 51 
   1295      1255.540 DT     0228 Rx 2  30 5A 
   1296      1255.775 DT     07FF Rx 8  02 5F 4E AC DE CD D6 30 
   1297      1256.015 DT     0318 Rx 8  16 03 38 0F 11 17 07 AA 
   1298      1256.149 DT     0418 Rx 2  32 06 
   1299      1256.265 DT     0128 Rx 1  00 
   1300      1259.167 DT     02B9 Rx 8  00 00 D8 25 2A 9A 3A B6 
   1301      1260.857 DT     03C3 Rx 8  00 00 00 00 00 49 00 00 
   1302      1263.860 DT     0129 Rx 8  15 23 4F 20 FF 1F FF 3F 
   1303      1265.056 DT     03DC Rx 8  40 73 93 0A 00 00 00 00 
   1304      1265.304 DT     03D9 Rx 8  02 00 00 90 00 00 00 00 
   1305      1265.536 DT     02D3 Rx 8  F6 00 A4 02 12 F2 0B 54 
   1306      1265.668 DT     02D1 Rx 2  7F 01 
   1307      1267.866 DT     020E Rx 8  99 C4 E8 62 15 02 C6 94 
   1308      1268.130 DT     021E Rx 8  00 00 00 00 00 00 80 33 
   1309      1268.378 DT     022E Rx 8  6E 66 A0 48 41 C3 D0 C0 
   1310      1268.633 DT     023E Rx 8  28 C6 63 95 01 6E 36 CB 
   1311      1268.893 DT     026E Rx 8  09 00 FE EF FF FE EF FF 
   1312      1269.127 DT     02E1 Rx 8  29 0A A3 6A 17 00 00 00 
   1313      1269.295 DT     0488 Rx 4  40 00 02 CE 
   1314      1273.767 DT     0129 Rx 8  93 24 4F 20 FF 1F FF 3F 
   1315      1277.857 DT     030E Rx 8  00 00 05 01 00 00 40 57 
   1316      1281.225 DT     0419 Rx 1  00 
   1317      1282.811 DT     0545 Rx 8  02 00 1A 00 00 00 60 C6 
   1318      1283.774 DT     0129 Rx 8  ED 25 4F 20 00 20 FF 3F 
   1319      1283.942 DT     0249 Rx 4  E8 01 00 00 
   1320      1284.590 DT     02E1 Rx 8  02 00 00 00 00 00 01 00 
   1321      1284.832 DT     02E8 Rx 8  C2 00 00 00 00 80 50 7C 
   1322      1287.114 DT     027D Rx 3  01 07 87 
   1323      1287.886 DT     026E Rx 8  0A 00 FE EF FF FE EF FF 
   1324      1289.129 DT     0488 Rx 4  40 00 03 CF 
   1325      1291.585 DT     03C2 Rx 8  29 55 00 00 00 00 00 00 
   1326      1292.283 DT     039D Rx 5  5E 55 41 28 00 
   1327      1293.769 DT     0129 Rx 8  9A 26 4F 20 01 20 FF 3F 
   1328      1294.119 DT     010A Rx 7  17 A5 52 62 61 51 01 
   1329      1294.339 DT     010B Rx 7  0F 05 00 00 F0 FF 0F 
   1330      1294.557 DT     010C Rx 7  84 F5 A0 30 22 90 00 
   1331      1294.776 DT     010D Rx 7  D2 E5 70 71 F0 FF 0F 
   1332      1294.928 DT     0219 Rx 3  0A 00 25 
   1333      1295.176 DT     03FE Rx 8  00 40 00 00 00 00 20 61 
   1334      1298.178 DT     0420 Rx 6  28 01 40 4B 00 70 
   1335      1299.172 DT     0259 Rx 8  D3 C0 02 00 00 00 20 10 
   1336      1299.402 DT     02B9 Rx 8  00 00 D8 25 2A 9A 5A D6 
   1337      1300.790 DT     02E1 Rx 8  03 6C 00 02 2C 45 00 00 
   1338      1301.200 DT     03CB Rx 5  00 00 00 00 01 
   1339      1303.776 DT     0129 Rx 8  20 27 4F 20 00 20 FF 3F 
   1340      1304.818 DT     0221 Rx 8  41 01 55 00 00 00 40 FA 
   1341      1307.864 DT     020E Rx 8  99 C4 E8 62 15 02 06 D4 
   1342      1308.130 DT     021E Rx 8  00 00 00 00 00 00 80 44 
   1343      1308.380 DT     022E Rx 8  6E 66 A0 48 41 C3 10 00 
   1344      1308.632 DT     023E Rx 8  28 C6 63 95 01 6E 46 DB 
   1345      1308.894 DT     026E Rx 8  0B 00 FE EF FF FE EF FF 
   1346      1309.089 DT     0409 Rx 1  00 
   1347      1309.337 DT     0425 Rx 8  00 00 00 00 00 00 00 00 
   1348      1309.503 DT     0488 Rx 4  40 00 04 D0 
   1349      1309.753 DT     0720 Rx 8  00 00 00 00 00 00 00 00 
   1350      1313.765 DT     0129 Rx 8  5A 28 4F 20 01 20 FF 3F 
   1351      1314.217 DT     0239 Rx 8  00 00 64 7D 7D 7D F0 F0 
   1352      1314.461 DT     0247 Rx 8  03 00 1B 00 00 40 FC 00 
   1353      1314.710 DT     024A Rx 8  00 00 01 0F 1F 00 00 00 
   1354      1314.920 DT     025D Rx 6  00 00 FF 00 00 00 
   1355      1315.114 DT     03DF Rx 5  00 00 04 00 01 
   1356      1315.358 DT     03FA Rx 8  01 01 02 02 04 02 05 FF 
   1357      1315.584 DT     0293 Rx 8  01 0C 55 91 55 15 34 26 
   1358      1315.718 DT     0410 Rx 2  45 00 
   1359      1315.944 DT     0545 Rx 8  80 01 31 B0 A1 0A 7A D1 
   1360      1316.585 DT     0102 Rx 8  22 33 00 00 E8 38 11 08 
   1361      1317.103 DT     02E1 Rx 8  FC 19 13 4A 9E 09 0A 00 
   1362      1320.905 DT     0103 Rx 8  11 30 00 00 96 12 11 01 
   1363      1323.773 DT     0129 Rx 8  0F 29 4F 20 01 20 FF 3F 
   1364      1327.887 DT     024E Rx 8  03 80 00 04 00 00 00 00 
   1365      1328.151 DT     025E Rx 8  03 20 00 81 00 20 00 81 
   1366      1328.401 DT     026E Rx 8  20 00 7A 77 84 7B 17 7B 
   1367      1328.608 DT     032E Rx 5  00 5D 30 F1 AF 
   1368      1328.826 DT     033E Rx 5  00 FF FF F1 30 
   1369      1329.032 DT     034E Rx 5  59 9E 21 0F 78 
   1370      1329.198 DT     0488 Rx 4  40 00 05 D1 
   1371      1329.378 DT     035E Rx 5  28 26 27 0F E5 
   1372      1329.614 DT     039E Rx 6  FF FF FF FF CF 0A 
   1373      1330.071 DT     02A8 Rx 8  C2 00 00 00 00 80 60 4C 
   1374      1332.233 DT     039D Rx 5  5F 56 41 28 00 
   1375      1333.027 DT     02E1 Rx 8  05 00 00 00 00 00 00 00 
   1376      1333.787 DT     0129 Rx 8  7D 2A 4F 20 00 20 FF 3F 
   1377      1334.123 DT     010A Rx 7  18 A6 52 62 61 51 01 
   1378      1334.339 DT     010B Rx 7  10 06 00 00 F0 FF 0F 
   1379      1334.559 DT     010C Rx 7  85 F6 A0 30 22 90 00 
   1380      1334.777 DT     010D Rx 7  D3 E6 70 71 F0 FF 0F 
   1381      1334.925 DT     0219 Rx 3  0B 00 26 
   1382      1335.092 DT     0249 Rx 4  2A 02 00 00 
   1383      1335.338 DT     03FE Rx 8  00 40 00 00 00 00 30 71 
   1384      1339.166 DT     02B9 Rx 8  00 00 D8 25 2A 9A 7A F6 
   1385      1341.738 DT     025F Rx 8  DF 8C 01 C3 44 C1 0A E0 
   1386      1342.388 DT     03C2 Rx 8  00 55 55 55 00 00 55 45 
   1387      1343.832 DT     0129 Rx 8  8C 2B 4F 20 00 20 FF 3F 
   1388      1347.860 DT     020E Rx 8  99 C4 E8 62 15 02 46 14 
   1389      1348.140 DT     021E Rx 8  00 00 00 00 00 00 80 55 
   1390      1348.394 DT     022E Rx 8  6E 66 A0 48 41 C3 50 40 
   1391      1348.637 DT     02E1 Rx 8  10 21 04 00 00 00 26 08 
   1392      1348.867 DT     023E Rx 8  28 C6 63 95 01 6E 56 EB 
   1393      1349.111 DT     0545 Rx 8  01 00 00 00 00 10 80 DB 
   1394      1349.341 DT     026E Rx 8  21 00 11 EA 79 2E FA 85 
   1395      1349.585 DT     05D9 Rx 8  24 07 00 00 00 00 F0 1F 
   1396      1349.751 DT     0488 Rx 4  40 00 06 D2 
   1397      1353.767 DT     0129 Rx 8  EC 2C 4F 20 00 20 FF 3F 
   1398      1354.787 DT     0221 Rx 8  40 41 05 05 00 50 51 4F 
   1399      1355.497 DT     0228 Rx 2  40 6A 
   1400      1355.733 DT     07FF Rx 8  03 31 08 A1 E0 42 16 41 
   1401      1355.965 DT     0318 Rx 8  16 03 38 0F 11 17 09 AC 
   1402      1356.101 DT     0418 Rx 2  42 06 
   1403      1356.217 DT     0128 Rx 1  00 
   1404      1360.888 DT     03C3 Rx 8  55 55 55 01 00 00 00 00 
   1405      1363.768 DT     0129 Rx 8  53 2D 4F 20 01 20 FF 3F 
   1406      1364.810 DT     02E1 Rx 8  29 0A A3 6A 17 00 00 00 
   1407      1365.349 DT     02D1 Rx 2  7F 01 
   1408      1367.878 DT     026E Rx 8  22 00 B1 D9 87 84 19 8A 
   1409      1369.125 DT     0488 Rx 4  40 00 07 D3 
   1410      1372.211 DT     039D Rx 5  60 57 41 28 00 
   1411      1373.807 DT     0129 Rx 8  21 2E 4F 20 00 20 FF 3F 
   1412      1374.121 DT     010A Rx 7  19 A7 52 62 61 51 01 
   1413      1374.339 DT     010B Rx 7  11 07 00 00 F0 FF 0F 
   1414      1374.555 DT     010C Rx 7  86 F7 A0 30 22 90 00 
   1415      1374.771 DT     010D Rx 7  D4 E7 70 71 F0 FF 0F 
   1416      1374.919 DT     0219 Rx 3  0C 00 27 
   1417      1375.165 DT     03FE Rx 8  00 40 00 00 00 00 40 81 
   1418      1379.168 DT     02B9 Rx 8  00 00 D8 25 2A 9A 9A 16 
   1419      1380.566 DT     02E1 Rx 8  02 00 00 00 00 00 01 00 
   1420      1381.216 DT     0419 Rx 1  00 
   1421      1381.588 DT     0545 Rx 8  02 00 22 00 00 00 90 FE 
   1422      1383.776 DT     0129 Rx 8  D0 2F 4F 20 00 20 FF 3F 
   1423      1383.942 DT     0249 Rx 4  D3 03 00 00 
   1424      1384.190 DT     03CA Rx 8  00 00 00 00 00 00 00 06 
   1425      1384.778 DT     02E8 Rx 8  C2 00 00 00 00 80 60 8C 
   1426      1387.109 DT     027D Rx 3  01 08 88 
   1427      1387.861 DT     020E Rx 8  99 C4 E8 62 15 02 86 54 
   1428      1388.125 DT     021E Rx 8  00 00 00 00 00 00 80 66 
   1429      1388.375 DT     022E Rx 8  6E 66 A0 48 41 C3 90 80 
   1430      1388.629 DT     023E Rx 8  28 C6 63 95 05 6E 66 FF 
   1431      1388.889 DT     026E Rx 8  03 00 FE EF FF FE EF FF 
   1432      1389.121 DT     0488 Rx 4  40 00 08 D4 
   1433      1391.827 DT     03C2 Rx 8  29 55 00 00 00 00 00 00 
   1434      1393.778 DT     0129 Rx 8  35 20 4F 20 00 20 FF 3F 
   1435      1396.572 DT     02E1 Rx 8  03 6C 00 02 2C 45 00 00 
   1436      1398.176 DT     0420 Rx 6  28 01 40 4B 00 80 
   1437      1399.152 DT     0259 Rx 8  D3 C0 02 00 00 00 30 20 
   1438      1399.386 DT     0399 Rx 8  F0 20 C0 E0 B0 C8 07 CB 
   1439      1399.532 DT     0413 Rx 3  49 49 49 
   1440      1401.198 DT     03CB Rx 5  00 00 00 00 01 
   1441      1403.773 DT     0129 Rx 8  22 21 4F 20 00 20 FF 3F 
   1442      1404.813 DT     0221 Rx 8  41 01 55 00 00 00 60 1A 
   1443      1405.617 DT     0405 Rx 8  12 43 33 37 39 34 34 35 
   1444      1407.889 DT     026E Rx 8  04 00 FE EF FF FE EF FF 
   1445      1409.084 DT     0409 Rx 1  00 
   1446      1409.198 DT     0415 Rx 1  45 
   1447      1409.364 DT     0488 Rx 4  40 00 09 D5 
   1448      1409.615 DT     0720 Rx 8  00 00 00 00 00 00 00 00 
   1449      1412.254 DT     039D Rx 5  61 58 41 28 00 
   1450      1413.234 DT     02E1 Rx 8  FC 19 13 5A 9E 11 0A 00 
   1451      1413.959 DT     0129 Rx 8  02 22 4F 20 FF 1F FF 3F 
   1452      1414.171 DT     010A Rx 7  1A A8 52 62 61 51 01 
   1453      1414.391 DT     010B Rx 7  12 08 00 00 F0 FF 0F 
   1454      1414.609 DT     010C Rx 7  87 F8 A0 30 22 90 00 
   1455      1414.827 DT     010D Rx 7  D5 E8 70 71 F0 FF 0F 
   1456      1414.975 DT     0219 Rx 3  0D 00 28 
   1457      1415.219 DT     03FE Rx 8  00 40 00 00 00 00 50 91 
   1458      1415.463 DT     0239 Rx 8  00 00 64 7D 7D 7D F0 00 
   1459      1415.708 DT     0247 Rx 8  03 00 1B 00 00 40 FC 00 
   1460      1415.956 DT     024A Rx 8  00 00 01 0F 1F 00 00 00 
   1461      1416.184 DT     0545 Rx 8  40 01 31 50 A1 04 AA 5B 
   1462      1416.576 DT     0102 Rx 8  22 33 00 00 E8 38 11 08 
   1463      1419.166 DT     02B9 Rx 8  00 00 D8 25 2A 9A BA 36 
   1464      1420.884 DT     0103 Rx 8  11 30 00 00 96 14 11 01 
   1465      1423.781 DT     0129 Rx 8  7C 23 4F 20 00 20 FF 3F 
   1466      1427.875 DT     020E Rx 8  99 C4 E8 62 15 02 C6 94 
   1467      1428.141 DT     021E Rx 8  00 00 00 00 00 00 80 77 
   1468      1428.391 DT     022E Rx 8  6E 66 A0 48 41 C3 D0 C0 
   1469      1428.639 DT     02E1 Rx 8  05 00 00 00 00 00 00 00 
   1470      1428.871 DT     023E Rx 8  28 C6 63 95 01 6E 76 0B 
   1471      1429.139 DT     024E Rx 8  00 80 00 04 00 00 00 00 
   1472      1429.305 DT     0488 Rx 4  40 00 0A D6 
   1473      1429.547 DT     025E Rx 8  00 20 00 81 00 20 00 81 
   1474      1429.830 DT     026E Rx 8  05 00 FE EF FF FE EF FF 
   1475      1430.040 DT     032E Rx 5  00 5D 30 01 BF 
   1476      1430.282 DT     02A8 Rx 8  C2 00 00 00 00 80 70 5C 
   1477      1430.472 DT     033E Rx 5  00 FF FF 01 40 
   1478      1430.678 DT     034E Rx 5  59 9E 21 00 69 
   1479      1430.886 DT     035E Rx 5  28 26 27 00 D6 
   1480      1431.119 DT     039E Rx 6  FF FF FF FF D0 09 
   1481      1433.767 DT     0129 Rx 8  57 24 4F 20 01 20 FF 3F 
   1482      1434.267 DT     0249 Rx 4  D3 04 00 00 
   1483      1441.663 DT     03C2 Rx 8  00 55 55 55 00 00 55 45 
   1484      1442.347 DT     025F Rx 8  DF 8C 01 C3 44 C1 0A E0 
   1485      1443.920 DT     0129 Rx 8  ED 25 4F 20 00 20 FF 3F 
   1486      1444.594 DT     02E1 Rx 8  10 21 04 00 00 00 26 08 
   1487      1447.826 DT     0545 Rx 8  01 00 00 00 00 10 B0 0B 
   1488      1448.066 DT     026E Rx 8  06 00 FE EF FF FE EF FF 
   1489      1449.124 DT     0488 Rx 4  40 00 0B D7 
   1490      1452.286 DT     039D Rx 5  62 59 41 28 00 
   1491      1453.770 DT     0129 Rx 8  37 26 4F 20 00 20 FF 3F 
   1492      1454.124 DT     010A Rx 7  1B A9 52 62 61 51 01 
   1493      1454.338 DT     010B Rx 7  13 09 00 00 F0 FF 0F 
   1494      1454.559 DT     010C Rx 7  88 F9 A0 30 22 90 00 
   1495      1454.779 DT     010D Rx 7  D6 E9 70 71 F0 FF 0F 
   1496      1454.927 DT     0219 Rx 3  0E 00 29 
   1497      1455.161 DT     0221 Rx 8  40 41 05 05 00 50 71 6F 
   1498      1455.407 DT     03FE Rx 8  00 40 00 00 00 00 60 A1 
   1499      1455.539 DT     0228 Rx 2  50 7A 
   1500      1455.771 DT     07FF Rx 8  04 CC 16 54 61 12 B4 2A 
   1501      1456.005 DT     0318 Rx 8  16 03 38 0F 11 17 0B AE 
   1502      1456.140 DT     0418 Rx 2  52 06 
   1503      1456.256 DT     0128 Rx 1  00 
   1504      1459.174 DT     02B9 Rx 8  00 00 D8 25 2A 9A DA 56 
   1505      1460.810 DT     02E1 Rx 8  29 0A A3 6A 17 00 00 00 
   1506      1461.064 DT     03C3 Rx 8  00 00 00 00 00 49 00 00 
   1507      1463.869 DT     0129 Rx 8  20 27 4F 20 00 20 FF 3F 
   1508      1465.558 DT     02D1 Rx 2  7F 01 
   1509      1467.872 DT     020E Rx 8  99 C4 E8 62 15 02 06 D4 
   1510      1468.138 DT     021E Rx 8  00 00 00 00 00 00 80 88 
   1511      1468.390 DT     022E Rx 8  6E 66 A0 48 41 C3 10 00 
   1512      1468.642 DT     023E Rx 8  28 C6 63 95 01 6E 86 1B 
   1513      1468.904 DT     026E Rx 8  07 00 FE EF FF FE EF FF 
   1514      1469.148 DT     0488 Rx 4  40 00 0C D8 
   1515      1473.771 DT     0129 Rx 8  F7 28 4F 20 00 20 FF 3F 
   1516      1476.817 DT     02E1 Rx 8  02 00 00 00 00 00 01 00 
   1517      1480.571 DT     0545 Rx 8  02 00 28 00 00 00 C0 34 
   1518      1481.215 DT     0419 Rx 1  00 
   1519      1483.771 DT     0129 Rx 8  A2 29 4F 20 00 20 FF 3F 
   1520      1483.939 DT     0249 Rx 4  83 05 00 00 
   1521      1484.770 DT     02E8 Rx 8  C2 00 00 00 00 80 70 9C 
   1522      1487.112 DT     027D Rx 3  01 09 89 
   1523      1487.888 DT     026E Rx 8  08 00 FE EF FF FE EF FF 
   1524      1489.130 DT     0488 Rx 4  40 00 0D D9 
   1525      1491.592 DT     03C2 Rx 8  29 55 00 00 00 00 00 00 
   1526      1492.238 DT     039D Rx 5  63 5A 41 28 00 
   1527      1492.590 DT     02E1 Rx 8  03 6C 00 02 2C 45 00 00 
   1528      1493.774 DT     0129 Rx 8  7D 2A 4F 20 00 20 FF 3F 
   1529      1494.127 DT     010A Rx 7  1C AA 52 62 61 51 01 
   1530      1494.343 DT     010B Rx 7  14 0A 00 00 F0 FF 0F 
   1531      1494.565 DT     010C Rx 7  89 FA A0 30 22 90 00 
   1532      1494.783 DT     010D Rx 7  D7 EA 70 71 F0 FF 0F 
   1533      1494.935 DT     0219 Rx 3  0F 00 2A 
   1534      1495.177 DT     03FE Rx 8  00 40 00 00 00 00 70 B1 
   1535      1498.179 DT     0420 Rx 6  28 01 40 4B 00 90 
   1536      1499.179 DT     0259 Rx 8  D3 C0 02 00 00 00 40 30 
   1537      1499.412 DT     02B9 Rx 8  00 00 D8 25 2A 9A FA 76 
   1538      1501.202 DT     03CB Rx 5  00 00 00 00 01 
   1539      1502.292 DT     035D Rx 8  01 00 00 00 00 00 00 00 
   1540      1503.776 DT     0129 Rx 8  8C 2B 4F 20 00 20 FF 3F 
   1541      1504.574 DT     0221 Rx 8  41 01 55 00 00 00 80 3A 
   1542      1507.860 DT     020E Rx 8  99 C4 E8 62 15 02 46 14 
   1543      1508.126 DT     021E Rx 8  00 00 00 00 00 00 80 99 
   1544      1508.378 DT     022E Rx 8  6E 66 A0 48 41 C3 50 40 
   1545      1508.632 DT     023E Rx 8  28 C6 63 95 01 6E 96 2B 
   1546      1508.864 DT     02E1 Rx 8  FC 19 12 3A 9E 16 0A 00 
   1547      1509.102 DT     026E Rx 8  09 00 FE EF FF FE EF FF 
   1548      1509.223 DT     0409 Rx 1  00 
   1549      1509.389 DT     0488 Rx 4  40 00 0E DA 
   1550      1509.639 DT     0720 Rx 8  00 00 00 00 00 00 00 00 
   1551      1513.553 DT     0545 Rx 8  40 01 31 B0 A1 0E DA F5 
   1552      1513.795 DT     0129 Rx 8  41 2C 4F 20 01 20 FF 3F 
   1553      1514.179 DT     0239 Rx 8  00 00 64 7D 7D 7D F0 10 
   1554      1514.423 DT     0247 Rx 8  03 00 1B 00 00 40 FC 00 
   1555      1514.673 DT     024A Rx 8  00 00 01 0F 1F 00 00 00 
   1556      1514.917 DT     0334 Rx 8  3F 3F C8 00 E2 3F F0 8E 
   1557      1516.587 DT     0102 Rx 8  22 33 00 00 E8 38 11 08 
   1558      1520.887 DT     0103 Rx 8  11 30 00 00 96 14 11 01 
   1559      1523.764 DT     0129 Rx 8  97 2D 4F 20 FF 1F FF 3F 
   1560      1524.834 DT     02E1 Rx 8  05 00 00 00 00 00 00 00 
   1561      1527.890 DT     024E Rx 8  01 80 00 04 00 00 00 00 
   1562      1528.156 DT     025E Rx 8  01 20 00 81 00 20 00 81 
   1563      1528.418 DT     026E Rx 8  0A 00 FE EF FF FE EF FF 
   1564      1528.686 DT     030E Rx 8  00 00 05 01 00 00 50 67 
   1565      1528.910 DT     031E Rx 6  01 B0 1F 15 1A 1E 
   1566      1529.119 DT     032E Rx 5  00 5D 30 11 CF 
   1567      1529.287 DT     0488 Rx 4  40 00 0F DB 
   1568      1529.473 DT     033E Rx 5  00 FF FF 11 50 
   1569      1529.681 DT     034E Rx 5  59 9E 21 01 6A 
   1570      1529.889 DT     035E Rx 5  28 26 27 01 D7 
   1571      1530.131 DT     02A8 Rx 8  C2 00 00 00 00 80 80 6C 
   1572      1530.339 DT     039E Rx 6  FF FF FF FF E1 09 
   1573      1532.241 DT     039D Rx 5  64 5B 41 28 00 
   1574      1534.013 DT     0129 Rx 8  21 2E 4F 20 00 20 FF 3F 
   1575      1534.224 DT     010A Rx 7  1D AB 52 62 61 51 01 
   1576      1534.440 DT     010B Rx 7  15 0B 00 00 F0 FF 0F 
   1577      1534.658 DT     010C Rx 7  8A FB A0 30 22 90 00 
   1578      1534.876 DT     010D Rx 7  D8 EB 70 71 F0 FF 0F 
   1579      1535.026 DT     0219 Rx 3  00 00 1B 
   1580      1535.192 DT     0249 Rx 4  4C 06 00 00 
   1581      1535.438 DT     03FE Rx 8  00 40 00 00 00 00 80 C1 
   1582      1539.168 DT     02B9 Rx 8  00 00 D8 25 2A 9A 1A 96 
   1583      1539.410 DT     0389 Rx 8  00 00 00 60 00 80 BF 2B 
   1584      1540.749 DT     02E1 Rx 8  10 21 04 00 00 00 26 08 
   1585      1541.775 DT     03C2 Rx 8  00 55 55 55 00 00 55 45 
   1586      1542.647 DT     025F Rx 8  DF 8C 01 C3 44 C1 0A E0 
   1587      1543.857 DT     0129 Rx 8  B9 2F 4F 20 FF 1F FF 3F 
   1588      1546.585 DT     0545 Rx 8  01 00 00 00 00 10 E0 3B 
   1589      1547.859 DT     020E Rx 8  99 C4 E8 62 15 02 86 54 
   1590      1548.124 DT     021E Rx 8  00 00 00 00 00 00 80 AA 
   1591      1548.382 DT     022E Rx 8  6E 66 A0 48 41 C3 90 80 
   1592      1548.636 DT     023E Rx 8  28 C6 63 95 01 6E A6 3B 
   1593      1548.898 DT     026E Rx 8  0B 00 FE EF FF FE EF FF 
