;$FILEVERSION=2.0
;$STARTTIME=44637.6797240972
;$COLUMNS=N,O,T,I,d,l,D
;
;   C:\Users\bayerld\Documents\Tesla\20220317-vehiclecan-öffnen.trc
;   Start time: 17.03.2022 16:18:48.162.0
;   Generated by PCAN-View v4.2.5.569
;-------------------------------------------------------------------------------
;   Connection                 Bit rate
;   PCANLight_USB_16@pcan_usb  500 kBit/s
;-------------------------------------------------------------------------------
;   Message   Time    Type ID     Rx/Tx
;   Number    Offset  |    [hex]  |  Data Length
;   |         [ms]    |    |      |  |  Data [hex] ...
;   |         |       |    |      |  |  |
;---+-- ------+------ +- --+----- +- +- +- +- -- -- -- -- -- -- --
      1         0.033 DT     013D Rx 6  02 20 AA 1A FF 02 
      2         0.662 DT     02E3 Rx 7  20 00 00 C8 01 0B 00 
      3         0.896 DT     0132 Rx 8  F9 89 F8 FF 29 40 FF 0F 
      4         1.616 DT     0201 Rx 8  04 00 00 00 00 00 00 00 
      5         2.168 DT     01FB Rx 8  01 FE FF B7 6D 0B 00 00 
      6         3.620 DT     02E1 Rx 8  05 00 00 00 00 00 00 00 
      7         3.868 DT     03DA Rx 8  00 00 00 00 00 00 00 00 
      8         4.370 DT     0228 Rx 8  03 16 54 88 50 00 E1 50 
      9         4.682 DT     055A Rx 8  01 00 00 00 00 00 00 00 
     10         4.915 DT     0405 Rx 8  11 33 45 37 46 41 30 4D 
     11         5.067 DT     0113 Rx 3  01 97 01 
     12         5.311 DT     04E2 Rx 8  00 80 01 00 00 00 08 00 
     13         5.545 DT     07FF Rx 8  01 91 45 44 42 4C 7A 00 
     14         5.781 DT     0221 Rx 8  40 41 05 05 00 50 B1 AF 
     15         6.011 DT     0263 Rx 8  01 E9 12 F2 E5 3C A5 FA 
     16         6.243 DT     0318 Rx 8  16 03 30 0F 11 12 1F B5 
     17         6.477 DT     0343 Rx 8  00 90 5C AE A1 36 00 00 
     18         6.720 DT     03F5 Rx 8  00 C8 19 09 00 00 00 00 
     19         6.946 DT     0458 Rx 7  02 02 00 80 00 00 00 
     20         7.640 DT     0545 Rx 8  01 00 00 00 00 10 C0 1B 
     21         8.724 DT     0129 Rx 8  A2 29 4F 20 00 20 FF 3F 
     22         9.840 DT     037A Rx 8  00 00 00 00 00 00 00 00 
     23        10.040 DT     013D Rx 6  02 20 AA 1A FF 02 
     24        10.324 DT     07B8 Rx 8  CB CF 3F FB 5D 08 D0 AB 
     25        10.680 DT     03C3 Rx 8  00 00 00 00 00 49 00 00 
     26        10.915 DT     0132 Rx 8  ED 89 F7 FF 28 40 FF 0F 
     27        11.618 DT     02C1 Rx 8  07 00 14 0D 0E 1D 22 47 
     28        11.830 DT     025A Rx 6  00 00 00 00 00 00 
     29        12.074 DT     0677 Rx 8  05 02 00 28 00 00 00 00 
     30        12.306 DT     0262 Rx 8  0B 00 D2 0D 00 B0 92 12 
     31        12.540 DT     0282 Rx 8  4D 05 00 81 21 01 7A 02 
     32        12.772 DT     02D2 Rx 8  D9 29 8D 4E 00 00 A1 01 
     33        13.011 DT     0252 Rx 8  00 00 8C 06 00 00 A0 0F 
     34        13.247 DT     0212 Rx 8  98 24 D6 0F 02 FF 1F 02 
     35        13.473 DT     0292 Rx 8  4A 57 4D 75 D4 27 9E 01 
     36        13.603 DT     02F2 Rx 2  12 01 
     37        14.640 DT     0381 Rx 8  18 00 00 00 00 00 00 00 
     38        15.620 DT     0201 Rx 8  05 40 18 00 10 79 B5 C1 
     39        15.858 DT     0359 Rx 8  0E 00 00 00 66 49 B9 82 
     40        16.096 DT     039A Rx 8  FC FD FD FD FD FD FD 01 
     41        16.342 DT     0553 Rx 8  00 00 00 00 00 00 E0 38 
     42        16.592 DT     06E8 Rx 8  01 00 00 00 00 00 00 00 
     43        16.724 DT     02D1 Rx 2  7F 01 
     44        18.083 DT     078A Rx 8  01 00 05 00 00 00 73 06 
     45        18.721 DT     0129 Rx 8  14 2A 4F 20 FF 1F FF 3F 
     46        19.159 DT     0552 Rx 8  00 00 00 00 00 00 E0 37 
     47        19.531 DT     02A7 Rx 8  00 00 00 00 00 84 05 84 
     48        19.773 DT     02E1 Rx 8  10 21 04 00 00 00 26 08 
     49        20.037 DT     013D Rx 6  02 20 AA 1A FF 02 
     50        20.683 DT     0383 Rx 8  97 00 1E 80 00 00 A0 00 
     51        20.918 DT     0132 Rx 8  E7 89 F7 FF 28 40 FF 0F 
     52        21.152 DT     0243 Rx 8  01 FC 5A 5A 5F 5F 7A 7A 
     53        21.332 DT     039D Rx 5  63 5A 41 28 00 
     54        21.576 DT     02A6 Rx 8  00 00 FF 1F 00 00 00 00 
     55        21.824 DT     038A Rx 8  00 00 00 00 00 00 00 00 
     56        22.060 DT     03A1 Rx 8  2B A0 22 01 00 00 D0 54 
     57        22.304 DT     0142 Rx 8  01 00 40 0A 00 00 00 00 
     58        22.548 DT     02E8 Rx 8  C2 00 00 00 00 80 10 3C 
     59        23.524 DT     02C7 Rx 8  00 00 00 00 00 47 48 FF 
     60        23.765 DT     02C1 Rx 8  80 0C 32 0B 8B 1F 00 00 
     61        24.619 DT     0261 Rx 8  31 48 63 00 14 4A DA 55 
     62        25.651 DT     0423 Rx 6  F0 00 00 00 08 00 
     63        26.121 DT     0422 Rx 6  00 00 10 00 00 00 
     64        27.613 DT     0421 Rx 7  00 0A 00 10 00 00 00 
     65        27.805 DT     0284 Rx 5  10 00 00 00 00 
     66        28.047 DT     042A Rx 8  01 90 00 48 00 24 00 02 
     67        28.291 DT     0677 Rx 8  F8 FF FF FF FF FF FF 3F 
     68        28.504 DT     0448 Rx 6  00 00 10 10 00 00 
     69        28.742 DT     0129 Rx 8  8C 2B 4F 20 00 20 FF 3F 
     70        29.630 DT     0201 Rx 8  3E 73 33 03 00 00 00 00 
     71        30.038 DT     013D Rx 6  02 20 AA 1A FF 02 
     72        30.674 DT     02C3 Rx 8  55 1B A8 36 00 00 12 00 
     73        30.904 DT     0132 Rx 8  F7 89 F8 FF 28 40 FF 0F 
     74        31.153 DT     0372 Rx 8  11 00 00 00 00 00 00 00 
     75        31.395 DT     02C4 Rx 8  02 40 03 D2 00 00 00 00 
     76        32.125 DT     0204 Rx 8  81 00 00 46 00 00 00 10 
     77        32.295 DT     022A Rx 4  00 00 19 16 
     78        32.527 DT     023E Rx 8  28 C6 63 95 01 6E 96 2B 
     79        32.734 DT     0264 Rx 6  3C 00 00 00 A0 00 
     80        32.972 DT     03A2 Rx 8  C3 04 00 00 01 80 21 01 
     81        33.212 DT     0224 Rx 8  04 08 00 40 19 01 10 08 
     82        33.392 DT     02B4 Rx 5  68 AD 25 C5 00 
     83        33.632 DT     02C2 Rx 8  00 00 00 97 01 00 C0 65 
     84        33.818 DT     0219 Rx 5  04 74 74 00 00 
     85        34.464 DT     0789 Rx 8  54 09 00 00 00 00 E0 EC 
     86        35.622 DT     02C1 Rx 8  01 00 00 14 28 70 64 00 
     87        35.865 DT     0263 Rx 8  02 00 00 00 6D 10 00 00 
     88        36.099 DT     02E1 Rx 8  29 0A A3 6A 17 00 00 00 
     89        37.611 DT     0718 Rx 7  04 FF FF 00 00 00 00 
     90        37.951 DT     0419 Rx 1  00 
     91        38.619 DT     0441 Rx 8  7F C5 44 20 DB 0E 38 83 
     92        38.853 DT     0129 Rx 8  41 2C 4F 20 01 20 FF 3F 
     93        39.879 DT     02F9 Rx 8  D0 FB 07 00 00 00 00 00 
     94        40.078 DT     013D Rx 6  02 20 AA 1A FF 02 
     95        40.328 DT     0302 Rx 8  10 00 00 00 00 00 00 00 
     96        40.580 DT     03C8 Rx 8  00 00 00 00 00 00 00 00 
     97        40.814 DT     0132 Rx 8  EA 89 F8 FF 27 40 FF 0F 
     98        41.054 DT     0545 Rx 8  02 00 21 00 00 00 D0 3D 
     99        42.190 DT     03C2 Rx 8  29 55 00 00 00 00 00 00 
    100        43.624 DT     0201 Rx 8  40 06 19 00 74 43 06 00 
    101        43.874 DT     0677 Rx 8  01 FF FF FF FF FF FF 00 
    102        45.865 DT     03F9 Rx 8  05 00 00 00 00 00 00 00 
    103        46.105 DT     039A Rx 8  FD FD FD FD FD 01 00 00 
    104        46.461 DT     0788 Rx 8  08 D5 A1 63 00 00 00 10 
    105        47.615 DT     02C1 Rx 8  02 74 C4 57 00 80 02 00 
    106        48.723 DT     0129 Rx 8  FE 2D 4F 20 00 20 FF 3F 
    107        48.901 DT     0249 Rx 4  5E 09 00 00 
    108        49.061 DT     01FA Rx 3  22 C0 01 
    109        49.640 DT     013D Rx 6  02 20 AA 1A FF 02 
    110        50.574 DT     02A1 Rx 6  00 00 98 3A 00 00 
    111        50.806 DT     0132 Rx 8  F3 89 F8 FF 27 40 FF 0F 
    112        50.952 DT     0225 Rx 3  05 45 52 
    113        51.188 DT     0243 Rx 8  7A 7D A1 0F 00 00 00 00 
    114        51.630 DT     02E1 Rx 8  02 00 00 00 00 00 01 00 
    115        51.976 DT     0339 Rx 8  00 B1 00 00 00 01 40 0F 
    116        52.228 DT     01FB Rx 8  00 FF FF FF FF FF FF FF 
    117        52.511 DT     0288 Rx 8  03 16 54 88 50 00 F1 C0 
    118        53.603 DT     0381 Rx 8  00 1E 56 46 2E 32 A1 40 
    119        55.003 DT     0420 Rx 6  28 01 40 4B 00 30 
    120        55.629 DT     0221 Rx 8  41 01 55 00 00 00 C0 7A 
    121        55.841 DT     0283 Rx 6  00 00 00 00 00 00 
    122        56.057 DT     0242 Rx 2  10 95 
    123        57.617 DT     0201 Rx 8  01 64 64 E4 21 02 96 00 
    124        57.843 DT     0261 Rx 8  56 FE 03 C2 8F 5C E5 2A 
    125        58.085 DT     0719 Rx 8  00 94 52 00 00 00 00 00 
    126        58.570 DT     0798 Rx 8  4C C9 63 19 6F 0C E0 F4 
    127        58.808 DT     0129 Rx 8  21 2E 4F 20 00 20 FF 3F 
    128        59.638 DT     02C1 Rx 8  03 00 40 66 00 F0 34 00 
    129        59.836 DT     013D Rx 6  02 20 AA 1A FF 02 
    130        60.082 DT     0677 Rx 8  02 FF FF FF FF 00 00 00 
    131        60.690 DT     03C0 Rx 8  01 00 00 00 00 00 00 01 
    132        60.922 DT     0132 Rx 8  E8 89 F8 FF 28 40 FF 0F 
    133        61.103 DT     039D Rx 5  64 5B 41 28 00 
    134        61.489 DT     020A Rx 6  F6 15 09 82 18 01 
    135        62.181 DT     0282 Rx 8  00 00 00 00 EC F3 F2 24 
    136        63.179 DT     0360 Rx 8  05 00 00 00 00 00 00 00 
    137        63.789 DT     01F9 Rx 6  00 00 00 00 00 00 
    138        64.463 DT     06C8 Rx 8  CC 01 00 2C 00 00 00 00 
    139        65.689 DT     0103 Rx 8  11 30 00 00 96 12 11 02 
    140        65.933 DT     0263 Rx 8  03 10 20 03 00 00 00 00 
    141        66.167 DT     02B3 Rx 8  08 1F 1C 0F 0D 07 08 21 
    142        66.287 DT     0409 Rx 1  00 
    143        67.625 DT     02E1 Rx 8  03 6C 00 02 2C 44 00 00 
    144        68.725 DT     0129 Rx 8  D0 2F 4F 20 00 20 FF 3F 
    145        69.644 DT     013D Rx 6  02 20 AA 1A FF 02 
    146        69.888 DT     0439 Rx 8  00 00 20 00 00 00 43 02 
    147        70.192 DT     0102 Rx 8  22 33 00 00 E8 38 11 08 
    148        70.528 DT     02A8 Rx 8  C2 00 00 00 00 80 20 0C 
    149        70.768 DT     0123 Rx 8  00 00 48 12 D2 00 00 80 
    150        71.000 DT     0132 Rx 8  EC 89 F8 FF 29 40 FF 0F 
    151        71.222 DT     0400 Rx 7  40 40 E0 BF EF FB 00 
    152        71.632 DT     02C1 Rx 8  04 CA 03 03 64 C1 39 53 
    153        71.874 DT     0201 Rx 8  22 0F 20 C0 09 60 11 01 
    154        72.099 DT     03A1 Rx 8  68 63 0D 98 04 30 E2 1C 
    155        72.345 DT     0142 Rx 8  28 00 02 00 00 00 00 00 
    156        72.629 DT     0340 Rx 8  02 00 00 00 00 00 00 00 
    157        72.861 DT     023E Rx 8  28 C6 63 95 01 6E A6 3B 
    158        73.611 DT     0545 Rx 8  80 01 36 80 A1 0B EA 17 
    159        75.611 DT     0677 Rx 8  FB FF FF FF FF FF FF 27 
    160        75.747 DT     0119 Rx 2  00 00 
    161        75.986 DT     039A Rx 8  FC FD FD FD FD FD FD 01 
    162        76.174 DT     03A3 Rx 5  00 D0 00 00 08 
    163        76.432 DT     0428 Rx 6  00 00 10 10 00 00 
    164        77.138 DT     0122 Rx 6  00 00 12 12 12 00 
    165        77.718 DT     0285 Rx 8  61 02 86 01 01 00 20 00 
    166        78.724 DT     0129 Rx 8  35 20 4F 20 00 20 FF 3F 
    167        80.045 DT     013D Rx 6  02 20 AA 1A FF 02 
    168        80.675 DT     0393 Rx 8  09 80 63 00 00 00 00 00 
    169        80.911 DT     0132 Rx 8  F6 89 F7 FF 27 40 FF 0F 
    170        81.147 DT     0243 Rx 8  FC 7F FF 9F A2 02 41 29 
    171        81.385 DT     025B Rx 8  D3 C0 02 00 00 00 C0 B0 
    172        81.617 DT     0372 Rx 8  12 00 69 D9 60 1E F1 FF 
    173        82.171 DT     03A2 Rx 8  00 C0 72 0F 05 00 46 6C 
    174        83.599 DT     0241 Rx 7  32 64 9C 0C 19 57 00 
    175        83.841 DT     02C1 Rx 8  A5 00 00 00 E0 00 00 00 
    176        84.074 DT     02E1 Rx 8  FC 19 15 6A 9E 17 0A 00 
    177        84.318 DT     0272 Rx 8  09 80 63 00 00 00 00 00 
    178        85.620 DT     0201 Rx 8  03 40 18 00 10 89 F5 C1 
    179        85.858 DT     020C Rx 8  00 40 4A 1E 00 B0 07 00 
    180        86.102 DT     03DB Rx 8  04 00 00 00 01 00 00 00 
    181        86.348 DT     043B Rx 8  01 7F 00 FF 00 00 00 00 
    182        86.588 DT     0797 Rx 8  14 09 00 00 00 00 E0 E9 
    183        87.609 DT     0718 Rx 7  00 7F 7F 7F FF FF FF 
    184        88.719 DT     0129 Rx 8  4B 21 4F 20 FF 1F FF 3F 
    185        89.665 DT     031E Rx 8  01 00 00 00 00 00 00 00 
    186        89.783 DT     041D Rx 1  00 
    187        90.079 DT     021D Rx 8  2C 20 08 14 80 00 40 10 
    188        90.277 DT     043D Rx 6  02 20 AA 1A FF 02 
    189        90.614 DT     0261 Rx 8  03 00 00 00 00 40 F4 78 
    190        90.812 DT     013D Rx 6  02 20 AA 1A FF 02 
    191        91.050 DT     0132 Rx 8  FC 89 F8 FF 27 40 FF 0F 
    192        91.222 DT     01F8 Rx 4  22 00 00 00 
    193        91.454 DT     025D Rx 8  DF 8C 01 C3 44 C1 0A E0 
    194        91.705 DT     027D Rx 8  00 00 00 00 00 00 00 00 
    195        91.945 DT     0379 Rx 8  07 C0 18 AD C5 00 04 00 
    196        92.115 DT     029D Rx 4  00 00 00 20 
    197        92.347 DT     03C2 Rx 8  00 55 55 55 00 00 55 45 
    198        92.518 DT     02BD Rx 4  00 00 00 00 
    199        92.756 DT     0381 Rx 8  01 00 00 60 47 44 44 04 
    200        92.892 DT     03E3 Rx 2  00 00 
    201        93.146 DT     03E8 Rx 8  00 00 00 00 00 00 00 00 
    202        93.394 DT     0677 Rx 8  04 0F 00 00 00 00 00 00 
    203        93.548 DT     077D Rx 3  12 00 00 
    204        93.709 DT     07DD Rx 3  FF 00 01 
    205        94.621 DT     02F1 Rx 8  07 00 00 00 00 00 00 00 
    206        95.627 DT     02C1 Rx 8  06 00 00 00 40 00 00 00 
    207        95.863 DT     0263 Rx 8  00 EE 0C F3 E4 3F A8 FA 
    208        96.107 DT     04E3 Rx 8  01 DE 06 00 00 00 08 00 
    209        97.695 DT     0139 Rx 1  00 
    210        98.185 DT     03E2 Rx 8  40 15 80 0A 00 00 04 04 
    211        98.420 DT     07A8 Rx 8  0C D5 A1 63 00 00 40 10 
    212        98.720 DT     0129 Rx 8  6B 22 4F 20 00 20 FF 3F 
    213        98.880 DT     0229 Rx 3  3B 0F 00 
    214        99.058 DT     0249 Rx 4  E2 0A 00 00 
    215        99.322 DT     054F Rx 8  00 00 00 00 00 00 00 00 
    216        99.641 DT     0201 Rx 8  04 00 00 00 00 00 00 00 
    217        99.889 DT     02E1 Rx 8  05 00 00 00 00 00 00 00 
    218       100.087 DT     013D Rx 6  02 20 AA 1A FF 02 
    219       100.663 DT     02E3 Rx 7  03 00 00 C4 01 0B 00 
    220       100.895 DT     0132 Rx 8  E8 89 F8 FF 28 40 FF 0F 
    221       101.075 DT     039D Rx 5  65 5C 41 28 00 
    222       102.171 DT     01FB Rx 8  01 FE FF B7 6D 0B 00 00 
    223       103.823 DT     03DA Rx 8  00 00 00 00 00 00 00 00 
    224       104.372 DT     0228 Rx 8  03 16 54 88 50 00 F1 60 
    225       104.606 DT     0113 Rx 3  01 97 01 
    226       104.840 DT     07FF Rx 8  02 5F 4E AC DE CD D6 30 
    227       105.074 DT     0318 Rx 8  16 03 30 0F 11 12 01 97 
    228       105.322 DT     04E2 Rx 8  01 6C 07 FE 0F 00 08 00 
    229       105.548 DT     0458 Rx 7  02 02 00 80 00 00 00 
    230       105.780 DT     0221 Rx 8  40 41 05 05 00 50 D1 CF 
    231       106.016 DT     0343 Rx 8  00 90 64 7E A1 36 00 00 
    232       106.256 DT     039A Rx 8  FD FD FD FD FD 01 00 00 
    233       106.499 DT     03F5 Rx 8  00 C8 19 09 00 00 00 00 
    234       106.741 DT     0545 Rx 8  01 00 00 00 00 10 F0 4B 
    235       107.619 DT     02C1 Rx 8  07 00 14 0D 0E 1D 22 47 
    236       107.863 DT     0677 Rx 8  05 02 00 28 00 00 00 00 
    237       108.727 DT     0129 Rx 8  7C 23 4F 20 00 20 FF 3F 
    238       109.843 DT     037A Rx 8  01 00 00 00 00 00 00 00 
    239       110.042 DT     013D Rx 6  02 20 AA 1A FF 02 
    240       110.308 DT     07B8 Rx 8  EC 98 63 00 00 00 E0 69 
    241       110.718 DT     0132 Rx 8  EE 89 F8 FF 27 40 FF 0F 
    242       110.952 DT     0243 Rx 8  01 FC 5A 5A 5F 5F 7A 7A 
    243       111.188 DT     03C3 Rx 8  55 55 55 01 00 00 00 00 
    244       112.168 DT     0262 Rx 8  0B 00 D2 0D 00 B0 92 12 
    245       112.408 DT     0282 Rx 8  4D 05 00 01 08 01 7A 02 
    246       112.638 DT     023E Rx 8  28 C6 63 95 01 6E B6 4B 
    247       112.871 DT     02D2 Rx 8  D9 29 8D 4E 00 00 A1 01 
    248       113.109 DT     0252 Rx 8  00 00 8C 06 00 00 A0 0F 
    249       113.345 DT     0212 Rx 8  98 24 D6 0F 02 FF 1F 02 
    250       113.571 DT     0292 Rx 8  4A 57 4D 75 D4 27 9E 01 
    251       113.812 DT     0201 Rx 8  05 40 18 00 10 79 B5 C1 
    252       113.942 DT     02F2 Rx 2  12 01 
    253       114.178 DT     03B2 Rx 8  26 1D 74 D0 01 00 00 00 
    254       115.626 DT     02E1 Rx 8  10 21 04 00 00 00 26 08 
    255       115.870 DT     0359 Rx 8  0F 00 00 00 1E 00 00 00 
    256       116.115 DT     0553 Rx 8  00 00 00 00 00 00 F0 48 
    257       116.361 DT     06E8 Rx 8  CC 01 00 2C 00 00 00 00 
    258       116.507 DT     02D1 Rx 2  7F 01 
    259       117.397 DT     024A Rx 1  03 
    260       118.082 DT     076A Rx 8  00 63 CB D8 02 00 00 00 
    261       118.320 DT     07AA Rx 8  03 50 F8 1C 06 05 00 00 
    262       118.729 DT     078A Rx 8  01 00 06 00 00 00 05 00 
    263       118.965 DT     0129 Rx 8  FA 24 4F 20 00 20 FF 3F 
    264       119.209 DT     0552 Rx 8  00 00 00 00 00 00 F0 47 
    265       119.521 DT     02A7 Rx 8  00 00 00 00 00 84 05 84 
    266       119.761 DT     02C1 Rx 8  80 0C 32 0B 8B 1F 00 00 
    267       120.039 DT     013D Rx 6  02 20 AA 1A FF 02 
    268       120.683 DT     0383 Rx 8  97 00 1E 80 00 00 A0 00 
    269       120.914 DT     0132 Rx 8  F7 89 F8 FF 28 40 FF 0F 
    270       121.522 DT     02A6 Rx 8  00 00 FF 1F 00 00 00 00 
    271       121.760 DT     03A1 Rx 8  2B A0 22 01 00 00 F0 74 
    272       122.008 DT     038A Rx 8  01 00 00 00 00 00 00 00 
    273       122.252 DT     0142 Rx 8  01 00 40 0A 00 00 00 00 
    274       122.494 DT     02E8 Rx 8  C2 00 00 00 00 80 20 4C 
    275       123.516 DT     02C7 Rx 8  00 00 00 00 00 47 48 FF 
    276       123.748 DT     0261 Rx 8  00 10 29 00 D6 43 00 93 
    277       123.992 DT     0677 Rx 8  F8 FF FF FF FF FF FF 3F 
    278       125.646 DT     0423 Rx 6  F0 00 00 00 08 00 
    279       125.877 DT     0263 Rx 8  01 E9 12 F2 E5 3C A5 FA 
    280       126.125 DT     0422 Rx 6  00 00 10 00 00 00 
    281       127.497 DT     0313 Rx 8  02 64 64 01 00 00 00 E1 
    282       127.739 DT     0201 Rx 8  3E 73 33 03 00 00 00 00 
    283       127.963 DT     0421 Rx 7  00 0A 00 10 00 00 00 
    284       128.205 DT     042A Rx 8  01 90 00 48 00 24 00 02 
    285       128.417 DT     0448 Rx 6  00 00 10 10 00 00 
    286       128.663 DT     07C8 Rx 8  0A 01 D0 00 30 00 1F 00 
    287       128.899 DT     0129 Rx 8  ED 25 4F 20 00 20 FF 3F 
    288       129.140 DT     0285 Rx 8  02 D3 00 00 00 00 0E 00 
    289       130.040 DT     013D Rx 6  02 20 AA 1A FF 02 
    290       130.684 DT     02C3 Rx 8  00 00 00 A6 01 00 80 69 
    291       130.922 DT     0132 Rx 8  F5 89 F7 FF 25 40 FF 0F 
    292       131.210 DT     02C4 Rx 8  03 01 14 E0 00 0C 40 00 
    293       131.624 DT     02C1 Rx 8  01 00 00 14 28 70 64 00 
    294       131.873 DT     0204 Rx 8  81 00 00 46 00 00 00 10 
    295       132.043 DT     022A Rx 4  00 00 19 16 
    296       132.251 DT     0264 Rx 6  3B 00 00 00 A0 00 
    297       132.485 DT     02E1 Rx 8  29 0A A3 6A 17 00 00 00 
    298       132.717 DT     0381 Rx 8  22 59 F6 77 00 F0 3C 64 
    299       132.958 DT     0224 Rx 8  04 08 00 40 19 01 10 08 
    300       133.140 DT     02B4 Rx 5  68 AD 25 C2 00 
    301       133.376 DT     02C2 Rx 8  55 5B A9 06 00 00 12 00 
    302       133.614 DT     03A2 Rx 8  C3 04 00 00 01 80 21 01 
    303       133.804 DT     0219 Rx 5  F0 1F FF FF 00 
    304       134.468 DT     0789 Rx 8  54 09 00 00 00 00 F0 FC 
    305       135.884 DT     039A Rx 8  FC FD FD FD FD FD FD 01 
    306       137.603 DT     0718 Rx 7  01 FF FF FF FF FF 00 
    307       137.967 DT     0419 Rx 1  00 
    308       138.619 DT     0441 Rx 8  7F C5 44 20 DB 0E 3C 87 
    309       138.855 DT     0129 Rx 8  37 26 4F 20 00 20 FF 3F 
    310       139.639 DT     0301 Rx 8  10 00 00 00 2C F7 A4 F2 
    311       139.879 DT     0545 Rx 8  02 00 25 00 00 00 00 71 
    312       140.077 DT     013D Rx 6  02 20 AA 1A FF 02 
    313       140.323 DT     02F9 Rx 8  D0 FB 07 08 00 00 00 00 
    314       140.574 DT     03C8 Rx 8  01 00 00 00 00 00 00 00 
    315       140.806 DT     0132 Rx 8  F3 89 F8 FF 27 40 FF 0F 
    316       141.042 DT     0243 Rx 8  7A 7D A1 0F 00 00 00 00 
    317       141.226 DT     039D Rx 5  66 5D 41 28 00 
    318       141.476 DT     0677 Rx 8  01 FF FF FF FF FF FF 00 
    319       141.712 DT     0201 Rx 8  40 06 19 00 74 43 06 00 
    320       142.182 DT     02E2 Rx 8  D8 16 00 00 00 00 00 00 
    321       142.425 DT     03C2 Rx 8  29 55 00 00 00 00 00 00 
    322       143.629 DT     02C1 Rx 8  02 74 C4 57 00 80 02 00 
    323       145.691 DT     0303 Rx 8  0A 01 CD 00 2D 00 24 00 
    324       145.941 DT     03F9 Rx 8  00 00 00 00 00 00 00 00 
    325       146.473 DT     0788 Rx 8  01 00 00 00 FF A1 08 00 
    326       147.617 DT     02E1 Rx 8  02 00 00 00 00 00 01 00 
    327       148.717 DT     0129 Rx 8  49 27 4F 20 FF 1F FF 3F 
    328       148.896 DT     0249 Rx 4  28 0B 00 00 
    329       149.064 DT     01FA Rx 3  22 C0 01 
    330       149.642 DT     013D Rx 6  02 20 AA 1A FF 02 
    331       150.574 DT     02A1 Rx 6  00 00 98 3A 00 00 
    332       150.806 DT     0132 Rx 8  E8 89 F8 FF 27 40 FF 0F 
    333       150.952 DT     0225 Rx 3  05 45 52 
    334       151.966 DT     0339 Rx 8  00 B1 00 00 00 01 40 0F 
    335       152.219 DT     01FB Rx 8  00 FF FF FF FF FF FF FF 
    336       152.449 DT     023E Rx 8  28 C6 63 95 01 6E C6 5B 
    337       152.681 DT     0288 Rx 8  03 16 54 88 50 00 01 D0 
    338       153.825 DT     043A Rx 8  01 00 00 00 00 00 00 00 
    339       155.003 DT     0420 Rx 6  28 01 40 4B 00 40 
    340       155.635 DT     02C1 Rx 8  03 00 40 66 00 F0 34 00 
    341       155.869 DT     0201 Rx 8  01 64 64 E5 21 02 96 00 
    342       156.105 DT     0221 Rx 8  41 01 55 00 00 00 E0 9A 
    343       156.234 DT     0242 Rx 2  10 95 
    344       156.476 DT     0263 Rx 8  02 00 00 00 6D 10 00 00 
    345       156.704 DT     0261 Rx 8  31 48 78 00 14 4A 1A AA 
    346       156.916 DT     0283 Rx 6  00 00 00 00 00 00 
    347       157.148 DT     02B3 Rx 8  A9 4F 1F 00 00 64 7B 66 
    348       157.394 DT     0677 Rx 8  02 FF FF FF FF 00 00 00 
    349       157.824 DT     0719 Rx 8  01 00 00 00 00 00 00 00 
    350       158.568 DT     0798 Rx 8  05 00 00 00 00 00 F0 FD 
    351       158.805 DT     0129 Rx 8  F7 28 4F 20 00 20 FF 3F 
    352       160.039 DT     013D Rx 6  02 20 AA 1A FF 02 
    353       160.693 DT     03C0 Rx 8  02 00 00 04 00 00 00 00 
    354       160.925 DT     0132 Rx 8  F1 89 F8 FF 28 40 FF 0F 
    355       162.183 DT     0282 Rx 8  00 00 00 00 EC F3 F2 24 
    356       163.185 DT     0360 Rx 8  06 00 00 00 00 00 00 00 
    357       163.621 DT     02E1 Rx 8  03 6C 00 02 2C 44 00 00 
    358       163.834 DT     01F9 Rx 6  00 00 00 00 00 00 
    359       164.488 DT     06C8 Rx 8  01 00 00 00 00 00 00 00 
    360       165.692 DT     0103 Rx 8  11 30 00 00 96 14 11 02 
    361       165.932 DT     039A Rx 8  FD FD FD FD FD 01 00 00 
    362       166.318 DT     0409 Rx 1  00 
    363       167.626 DT     02C1 Rx 8  04 CA 03 03 64 C1 39 53 
    364       168.721 DT     0129 Rx 8  A2 29 4F 20 00 20 FF 3F 
    365       169.633 DT     0201 Rx 8  1A 0F 20 C0 09 60 11 01 
    366       169.831 DT     013D Rx 6  02 20 AA 1A FF 02 
    367       170.075 DT     0439 Rx 8  00 00 20 00 00 00 43 02 
    368       170.311 DT     0102 Rx 8  22 33 00 00 E8 38 11 08 
    369       170.551 DT     02A8 Rx 8  C2 00 00 00 00 80 30 1C 
    370       170.791 DT     0123 Rx 8  00 00 48 12 D2 00 00 80 
    371       171.026 DT     0232 Rx 8  4A 00 D0 09 BD 04 00 00 
    372       171.257 DT     0132 Rx 8  EC 89 F8 FF 26 40 FF 0F 
    373       171.493 DT     0243 Rx 8  FC 7F FF 9F A2 02 41 29 
    374       171.735 DT     0381 Rx 8  03 80 80 80 80 80 00 00 
    375       171.963 DT     03A1 Rx 8  68 63 0D 98 04 34 02 40 
    376       172.209 DT     0142 Rx 8  28 00 02 00 00 00 00 00 
    377       172.432 DT     0400 Rx 7  40 40 E0 BF EF FB 00 
    378       172.632 DT     038B Rx 6  FF FF 77 19 1C 00 
    379       172.880 DT     0340 Rx 8  03 00 00 00 00 00 00 00 
    380       173.108 DT     0545 Rx 8  40 01 31 B0 A1 0A 1A 31 
    381       173.352 DT     0677 Rx 8  FB FF FF FF FF FF FF 27 
    382       173.600 DT     0752 Rx 8  06 00 00 00 00 00 00 00 
    383       173.830 DT     0312 Rx 8  00 44 38 72 33 62 CB 17 
    384       174.029 DT     0374 Rx 6  A6 E0 31 E5 68 04 
    385       174.229 DT     0332 Rx 6  09 1A 81 06 0A 35 
    386       174.467 DT     0300 Rx 8  0D 03 00 00 16 8C 35 2A 
    387       174.697 DT     0352 Rx 8  20 82 CE 73 9E 23 00 8E 
    388       174.831 DT     0410 Rx 2  45 00 
    389       174.982 DT     0452 Rx 3  E7 50 09 
    390       175.228 DT     03F2 Rx 8  02 0F C5 00 00 00 00 00 
    391       175.466 DT     03D2 Rx 8  9F 35 03 00 52 0B 04 00 
    392       175.654 DT     03A3 Rx 5  00 D0 00 00 08 
    393       175.790 DT     0119 Rx 2  00 00 
    394       175.957 DT     0472 Rx 4  78 60 3A 00 
    395       176.455 DT     0428 Rx 6  00 00 10 10 00 00 
    396       177.141 DT     0122 Rx 6  00 00 12 12 12 00 
    397       178.373 DT     0293 Rx 8  01 0C 55 91 55 15 C4 B6 
    398       178.585 DT     0253 Rx 7  64 C8 A7 64 C8 47 07 
    399       178.823 DT     0129 Rx 8  7D 2A 4F 20 00 20 FF 3F 
    400       179.633 DT     0285 Rx 8  03 75 9D 4B 8A 00 00 00 
    401       179.876 DT     02C1 Rx 8  A5 00 00 00 E0 00 00 00 
    402       180.074 DT     013D Rx 6  02 20 AA 1A FF 02 
    403       180.308 DT     02E1 Rx 8  FC 19 12 6A 9E 0F 0A 00 
    404       180.692 DT     0393 Rx 8  06 00 FC E0 07 C0 1E 20 
    405       180.924 DT     0132 Rx 8  F1 89 F9 FF 28 40 FF 0F 
    406       181.162 DT     025B Rx 8  D3 C0 02 00 00 00 D0 C0 
    407       181.412 DT     0320 Rx 8  00 00 00 00 00 00 00 00 
    408       181.643 DT     0372 Rx 8  00 06 80 55 B1 21 54 42 
    409       181.825 DT     039D Rx 5  67 5E 41 28 00 
    410       182.061 DT     0772 Rx 8  00 2A 7E 09 6A 09 C4 09 
    411       182.295 DT     03A2 Rx 8  00 C0 F2 0B 05 80 46 6C 
    412       183.593 DT     0241 Rx 7  32 64 9C 0C 19 57 00 
    413       183.829 DT     0201 Rx 8  03 40 18 00 10 89 F5 C1 
    414       184.159 DT     0272 Rx 8  06 00 FC E0 07 C0 1E 20 
    415       185.687 DT     020C Rx 8  00 40 4A 1E 00 B0 07 00 
    416       185.932 DT     0263 Rx 8  03 10 20 03 00 00 00 00 
    417       186.314 DT     0797 Rx 8  14 09 00 00 00 00 F0 F9 
    418       187.630 DT     0677 Rx 8  04 0F 00 00 00 00 00 00 
    419       187.860 DT     0718 Rx 7  02 FF FF FF FF FF FF 
    420       188.722 DT     0129 Rx 8  8C 2B 4F 20 00 20 FF 3F 
    421       189.624 DT     0261 Rx 8  56 FE 03 C2 8F 5C 25 6A 
    422       189.870 DT     075D Rx 8  07 00 FE A8 00 00 00 00 
    423       190.121 DT     031E Rx 8  02 00 00 00 00 00 00 00 
    424       190.239 DT     041D Rx 1  00 
    425       190.609 DT     013D Rx 6  02 20 AA 1A FF 02 
    426       190.846 DT     021D Rx 8  2C 20 08 14 80 00 40 10 
    427       191.080 DT     0132 Rx 8  F1 89 F8 FF 25 40 FF 0F 
    428       191.252 DT     01F8 Rx 4  22 00 00 00 
    429       191.388 DT     03E3 Rx 2  00 00 
    430       191.586 DT     043D Rx 6  02 20 AA 1A FF 02 
    431       191.818 DT     025D Rx 8  DF 8C 01 C3 44 C1 0A E0 
    432       192.068 DT     02C1 Rx 8  06 00 00 00 40 00 00 00 
    433       192.301 DT     023E Rx 8  28 C6 63 95 01 6E D6 6B 
    434       192.551 DT     027D Rx 8  00 00 00 00 00 00 00 00 
    435       192.721 DT     029D Rx 4  00 00 00 20 
    436       192.957 DT     0379 Rx 8  00 00 30 82 9A 19 1A 01 
    437       193.127 DT     02BD Rx 4  00 00 00 00 
    438       193.359 DT     03C2 Rx 8  00 55 55 55 00 00 55 45 
    439       193.614 DT     03E8 Rx 8  01 00 00 00 00 00 00 00 
    440       194.002 DT     077D Rx 3  12 00 00 
    441       194.158 DT     07DD Rx 3  FF 00 01 
    442       194.610 DT     02F1 Rx 8  08 01 00 60 04 90 01 00 
    443       195.618 DT     02E1 Rx 8  05 00 00 00 00 00 00 00 
    444       195.861 DT     04E3 Rx 8  02 13 07 05 00 00 08 00 
    445       196.099 DT     039A Rx 8  FC FD FD FD FD FD FD 01 
    446       197.625 DT     0201 Rx 8  04 00 00 00 00 00 00 00 
    447       197.741 DT     0139 Rx 1  00 
    448       198.189 DT     03E2 Rx 8  40 15 80 0A 00 00 04 04 
    449       198.431 DT     07A8 Rx 8  01 00 00 00 FF A1 08 00 
    450       198.719 DT     0129 Rx 8  EC 2C 4F 20 00 20 FF 3F 
    451       198.879 DT     0229 Rx 3  46 00 00 
    452       199.060 DT     0249 Rx 4  3A 0C 00 00 
    453       199.312 DT     0330 Rx 8  10 00 38 2E 32 52 00 00 
    454       199.576 DT     054F Rx 8  00 00 00 00 00 00 00 00 
    455       200.038 DT     013D Rx 6  02 20 AA 1A FF 02 
    456       200.663 DT     02E3 Rx 7  C4 03 61 00 0C 06 00 
    457       200.895 DT     0132 Rx 8  E8 89 F8 FF 27 40 FF 0F 
    458       201.129 DT     0243 Rx 8  01 FC 5A 5A 5F 5F 7A 7A 
    459       202.175 DT     01FB Rx 8  01 FE FF B7 6D 0B 00 00 
    460       203.617 DT     02C1 Rx 8  07 00 14 0D 0E 1D 22 47 
    461       203.865 DT     03DA Rx 8  00 00 00 00 00 00 00 00 
    462       204.109 DT     0677 Rx 8  05 02 00 28 00 00 00 00 
    463       204.377 DT     0228 Rx 8  03 16 54 88 50 00 01 70 
    464       204.609 DT     0113 Rx 3  01 97 01 
    465       204.846 DT     07FF Rx 8  03 31 08 A1 E0 42 16 41 
    466       205.080 DT     0318 Rx 8  16 03 30 0F 11 12 03 99 
    467       205.324 DT     04E2 Rx 8  02 69 00 01 00 00 08 00 
    468       205.550 DT     0458 Rx 7  02 02 00 80 00 00 00 
    469       205.782 DT     0221 Rx 8  40 41 05 05 00 50 F1 EF 
    470       206.018 DT     0343 Rx 8  00 90 64 7E A1 51 00 00 
    471       206.260 DT     03F5 Rx 8  00 C8 19 09 00 00 00 00 
    472       206.504 DT     0545 Rx 8  01 00 00 00 00 10 20 7B 
    473       206.658 DT     0726 Rx 3  0E 00 00 
    474       208.723 DT     0129 Rx 8  FE 2D 4F 20 00 20 FF 3F 
    475       209.633 DT     0381 Rx 8  04 80 80 80 80 80 00 00 
    476       209.831 DT     013D Rx 6  02 20 AA 1A FF 02 
    477       210.077 DT     037A Rx 8  02 00 00 00 00 00 00 00 
    478       210.333 DT     07B8 Rx 8  05 80 59 DE 8D 00 F0 DB 
    479       210.687 DT     03C3 Rx 8  00 00 00 00 00 49 00 00 
    480       210.921 DT     0132 Rx 8  EC 89 F7 FF 27 40 FF 0F 
    481       211.634 DT     0201 Rx 8  05 40 18 00 10 79 B5 C1 
    482       211.876 DT     02E1 Rx 8  10 21 04 00 00 00 26 08 
    483       212.178 DT     0262 Rx 8  0B 00 D2 0D 00 B0 92 12 
    484       212.414 DT     0282 Rx 8  4D 05 00 81 43 01 7A 02 
    485       213.332 DT     02D2 Rx 8  D9 29 8D 4E 00 00 A1 01 
    486       213.570 DT     0252 Rx 8  00 00 8C 06 00 00 A0 0F 
    487       213.807 DT     0212 Rx 8  98 24 D6 0F 02 FF 1F 02 
    488       214.033 DT     0292 Rx 8  4A 57 4D 75 D4 27 9E 01 
    489       214.163 DT     02F2 Rx 2  12 01 
    490       215.627 DT     02C1 Rx 8  80 0C 32 0B 8B 1F 00 00 
    491       215.863 DT     0263 Rx 8  00 EE 0C F3 E4 3F A8 FA 
    492       216.113 DT     0359 Rx 8  00 00 00 00 00 00 00 00 
    493       216.360 DT     0553 Rx 8  00 00 00 00 00 00 00 58 
    494       216.610 DT     06E8 Rx 8  01 00 00 00 00 00 00 00 
    495       216.742 DT     02D1 Rx 2  7F 01 
    496       218.074 DT     077A Rx 8  01 00 3C 5D 60 5D 48 5D 
    497       218.514 DT     07AA Rx 8  04 00 10 C0 00 1A 00 00 
    498       218.748 DT     0129 Rx 8  8C 2E 4F 20 01 20 FF 3F 
    499       218.989 DT     078A Rx 8  01 00 07 00 00 00 B2 04 
    500       219.235 DT     0552 Rx 8  00 00 00 00 00 00 00 57 
    501       219.511 DT     02A7 Rx 8  00 00 00 00 00 84 05 84 
    502       219.709 DT     013D Rx 6  02 20 AA 1A FF 02 
    503       219.953 DT     0677 Rx 8  F8 FF FF FF FF FF FF 3F 
    504       220.687 DT     0383 Rx 8  97 00 1E 80 00 00 A0 00 
    505       220.919 DT     0132 Rx 8  EA 89 F8 FF 26 40 FF 0F 
    506       221.102 DT     039D Rx 5  68 5F 41 28 00 
    507       221.512 DT     02A6 Rx 8  00 00 FF 1F 00 00 00 00 
    508       221.746 DT     03A1 Rx 8  2B A0 22 01 00 00 10 94 
    509       221.992 DT     038A Rx 8  03 00 00 00 00 00 00 00 
    510       222.236 DT     0142 Rx 8  01 00 40 0A 00 00 00 00 
    511       222.476 DT     02E8 Rx 8  C2 00 00 00 00 80 30 5C 
    512       222.714 DT     0261 Rx 8  03 00 00 00 00 40 34 B8 
    513       223.506 DT     02C7 Rx 8  00 00 00 00 00 47 48 FF 
    514       225.621 DT     0201 Rx 8  3E 73 33 03 00 00 00 00 
    515       225.827 DT     0423 Rx 6  F0 00 00 00 08 00 
    516       226.067 DT     039A Rx 8  FD FD FD FD FD 01 00 00 
    517       226.280 DT     0422 Rx 6  00 00 10 00 00 00 
    518       227.494 DT     0213 Rx 2  90 A5 
    519       227.734 DT     02C1 Rx 8  01 00 00 14 28 70 64 00 
    520       227.980 DT     0082 Rx 8  00 FE 00 80 00 80 00 80 
    521       228.214 DT     02E1 Rx 8  29 0A A3 6A 17 00 00 00 
    522       228.438 DT     0421 Rx 7  00 0A 00 10 00 00 00 
    523       228.680 DT     042A Rx 8  01 90 00 48 00 24 00 02 
    524       228.916 DT     0129 Rx 8  7D 2F 4F 20 01 20 FF 3F 
    525       229.129 DT     0448 Rx 6  00 00 10 10 00 00 
    526       230.053 DT     013D Rx 6  02 20 AA 1A FF 02 
    527       230.683 DT     02C3 Rx 8  55 1B A8 36 00 00 12 00 
    528       230.917 DT     0132 Rx 8  EE 89 F7 FF 28 40 FF 0F 
    529       231.157 DT     0243 Rx 8  7A 7D A9 0F 00 00 00 00 
    530       231.397 DT     0372 Rx 8  01 9C D9 00 40 00 58 01 
    531       231.638 DT     02C4 Rx 8  04 00 00 00 00 24 59 4B 
    532       231.886 DT     0204 Rx 8  81 00 00 46 00 00 00 10 
    533       232.056 DT     022A Rx 4  00 00 19 16 
    534       232.265 DT     0264 Rx 6  3B 00 00 00 A0 00 
    535       232.495 DT     023E Rx 8  28 C6 63 95 01 6E E6 7B 
    536       232.733 DT     03A2 Rx 8  C3 04 00 00 01 80 21 01 
    537       232.973 DT     0224 Rx 8  04 08 00 40 19 01 10 08 
    538       233.153 DT     02B4 Rx 5  68 AD 25 C7 00 
    539       233.393 DT     02C2 Rx 8  00 00 00 97 01 00 C0 65 
    540       233.771 DT     0219 Rx 5  F1 1F FF FF 03 
    541       234.478 DT     0789 Rx 8  54 09 00 00 00 00 00 0C 
    542       235.626 DT     0677 Rx 8  01 FF FF FF FF FF FF 00 
    543       237.616 DT     0718 Rx 7  03 FF FF FF FF FF FF 
    544       237.956 DT     0419 Rx 1  00 
    545       238.626 DT     0441 Rx 8  7F C5 44 20 DB 0E 00 4B 
    546       238.860 DT     0129 Rx 8  5C 20 4F 20 FF 1F FF 3F 
    547       239.100 DT     0545 Rx 8  02 00 2B 00 00 00 30 A7 
    548       239.667 DT     02C1 Rx 8  02 74 C4 57 00 80 02 00 
    549       239.903 DT     0201 Rx 8  40 06 19 00 74 43 06 00 
    550       240.101 DT     013D Rx 6  02 20 AA 1A FF 02 
    551       240.343 DT     02F9 Rx 8  D0 FB 07 10 00 00 00 00 
    552       240.591 DT     03C8 Rx 8  02 00 00 00 00 00 00 00 
    553       240.825 DT     0132 Rx 8  EB 89 F8 FF 28 40 FF 0F 
    554       242.197 DT     03C2 Rx 8  29 55 00 00 00 00 00 00 
    555       243.624 DT     02E1 Rx 8  02 00 00 00 00 00 01 00 
    556       245.708 DT     0263 Rx 8  01 E9 12 F2 E5 3C A5 FA 
    557       245.950 DT     02B3 Rx 8  0A 2C 00 78 00 00 00 00 
    558       246.204 DT     03F9 Rx 8  01 00 00 00 00 00 00 00 
    559       246.480 DT     0788 Rx 8  FE 1E 00 00 00 00 00 00 
    560       248.628 DT     0381 Rx 8  05 00 00 00 00 00 00 00 
    561       248.864 DT     0129 Rx 8  22 21 4F 20 00 20 FF 3F 
    562       249.043 DT     0249 Rx 4  13 0D 00 00 
    563       249.193 DT     01FA Rx 3  22 C0 01 
    564       249.637 DT     013D Rx 6  02 20 AA 1A FF 02 
    565       250.585 DT     02A1 Rx 6  00 00 98 3A 00 00 
    566       250.819 DT     0132 Rx 8  EC 89 F7 FF 28 40 FF 0F 
    567       250.965 DT     0225 Rx 3  05 45 52 
    568       251.637 DT     02C1 Rx 8  03 00 40 66 00 F0 34 00 
    569       251.884 DT     0677 Rx 8  02 FF FF FF FF 00 00 00 
    570       252.130 DT     0339 Rx 8  00 B1 00 00 00 01 40 0F 
    571       252.382 DT     01FB Rx 8  00 FF FF FF FF FF FF FF 
    572       252.616 DT     0288 Rx 8  03 16 54 88 50 00 11 E0 
    573       253.614 DT     0201 Rx 8  01 64 64 E5 21 02 96 00 
    574       254.696 DT     055A Rx 8  01 00 00 00 00 00 00 00 
    575       254.924 DT     0405 Rx 8  12 43 33 37 39 34 34 35 
    576       255.128 DT     0420 Rx 6  28 01 40 4B 00 50 
    577       255.634 DT     0261 Rx 8  00 10 2A 00 D6 43 40 D4 
    578       255.873 DT     0221 Rx 8  41 01 55 00 00 00 00 BA 
    579       256.085 DT     0283 Rx 6  00 00 00 00 00 00 
    580       256.213 DT     0242 Rx 2  10 95 
    581       256.451 DT     039A Rx 8  FC FD FD FD FD FD FD 01 
    582       256.689 DT     03E9 Rx 8  F1 20 00 00 00 00 90 8D 
    583       257.829 DT     0719 Rx 8  00 94 52 00 00 00 00 00 
    584       258.570 DT     0798 Rx 8  9E 01 00 00 00 00 00 A7 
    585       258.802 DT     0129 Rx 8  C6 22 4F 20 01 20 FF 3F 
    586       259.638 DT     02E1 Rx 8  03 6C 00 02 2C 44 00 00 
    587       259.836 DT     013D Rx 6  02 20 AA 1A FF 02 
    588       260.702 DT     03C0 Rx 8  03 00 80 00 00 00 00 20 
    589       260.934 DT     0132 Rx 8  F2 89 F7 FF 28 40 FF 0F 
    590       261.170 DT     0243 Rx 8  FC 7F FF 9F A2 02 41 29 
    591       261.352 DT     039D Rx 5  59 50 41 28 00 
    592       262.192 DT     0282 Rx 8  00 00 00 00 EC F3 F2 24 
    593       263.187 DT     0360 Rx 8  07 00 00 00 00 00 00 00 
    594       263.623 DT     02C1 Rx 8  04 CA 03 03 64 C1 39 53 
    595       263.835 DT     01F9 Rx 6  00 00 00 00 00 00 
    596       264.471 DT     06C8 Rx 8  CC 01 00 2C 00 00 00 00 
    597       265.695 DT     0103 Rx 8  11 30 00 00 96 12 11 02 
    598       265.835 DT     0409 Rx 1  00 
    599       267.637 DT     0201 Rx 8  1A 0F 20 C0 09 60 11 01 
    600       267.881 DT     0677 Rx 8  FB FF FF FF FF FF FF 27 
    601       268.724 DT     0129 Rx 8  7C 23 4F 20 00 20 FF 3F 
    602       269.636 DT     013D Rx 6  02 20 AA 1A FF 02 
    603       269.880 DT     0439 Rx 8  00 00 20 00 00 00 43 02 
    604       270.192 DT     0102 Rx 8  22 33 00 00 E8 38 11 08 
    605       270.536 DT     02A8 Rx 8  C2 00 00 00 00 80 40 2C 
    606       270.776 DT     0123 Rx 8  00 00 48 12 D2 00 00 80 
    607       271.010 DT     0132 Rx 8  EE 89 F8 FF 27 40 FF 0F 
    608       271.232 DT     0400 Rx 7  40 40 E0 BF EF FB 00 
    609       271.635 DT     0545 Rx 8  80 01 31 C0 A1 0F 4A B6 
    610       271.861 DT     03A1 Rx 8  68 63 0D 98 04 34 22 60 
    611       272.197 DT     0142 Rx 8  28 00 02 00 00 00 00 00 
    612       272.639 DT     0340 Rx 8  04 00 00 00 00 00 00 00 
    613       272.945 DT     023E Rx 8  28 C6 63 95 01 6E F6 8B 
    614       275.623 DT     02C1 Rx 8  A5 00 00 00 E0 00 00 00 
    615       275.759 DT     0119 Rx 2  00 00 
    616       276.001 DT     0263 Rx 8  02 00 00 00 6D 10 00 00 
    617       276.232 DT     02E1 Rx 8  FC 19 13 3A 9E 14 0A 00 
    618       276.420 DT     03A3 Rx 5  00 D0 00 00 08 
    619       276.630 DT     0428 Rx 6  00 00 10 10 00 00 
    620       277.150 DT     0122 Rx 6  00 00 12 12 12 00 
    621       278.721 DT     0129 Rx 8  FA 24 4F 20 00 20 FF 3F 
    622       280.049 DT     013D Rx 6  02 20 AA 1A FF 02 
    623       280.681 DT     0393 Rx 8  09 80 63 00 00 00 00 00 
    624       280.912 DT     0132 Rx 8  F7 89 F8 FF 2B 40 FF 0F 
    625       281.154 DT     025B Rx 8  D3 C0 02 00 00 00 E0 D0 
    626       281.390 DT     0372 Rx 8  02 85 00 9B 00 05 00 00 
    627       281.626 DT     0201 Rx 8  03 40 18 00 10 89 F5 C1 
    628       282.178 DT     03A2 Rx 8  00 E0 72 0F 05 00 46 6C 
    629       283.602 DT     0241 Rx 7  32 64 9C 0C 19 57 00 
    630       283.850 DT     0677 Rx 8  04 0F 00 00 00 00 00 00 
    631       284.160 DT     0272 Rx 8  09 80 63 00 00 00 00 00 
    632       285.690 DT     020C Rx 8  00 40 4A 1E 00 B0 07 00 
    633       285.930 DT     039A Rx 8  FD FD FD FD FD 01 00 00 
    634       286.323 DT     0797 Rx 8  14 09 00 00 00 00 00 09 
    635       287.645 DT     02C1 Rx 8  06 00 00 00 40 00 00 00 
    636       287.873 DT     0381 Rx 8  C6 39 CF 21 96 18 03 00 
    637       288.103 DT     0718 Rx 7  04 FF FF 00 00 00 00 
    638       288.613 DT     0261 Rx 8  31 48 7B 00 16 4A 5A EF 
    639       288.849 DT     0129 Rx 8  ED 25 4F 20 00 20 FF 3F 
    640       289.409 DT     041D Rx 1  00 
    641       289.762 DT     021D Rx 8  2C 20 08 14 80 00 40 10 
    642       290.046 DT     043D Rx 6  02 20 AA 1A FF 02 
    643       290.278 DT     025D Rx 8  DF 8C 01 C3 44 C1 0A E0 
    644       290.616 DT     013D Rx 6  02 20 AA 1A FF 02 
    645       290.853 DT     0132 Rx 8  E8 89 F7 FF 27 40 FF 0F 
    646       291.087 DT     0243 Rx 8  01 FC 5A 5A 5F 5F 7A 7A 
    647       291.259 DT     01F8 Rx 4  22 00 00 00 
    648       291.509 DT     027D Rx 8  00 00 00 00 00 00 00 00 
    649       291.679 DT     029D Rx 4  00 00 00 20 
    650       291.927 DT     02E1 Rx 8  05 00 00 00 00 00 00 00 
    651       292.098 DT     02BD Rx 4  00 00 00 00 
    652       292.332 DT     0379 Rx 8  01 00 48 80 9A 19 16 01 
    653       292.564 DT     03C2 Rx 8  00 55 55 55 00 00 55 45 
    654       292.700 DT     03E3 Rx 2  00 00 
    655       292.950 DT     03E8 Rx 8  02 00 00 00 00 00 00 00 
    656       293.104 DT     077D Rx 3  12 00 00 
    657       293.705 DT     07DD Rx 3  FF 00 01 
    658       294.625 DT     02F1 Rx 8  09 01 00 60 04 38 01 00 
    659       295.631 DT     0201 Rx 8  04 00 00 00 00 00 00 00 
    660       295.855 DT     023A Rx 8  09 33 C5 0C 8B 1C 34 D7 
    661       296.097 DT     04E3 Rx 8  03 2F 00 00 00 00 08 00 
    662       297.703 DT     0139 Rx 1  00 
    663       298.193 DT     03E2 Rx 8  40 15 80 0A 00 00 04 04 
    664       298.441 DT     07A8 Rx 8  3E 1F 00 70 00 00 00 00 
    665       298.718 DT     0129 Rx 8  9A 26 4F 20 01 20 FF 3F 
    666       298.878 DT     0229 Rx 3  44 01 00 
    667       299.054 DT     0249 Rx 4  AF 0E 00 00 
    668       299.318 DT     054F Rx 8  00 00 00 00 00 00 00 00 
    669       299.654 DT     02C1 Rx 8  07 00 14 0D 0E 1D 22 47 
    670       299.899 DT     0677 Rx 8  05 02 00 28 00 00 00 00 
    671       300.097 DT     013D Rx 6  02 20 AA 1A FF 02 
    672       300.667 DT     02E3 Rx 7  86 0C 00 00 00 00 00 
    673       300.899 DT     0132 Rx 8  EF 89 F8 FF 27 40 FF 0F 
    674       301.079 DT     039D Rx 5  5A 51 41 28 00 
    675       302.179 DT     01FB Rx 8  01 FE FF B7 6D 0B 00 00 
    676       303.829 DT     03DA Rx 8  00 00 00 00 00 00 00 00 
    677       304.384 DT     0228 Rx 8  03 16 54 88 50 00 11 80 
    678       304.626 DT     0545 Rx 8  01 00 00 00 00 10 50 AB 
    679       304.776 DT     0113 Rx 3  01 97 01 
    680       305.008 DT     07FF Rx 8  04 CC 16 54 61 12 B4 2A 
    681       305.250 DT     04E2 Rx 8  03 20 01 00 00 00 08 00 
    682       305.482 DT     0318 Rx 8  16 03 30 0F 11 12 05 9B 
    683       305.720 DT     0221 Rx 8  40 41 05 05 00 50 11 0F 
    684       305.964 DT     0263 Rx 8  03 10 20 03 00 00 00 00 
    685       306.205 DT     0343 Rx 8  00 90 60 7E A1 36 00 00 
    686       306.447 DT     03F5 Rx 8  00 C8 19 09 00 00 00 00 
    687       306.673 DT     0458 Rx 7  02 02 00 80 00 00 00 
    688       307.661 DT     02E1 Rx 8  10 21 04 00 00 00 26 08 
    689       308.723 DT     0129 Rx 8  20 27 4F 20 00 20 FF 3F 
    690       309.641 DT     0201 Rx 8  05 40 18 00 10 79 B5 C1 
    691       309.839 DT     013D Rx 6  02 20 AA 1A FF 02 
    692       310.087 DT     037A Rx 8  00 00 00 00 00 00 00 00 
    693       310.332 DT     07B8 Rx 8  06 00 00 00 00 00 00 A8 
    694       310.720 DT     0132 Rx 8  E7 89 F8 FF 26 40 FF 0F 
    695       310.956 DT     03C3 Rx 8  55 55 55 01 00 00 00 00 
    696       311.636 DT     02C1 Rx 8  80 0C 32 0B 8B 1F 00 00 
    697       312.182 DT     0262 Rx 8  0B 00 D2 0D 00 B0 92 12 
    698       312.418 DT     0282 Rx 8  4D 05 00 01 2A 01 7A 02 
    699       312.650 DT     023E Rx 8  28 C6 63 95 01 6E 06 9B 
    700       312.883 DT     02D2 Rx 8  D9 29 8D 4E 00 00 A1 01 
    701       313.121 DT     0252 Rx 8  00 00 8C 06 00 00 A0 0F 
    702       313.357 DT     0212 Rx 8  98 24 D6 0F 02 FF 1F 02 
    703       313.583 DT     0292 Rx 8  4A 57 4D 75 D4 27 9E 01 
    704       313.714 DT     02F2 Rx 2  12 01 
    705       313.962 DT     0392 Rx 8  00 10 00 00 00 00 00 00 
    706       315.618 DT     0677 Rx 8  F8 FF FF FF FF FF FF 3F 
    707       315.868 DT     0359 Rx 8  01 00 00 00 00 00 00 00 
    708       316.106 DT     039A Rx 8  FC FD FD FD FD FD FD 01 
    709       316.350 DT     0553 Rx 8  00 00 00 00 00 00 10 68 
    710       316.596 DT     06E8 Rx 8  CC 01 00 2C 00 00 00 00 
    711       316.729 DT     02D1 Rx 2  7F 01 
    712       318.083 DT     07AA Rx 8  05 03 00 0D C0 08 CE 04 
    713       318.525 DT     078A Rx 8  01 00 08 00 00 00 51 00 
    714       318.761 DT     0129 Rx 8  F7 28 4F 20 00 20 FF 3F 
    715       319.171 DT     0552 Rx 8  00 00 00 00 00 00 10 67 
    716       319.501 DT     02A7 Rx 8  00 00 00 00 00 84 05 84 
    717       320.044 DT     013D Rx 6  02 20 AA 1A FF 02 
    718       320.690 DT     0383 Rx 8  97 00 1E 80 00 00 A0 00 
    719       320.924 DT     0132 Rx 8  F8 89 F8 FF 26 40 FF 0F 
    720       321.164 DT     0243 Rx 8  7A 7D A9 0F 00 00 00 00 
    721       321.502 DT     02A6 Rx 8  00 00 FF 1F 00 00 00 00 
    722       321.728 DT     0261 Rx 8  56 FE 03 C2 8F 5C 65 AA 
    723       321.976 DT     038A Rx 8  00 00 00 00 00 00 00 00 
    724       322.220 DT     0142 Rx 8  01 00 40 0A 00 00 00 00 
    725       322.463 DT     02E8 Rx 8  C2 00 00 00 00 80 40 6C 
    726       322.697 DT     03A1 Rx 8  2B A0 22 01 00 00 30 B4 
    727       323.497 DT     02C7 Rx 8  00 00 00 00 00 47 48 FF 
    728       323.739 DT     0201 Rx 8  3E 73 33 03 00 00 00 00 
    729       323.979 DT     02C1 Rx 8  01 00 00 14 28 70 64 00 
    730       324.213 DT     02E1 Rx 8  29 0A A3 6A 17 00 00 00 
    731       325.653 DT     0423 Rx 6  F0 00 00 00 08 00 
    732       326.131 DT     0422 Rx 6  00 00 10 00 00 00 
    733       326.630 DT     0381 Rx 8  67 69 55 A4 48 93 22 05 
    734       327.622 DT     0421 Rx 7  00 0A 00 10 00 00 00 
    735       327.864 DT     042A Rx 8  01 90 00 48 00 24 00 02 
    736       328.100 DT     0473 Rx 8  30 00 00 00 82 A1 34 62 
    737       328.346 DT     03B3 Rx 8  88 80 05 00 00 00 60 00 
    738       328.558 DT     0448 Rx 6  00 00 10 10 00 00 
    739       328.794 DT     0129 Rx 8  A2 29 4F 20 00 20 FF 3F 
    740       330.045 DT     013D Rx 6  02 20 AA 1A FF 02 
    741       330.689 DT     02C3 Rx 8  00 00 00 A6 01 00 80 69 
    742       330.926 DT     0132 Rx 8  F3 89 F7 FF 28 40 FF 0F 
    743       331.174 DT     0372 Rx 8  03 00 01 00 00 00 00 00 
    744       331.416 DT     02C4 Rx 8  25 22 42 08 00 00 00 20 
    745       331.666 DT     0677 Rx 8  01 FF FF FF FF FF FF 00 
    746       332.100 DT     0204 Rx 8  81 00 00 46 00 00 00 10 
    747       332.271 DT     022A Rx 4  00 00 19 16 
    748       332.479 DT     0264 Rx 6  3B 00 00 00 A0 00 
    749       332.717 DT     03A2 Rx 8  C3 04 00 00 01 80 21 01 
    750       332.957 DT     0224 Rx 8  04 08 00 40 19 01 10 08 
    751       333.138 DT     02B4 Rx 5  68 AD 25 C0 00 
    752       333.374 DT     02C2 Rx 8  55 5B A9 06 00 00 12 00 
    753       333.772 DT     0219 Rx 5  F2 1F FF FF 01 
    754       334.482 DT     0789 Rx 8  54 09 00 00 00 00 10 1C 
    755       335.616 DT     02C1 Rx 8  02 74 C4 57 00 80 02 00 
    756       335.852 DT     0263 Rx 8  00 EE 0C F3 E4 3F A8 FA 
    757       336.092 DT     02B3 Rx 8  00 82 81 82 82 7D 67 00 
    758       336.340 DT     034A Rx 8  03 00 00 00 00 00 00 00 
    759       336.585 DT     043B Rx 8  02 7F 00 FF 00 00 00 00 
    760       337.623 DT     0201 Rx 8  40 06 19 00 74 43 06 00 
    761       337.863 DT     0545 Rx 8  02 00 30 00 00 00 60 DC 
    762       338.091 DT     0718 Rx 7  00 7F 7F 7F FF FF FF 
    763       338.207 DT     0419 Rx 1  00 
    764       338.619 DT     0441 Rx 8  7F C5 44 20 DB 0E 04 4F 
    765       338.856 DT     0129 Rx 8  D0 2A 4F 20 01 20 FF 3F 
    766       339.568 DT     0724 Rx 3  00 00 00 
    767       339.812 DT     02E1 Rx 8  02 00 00 00 00 00 01 00 
    768       340.054 DT     02F9 Rx 8  D0 FB 07 18 00 00 00 00 
    769       340.252 DT     013D Rx 6  02 20 AA 1A FF 02 
    770       340.544 DT     03C8 Rx 8  03 00 00 00 00 00 00 00 
    771       340.774 DT     0132 Rx 8  EC 89 F8 FF 27 40 FF 0F 
    772       340.956 DT     039D Rx 5  5B 52 41 28 00 
    773       342.192 DT     02E2 Rx 8  00 00 00 C6 01 0B 00 00 
    774       342.435 DT     03C2 Rx 8  29 55 00 00 00 00 00 00 
    775       345.589 DT     0727 Rx 2  05 00 
    776       345.875 DT     03F9 Rx 8  02 00 00 00 00 00 00 00 
    777       346.115 DT     039A Rx 8  FD FD FD FD FD 01 00 00 
    778       346.473 DT     0788 Rx 8  08 D5 A1 63 00 00 00 10 
    779       347.639 DT     02C1 Rx 8  03 00 40 66 00 F0 34 00 
    780       347.885 DT     0677 Rx 8  02 FF FF FF FF 00 00 00 
    781       348.721 DT     0129 Rx 8  21 2B 4F 20 01 20 FF 3F 
    782       348.902 DT     0249 Rx 4  CE 0F 00 00 
    783       349.072 DT     01FA Rx 3  22 C0 01 
    784       349.638 DT     013D Rx 6  02 20 AA 1A FF 02 
    785       350.580 DT     02A1 Rx 6  00 00 98 3A 00 00 
    786       350.814 DT     0132 Rx 8  E7 89 F8 FF 29 40 FF 0F 
    787       350.960 DT     0225 Rx 3  05 45 52 
    788       351.197 DT     0243 Rx 8  FC 7F FF 9F A2 02 41 29 
    789       351.635 DT     0201 Rx 8  01 64 64 E4 21 02 96 00 
    790       351.973 DT     0339 Rx 8  00 B1 00 00 00 01 40 0F 
    791       352.225 DT     01FB Rx 8  00 FF FF FF FF FF FF FF 
    792       352.455 DT     023E Rx 8  28 C6 63 95 01 6E 16 AB 
    793       352.689 DT     0288 Rx 8  03 16 54 88 50 00 21 F0 
    794       354.621 DT     0261 Rx 8  03 00 00 00 00 40 74 F8 
    795       355.003 DT     0420 Rx 6  28 01 40 4B 00 60 
    796       355.633 DT     02E1 Rx 8  03 6C 00 02 2C 44 00 00 
    797       355.874 DT     0221 Rx 8  41 01 55 00 00 00 20 DA 
    798       356.086 DT     0283 Rx 6  00 00 00 00 00 00 
    799       356.214 DT     0242 Rx 2  10 95 
    800       357.832 DT     0719 Rx 8  01 00 00 00 00 00 00 00 
    801       358.584 DT     0798 Rx 8  80 42 09 00 00 00 10 E3 
    802       358.818 DT     0129 Rx 8  EC 2C 4F 20 00 20 FF 3F 
    803       359.640 DT     02C1 Rx 8  04 CA 03 03 64 C1 39 53 
    804       359.838 DT     013D Rx 6  02 20 AA 1A FF 02 
    805       360.703 DT     03C0 Rx 8  04 00 00 00 00 00 00 00 
    806       360.935 DT     0132 Rx 8  F1 89 F8 FF 28 40 FF 0F 
    807       362.195 DT     0282 Rx 8  00 00 00 00 EC F3 F2 24 
    808       363.193 DT     0360 Rx 8  08 00 00 00 00 00 00 00 
    809       363.623 DT     0677 Rx 8  FB FF FF FF FF FF FF 27 
    810       363.835 DT     01F9 Rx 6  00 00 00 00 00 00 
    811       364.481 DT     06C8 Rx 8  01 00 00 00 00 00 00 00 
    812       365.631 DT     0201 Rx 8  1A 0F 20 C0 09 60 11 01 
    813       365.868 DT     0103 Rx 8  11 30 00 00 96 12 11 02 
    814       366.098 DT     0263 Rx 8  01 E9 12 F2 E5 3C A5 FA 
    815       366.332 DT     0381 Rx 8  08 51 0A FD 0F 0C 00 00 
    816       366.452 DT     0409 Rx 1  00 
    817       368.718 DT     0129 Rx 8  FE 2D 4F 20 00 20 FF 3F 
    818       369.634 DT     013D Rx 6  02 20 AA 1A FF 02 
    819       369.878 DT     0439 Rx 8  00 00 20 00 00 00 43 02 
    820       370.198 DT     0102 Rx 8  22 33 00 00 E8 38 11 08 
    821       370.538 DT     02A8 Rx 8  C2 00 00 00 00 80 50 3C 
    822       370.778 DT     0123 Rx 8  00 00 48 12 D2 00 00 80 
    823       371.009 DT     0132 Rx 8  F6 89 F8 FF 26 40 FF 0F 
    824       371.231 DT     0400 Rx 7  40 40 E0 BF EF FB 00 
    825       371.457 DT     0545 Rx 8  80 01 31 B0 A1 0A 7A D1 
    826       371.699 DT     02C1 Rx 8  A5 00 00 00 E0 00 00 00 
    827       371.933 DT     02E1 Rx 8  FC 19 13 3A 9E 12 0A 00 
    828       372.161 DT     03A1 Rx 8  68 63 0D 98 04 34 42 80 
    829       372.407 DT     0142 Rx 8  28 00 02 00 00 00 00 00 
    830       372.657 DT     0340 Rx 8  05 00 00 00 00 00 00 00 
    831       372.791 DT     03A8 Rx 2  00 FF 
    832       375.640 DT     03A3 Rx 5  00 D0 00 00 08 
    833       375.776 DT     0119 Rx 2  00 00 
    834       376.014 DT     039A Rx 8  FC FD FD FD FD FD FD 01 
    835       376.462 DT     0428 Rx 6  00 00 10 10 00 00 
    836       377.148 DT     0122 Rx 6  00 00 12 12 12 00 
    837       377.684 DT     0333 Rx 5  84 0A 5A 07 02 
    838       377.928 DT     0334 Rx 8  3F 3F C8 00 E2 3F 80 1E 
    839       378.721 DT     0129 Rx 8  21 2E 4F 20 00 20 FF 3F 
    840       379.641 DT     0201 Rx 8  03 40 18 00 10 89 F5 C1 
    841       379.889 DT     0677 Rx 8  04 0F 00 00 00 00 00 00 
    842       380.087 DT     013D Rx 6  02 20 AA 1A FF 02 
    843       380.687 DT     0393 Rx 8  06 00 FC D8 07 C0 1E 20 
    844       380.917 DT     0132 Rx 8  EE 89 F8 FF 29 40 FF 0F 
    845       381.152 DT     0243 Rx 8  01 FC 5A 5A 5F 5F 7A 7A 
    846       381.396 DT     025B Rx 8  D3 C0 02 00 00 00 F0 E0 
    847       381.636 DT     0372 Rx 8  04 00 FF 00 BD 7C 07 01 
    848       381.816 DT     039D Rx 5  5C 53 41 28 00 
    849       382.180 DT     03A2 Rx 8  00 E0 72 0D 05 80 46 6C 
    850       382.362 DT     0748 Rx 5  2B 21 08 00 00 
    851       383.598 DT     0241 Rx 7  32 64 9C 0C 19 57 00 
    852       383.848 DT     02C1 Rx 8  06 00 00 00 40 00 00 00 
    853       384.163 DT     0272 Rx 8  06 00 FD E0 07 C0 1E 20 
    854       385.696 DT     020C Rx 8  00 40 4A 1E 00 B0 07 00 
    855       386.326 DT     0797 Rx 8  14 09 00 00 00 00 10 19 
    856       387.644 DT     02E1 Rx 8  05 00 00 00 00 00 00 00 
    857       387.882 DT     0261 Rx 8  00 10 2B 00 D6 43 80 15 
    858       388.110 DT     0718 Rx 7  01 FF FF FF FF FF 00 
    859       388.720 DT     0129 Rx 8  D0 2F 4F 20 00 20 FF 3F 
    860       389.631 DT     075D Rx 8  08 55 77 39 77 72 77 02 
    861       389.749 DT     041D Rx 1  00 
    862       390.087 DT     021D Rx 8  2C 20 08 14 80 00 40 10 
    863       390.285 DT     043D Rx 6  02 20 AA 1A FF 02 
    864       390.620 DT     013D Rx 6  02 20 AA 1A FF 02 
    865       390.852 DT     0132 Rx 8  EF 89 F8 FF 27 40 FF 0F 
    866       390.988 DT     03E3 Rx 2  00 00 
    867       391.160 DT     01F8 Rx 4  22 00 00 00 
    868       391.392 DT     025D Rx 8  DF 8C 01 C3 84 C1 0A E0 
    869       391.643 DT     027D Rx 8  00 00 00 00 00 00 00 00 
    870       391.877 DT     0379 Rx 8  02 00 48 80 9A 19 16 01 
    871       392.063 DT     029D Rx 4  00 00 00 20 
    872       392.295 DT     03C2 Rx 8  00 55 55 55 00 00 55 45 
    873       392.525 DT     023E Rx 8  28 C6 63 95 01 6E 26 BB 
    874       392.695 DT     02BD Rx 4  00 00 00 00 
    875       392.946 DT     03E8 Rx 8  03 00 00 00 00 00 00 00 
    876       393.100 DT     077D Rx 3  12 00 00 
    877       393.636 DT     0201 Rx 8  04 00 00 00 00 00 00 00 
    878       393.792 DT     07DD Rx 3  FF 00 01 
    879       394.628 DT     02F1 Rx 8  0A B1 01 00 00 00 00 00 
    880       395.612 DT     02C1 Rx 8  07 00 14 0D 0E 1D 22 47 
    881       395.854 DT     0263 Rx 8  02 00 00 00 6D 10 00 00 
    882       396.103 DT     04E3 Rx 8  04 00 00 00 00 00 00 00 
    883       396.347 DT     0677 Rx 8  05 02 00 28 00 00 00 00 
    884       397.705 DT     0139 Rx 1  00 
    885       398.197 DT     03E2 Rx 8  40 15 80 0A 00 00 04 04 
    886       398.431 DT     07A8 Rx 8  0C D5 A1 63 00 00 40 10 
    887       398.721 DT     0129 Rx 8  35 20 4F 20 00 20 FF 3F 
    888       398.880 DT     0229 Rx 3  52 02 00 
    889       399.058 DT     0249 Rx 4  9B 00 00 00 
    890       399.322 DT     054F Rx 8  00 00 00 00 00 00 00 00 
    891       399.766 DT     013D Rx 6  02 20 AA 1A FF 02 
    892       400.666 DT     02E3 Rx 7  F7 D3 4F 3F A5 B0 08 
    893       400.897 DT     0132 Rx 8  E7 89 F8 FF 27 40 FF 0F 
    894       402.183 DT     01FB Rx 8  01 FE FF B7 6D 0B 00 00 
    895       403.639 DT     02E1 Rx 8  10 21 04 00 00 00 26 08 
    896       403.887 DT     03DA Rx 8  00 00 00 00 00 00 00 00 
    897       404.131 DT     0545 Rx 8  01 00 00 00 00 10 80 DB 
    898       404.447 DT     0228 Rx 8  03 16 54 88 50 00 21 90 
    899       404.693 DT     0381 Rx 8  69 00 00 00 00 00 00 0F 
    900       404.843 DT     0113 Rx 3  01 97 01 
    901       405.089 DT     07FF Rx 8  05 08 A0 40 00 00 00 00 
    902       405.331 DT     04E2 Rx 8  04 00 13 00 0A 00 00 00 
    903       405.564 DT     0318 Rx 8  16 03 30 0F 11 12 07 9D 
    904       405.802 DT     0221 Rx 8  40 41 05 05 00 50 31 2F 
    905       406.038 DT     0343 Rx 8  00 90 5C 7E A1 51 00 00 
    906       406.278 DT     039A Rx 8  FD FD FD FD FD 01 00 00 
    907       406.520 DT     03F5 Rx 8  00 C8 19 09 00 00 00 00 
    908       406.746 DT     0458 Rx 7  02 02 00 80 00 00 00 
    909       407.656 DT     02C1 Rx 8  80 0C 32 0B 8B 1F 00 00 
    910       407.897 DT     0201 Rx 8  05 40 18 00 10 79 B5 C1 
    911       408.721 DT     0129 Rx 8  22 21 4F 20 00 20 FF 3F 
    912       409.853 DT     037A Rx 8  01 00 00 00 00 00 00 00 
    913       410.051 DT     013D Rx 6  02 20 AA 1A FF 02 
    914       410.357 DT     07B8 Rx 8  60 02 09 00 00 00 10 1D 
    915       410.695 DT     03C3 Rx 8  00 00 00 00 00 49 00 00 
    916       410.927 DT     0132 Rx 8  F1 89 F8 FF 28 40 FF 0F 
    917       411.163 DT     0243 Rx 8  7A 7D A1 0F 00 00 00 00 
    918       411.650 DT     0677 Rx 8  F8 FF FF FF FF FF FF 3F 
    919       412.180 DT     0262 Rx 8  0B 00 D2 0D 00 B0 92 12 
    920       412.416 DT     0282 Rx 8  4D 05 00 81 10 01 7A 02 
    921       412.648 DT     02D2 Rx 8  D9 29 8D 4E 00 00 A1 01 
    922       412.886 DT     0252 Rx 8  00 00 8C 06 00 00 A0 0F 
    923       413.123 DT     0212 Rx 8  98 24 D6 0F 02 FF 1F 02 
    924       413.349 DT     0292 Rx 8  4A 57 4D 75 D4 27 9E 01 
    925       413.479 DT     02F2 Rx 2  12 01 
    926       415.695 DT     0553 Rx 8  00 00 00 00 00 00 20 78 
    927       415.933 DT     0359 Rx 8  02 00 00 00 64 82 86 24 
    928       416.367 DT     06E8 Rx 8  01 00 00 00 00 00 00 00 
    929       416.522 DT     02D1 Rx 2  7F 01 
    930       418.088 DT     076A Rx 8  00 5E 8B D7 02 00 00 00 
    931       418.334 DT     078A Rx 8  01 00 00 00 00 00 28 13 
    932       418.716 DT     0129 Rx 8  6B 22 4F 20 00 20 FF 3F 
    933       419.174 DT     0552 Rx 8  00 00 00 00 00 00 20 77 
    934       419.492 DT     02A7 Rx 8  00 00 00 00 00 84 05 84 
    935       419.732 DT     02C1 Rx 8  01 00 00 14 28 70 64 00 
    936       419.931 DT     013D Rx 6  02 20 AA 1A FF 02 
    937       420.165 DT     02E1 Rx 8  29 0A A3 6A 17 00 00 00 
    938       420.625 DT     0261 Rx 8  31 48 54 00 15 4A 9A 07 
    939       420.855 DT     0132 Rx 8  E7 89 F8 FF 27 40 FF 0F 
    940       421.095 DT     0383 Rx 8  97 00 1E 80 00 00 A0 00 
    941       421.275 DT     039D Rx 5  5D 54 41 28 00 
    942       421.519 DT     02A6 Rx 8  00 00 FF 1F 00 00 00 00 
    943       421.761 DT     0201 Rx 8  3E 73 33 03 00 00 00 00 
    944       422.009 DT     038A Rx 8  01 00 00 00 00 00 00 00 
    945       422.254 DT     0142 Rx 8  01 00 40 0A 00 00 00 00 
    946       422.496 DT     02E8 Rx 8  C2 00 00 00 00 80 50 7C 
    947       422.732 DT     03A1 Rx 8  2B A0 22 01 00 00 50 D4 
    948       423.488 DT     02C7 Rx 8  00 00 00 00 00 47 48 FF 
    949       425.658 DT     0423 Rx 6  F0 00 00 00 08 00 
    950       425.902 DT     0263 Rx 8  03 10 20 03 00 00 00 00 
    951       426.140 DT     02B3 Rx 8  01 7E 7E 80 69 7E 7E 82 
    952       426.352 DT     0422 Rx 6  00 00 10 00 00 00 
    953       427.627 DT     0421 Rx 7  00 0A 00 10 00 00 00 
    954       427.869 DT     042A Rx 8  01 90 00 48 00 24 00 02 
    955       427.997 DT     03BB Rx 2  2F 0F 
    956       428.247 DT     0677 Rx 8  01 FF FF FF FF FF FF 00 
    957       428.431 DT     02F3 Rx 5  0C 0C 0B 00 00 
    958       428.643 DT     0448 Rx 6  00 00 10 10 00 00 
    959       428.883 DT     0129 Rx 8  7C 23 4F 20 00 20 FF 3F 
    960       429.112 DT     033A Rx 8  DE 00 DE 00 CD 00 54 54 
    961       430.046 DT     013D Rx 6  02 20 AA 1A FF 02 
    962       430.690 DT     02C3 Rx 8  55 1B A8 36 00 00 12 00 
    963       430.922 DT     0132 Rx 8  F5 89 F7 FF 28 40 FF 0F 
    964       431.160 DT     0372 Rx 8  05 00 0F 00 D3 85 14 00 
    965       431.399 DT     02C4 Rx 8  06 83 A1 8C CA 28 0C 00 
    966       431.635 DT     02C1 Rx 8  02 74 C4 57 00 80 02 00 
    967       432.101 DT     0204 Rx 8  81 00 00 46 00 00 00 10 
    968       432.271 DT     022A Rx 4  00 00 19 16 
    969       432.503 DT     023E Rx 8  28 C6 63 95 01 6E 36 CB 
    970       432.711 DT     0264 Rx 6  3B 00 00 00 A0 00 
    971       432.949 DT     03A2 Rx 8  C3 04 00 00 01 80 21 01 
    972       433.190 DT     0224 Rx 8  04 08 00 40 19 01 10 08 
    973       433.368 DT     02B4 Rx 5  68 AD 25 BD 00 
    974       433.608 DT     02C2 Rx 8  00 00 00 97 01 00 C0 65 
    975       433.794 DT     0219 Rx 5  F3 1F FF FF 02 
    976       434.480 DT     0789 Rx 8  54 09 00 00 00 00 20 2C 
    977       435.628 DT     0201 Rx 8  40 06 19 00 74 43 06 00 
    978       435.872 DT     02E1 Rx 8  02 00 00 00 00 00 01 00 
    979       436.110 DT     039A Rx 8  FC FD FD FD FD FD FD 01 
    980       436.633 DT     0545 Rx 8  02 00 33 00 00 00 90 0F 
    981       437.628 DT     0718 Rx 7  02 FF FF FF FF FF FF 
    982       437.784 DT     0399 Rx 3  00 00 00 
    983       437.958 DT     0419 Rx 1  00 
    984       438.630 DT     0441 Rx 8  7F C5 44 20 DB 0E 08 53 
    985       438.866 DT     0129 Rx 8  FA 24 4F 20 00 20 FF 3F 
    986       439.767 DT     013D Rx 6  02 20 AA 1A FF 02 
    987       440.011 DT     02F9 Rx 8  D0 FB 07 20 00 00 00 00 
    988       440.511 DT     03C8 Rx 8  04 00 00 00 00 00 00 00 
    989       440.747 DT     0132 Rx 8  F9 89 F7 FF 26 40 FF 0F 
    990       440.983 DT     0243 Rx 8  FC 7F FF 9F A2 02 41 29 
    991       442.197 DT     03C2 Rx 8  29 55 00 00 00 00 00 00 
    992       443.633 DT     02C1 Rx 8  03 00 40 66 00 F0 34 00 
    993       443.874 DT     0381 Rx 8  0A 00 00 A8 FA AA 00 00 
    994       444.120 DT     0677 Rx 8  02 FF FF FF FF 00 00 00 
    995       445.878 DT     03F9 Rx 8  03 00 00 00 00 00 00 00 
    996       446.486 DT     0788 Rx 8  01 00 00 00 FF A1 08 00 
    997       448.718 DT     0129 Rx 8  ED 25 4F 20 00 20 FF 3F 
    998       448.898 DT     0249 Rx 4  E8 01 00 00 
    999       449.074 DT     01FA Rx 3  22 C0 01 
   1000       449.645 DT     0201 Rx 8  01 64 64 E4 21 02 96 00 
   1001       449.843 DT     013D Rx 6  02 20 AA 1A FF 02 
   1002       450.589 DT     02A1 Rx 6  00 00 98 3A 00 00 
   1003       450.821 DT     0132 Rx 8  E8 89 F8 FF 28 40 FF 0F 
   1004       450.967 DT     0225 Rx 3  05 45 52 
   1005       451.637 DT     02E1 Rx 8  03 6C 00 02 2C 44 00 00 
   1006       451.989 DT     0339 Rx 8  00 B1 00 00 00 01 40 0F 
   1007       452.241 DT     01FB Rx 8  00 FF FF FF FF FF FF FF 
   1008       452.525 DT     0288 Rx 8  03 16 54 88 50 00 31 00 
   1009       453.618 DT     0261 Rx 8  56 FE 03 C2 8F 5C A5 EA 
   1010       455.014 DT     0420 Rx 6  28 01 40 4B 00 70 
   1011       455.630 DT     02C1 Rx 8  04 CA 03 03 64 C1 39 53 
   1012       455.870 DT     0221 Rx 8  41 01 55 00 00 00 40 FA 
   1013       456.106 DT     0263 Rx 8  00 EE 0C F3 E4 3F A8 FA 
   1014       456.234 DT     0242 Rx 2  10 95 
   1015       456.447 DT     0283 Rx 6  00 00 00 00 00 00 
   1016       457.836 DT     0719 Rx 8  00 94 52 00 00 00 00 00 
   1017       458.583 DT     0798 Rx 8  21 D8 02 4F 3C 01 20 AF 
   1018       458.819 DT     0129 Rx 8  37 26 4F 20 00 20 FF 3F 
   1019       459.649 DT     0677 Rx 8  FB FF FF FF FF FF FF 27 
   1020       459.847 DT     013D Rx 6  02 20 AA 1A FF 02 
   1021       460.703 DT     03C0 Rx 8  05 00 00 00 00 00 00 00 
   1022       460.938 DT     0132 Rx 8  EF 89 F7 FF 28 40 FF 0F 
   1023       461.120 DT     039D Rx 5  5E 55 41 28 00 
   1024       462.194 DT     0282 Rx 8  00 00 00 00 EC F3 F2 24 
   1025       463.198 DT     0360 Rx 8  00 00 00 00 00 00 00 00 
   1026       463.638 DT     0201 Rx 8  1A 0F 20 C0 09 60 11 01 
   1027       463.850 DT     01F9 Rx 6  00 00 00 00 00 00 
   1028       464.480 DT     06C8 Rx 8  CC 01 00 2C 00 00 00 00 
   1029       465.705 DT     0103 Rx 8  11 30 00 00 96 14 11 02 
   1030       465.945 DT     039A Rx 8  FD FD FD FD FD 01 00 00 
   1031       466.065 DT     0409 Rx 1  00 
   1032       467.631 DT     02C1 Rx 8  A5 00 00 00 E0 00 00 00 
   1033       467.865 DT     02E1 Rx 8  FC 19 14 3A 9E 0F 0A 00 
   1034       468.719 DT     0129 Rx 8  20 27 4F 20 00 20 FF 3F 
   1035       469.631 DT     0545 Rx 8  80 01 36 B0 A1 0E AA 0A 
   1036       469.830 DT     013D Rx 6  02 20 AA 1A FF 02 
   1037       470.074 DT     0439 Rx 8  00 00 20 00 00 00 43 02 
   1038       470.310 DT     0102 Rx 8  22 33 00 00 E8 38 11 08 
   1039       470.550 DT     02A8 Rx 8  C2 00 00 00 00 80 60 4C 
   1040       470.790 DT     0123 Rx 8  00 00 48 12 D2 00 00 80 
   1041       471.022 DT     0132 Rx 8  E1 89 F7 FF 27 40 FF 0F 
   1042       471.256 DT     0243 Rx 8  01 FC 5A 5A 5F 5F 7A 7A 
   1043       471.478 DT     0400 Rx 7  40 40 E0 BF EF FB 00 
   1044       471.704 DT     03A1 Rx 8  68 63 0D 98 04 34 62 A0 
   1045       472.192 DT     0142 Rx 8  28 00 02 00 00 00 00 00 
   1046       472.650 DT     0340 Rx 8  06 00 00 00 00 00 00 00 
   1047       472.881 DT     023E Rx 8  28 C6 63 95 01 6E 46 DB 
   1048       475.633 DT     0677 Rx 8  04 0F 00 00 00 00 00 00 
   1049       475.769 DT     0119 Rx 2  00 00 
   1050       475.957 DT     03A3 Rx 5  00 D0 00 00 08 
   1051       476.447 DT     0428 Rx 6  00 00 10 10 00 00 
   1052       477.151 DT     0122 Rx 6  00 00 12 12 12 00 
   1053       477.389 DT     0273 Rx 8  81 A0 30 00 19 02 30 11 
   1054       477.675 DT     0201 Rx 8  03 40 18 00 10 89 F5 C1 
   1055       478.718 DT     0129 Rx 8  F7 28 4F 20 00 20 FF 3F 
   1056       479.660 DT     02C1 Rx 8  06 00 00 00 40 00 00 00 
   1057       480.052 DT     013D Rx 6  02 20 AA 1A FF 02 
   1058       480.688 DT     0393 Rx 8  09 80 63 00 00 00 00 00 
   1059       480.920 DT     0132 Rx 8  ED 89 F7 FF 26 40 FF 0F 
   1060       481.160 DT     025B Rx 8  D3 C0 02 00 00 00 00 F0 
   1061       481.393 DT     0372 Rx 8  06 00 EB FE 75 8F F4 FE 
   1062       482.183 DT     03A2 Rx 8  00 C0 72 0D 05 80 46 6C 
   1063       482.629 DT     0381 Rx 8  0B F0 FC EE EE EF EE 00 
   1064       483.611 DT     0241 Rx 7  31 64 5C 0C 19 57 00 
   1065       483.859 DT     02E1 Rx 8  05 00 00 00 00 00 00 00 
   1066       484.179 DT     0272 Rx 8  09 80 63 00 00 00 00 00 
   1067       485.697 DT     020C Rx 8  00 40 4A 1E 00 B0 07 00 
   1068       485.927 DT     0263 Rx 8  01 E9 12 F2 E5 3C A5 FA 
   1069       486.327 DT     0797 Rx 8  14 09 00 00 00 00 20 29 
   1070       486.642 DT     0261 Rx 8  03 00 00 00 00 40 B4 38 
   1071       487.630 DT     0718 Rx 7  03 FF FF FF FF FF FF 
   1072       488.716 DT     0129 Rx 8  0F 29 4F 20 01 20 FF 3F 
   1073       489.412 DT     041D Rx 1  00 
   1074       489.766 DT     021D Rx 8  2C 20 08 14 80 00 40 10 
   1075       490.051 DT     043D Rx 6  02 20 AA 1A FF 02 
   1076       490.283 DT     025D Rx 8  DF 8C 01 C3 44 C1 0A E0 
   1077       490.620 DT     013D Rx 6  02 20 AA 1A FF 02 
   1078       490.854 DT     0132 Rx 8  EA 89 F8 FF 27 40 FF 0F 
   1079       490.991 DT     03E3 Rx 2  00 00 
   1080       491.163 DT     01F8 Rx 4  22 00 00 00 
   1081       491.413 DT     027D Rx 8  00 00 00 00 00 00 00 00 
   1082       491.661 DT     0201 Rx 8  04 00 00 00 00 00 00 00 
   1083       491.831 DT     029D Rx 4  00 00 00 20 
   1084       492.065 DT     02C1 Rx 8  07 00 14 0D 0E 1D 22 47 
   1085       492.235 DT     02BD Rx 4  00 00 00 00 
   1086       492.471 DT     0379 Rx 8  03 00 3E 82 9A A9 31 01 
   1087       492.704 DT     03C2 Rx 8  00 55 55 55 00 00 55 45 
   1088       492.954 DT     03E8 Rx 8  04 00 00 00 00 00 00 00 
   1089       493.198 DT     0677 Rx 8  05 02 00 28 00 00 00 00 
   1090       493.352 DT     077D Rx 3  12 00 00 
   1091       493.508 DT     07DD Rx 3  FF 00 01 
   1092       494.632 DT     02F1 Rx 8  2B 04 00 01 17 00 00 00 
   1093       495.690 DT     04E3 Rx 8  A5 05 6A 71 04 05 00 00 
   1094       495.929 DT     039A Rx 8  FC FD FD FD FD FD FD 01 
   1095       497.709 DT     0139 Rx 1  00 
   1096       498.201 DT     03E2 Rx 8  40 15 80 0A 00 00 04 04 
   1097       498.443 DT     07A8 Rx 8  01 00 00 00 FF A1 08 00 
   1098       498.719 DT     0129 Rx 8  7D 2A 4F 20 00 20 FF 3F 
   1099       498.878 DT     0229 Rx 3  6D 03 00 
   1100       499.056 DT     0249 Rx 4  2A 02 00 00 
   1101       499.320 DT     054F Rx 8  00 00 00 00 00 00 00 00 
   1102       499.664 DT     02E1 Rx 8  10 21 04 00 00 00 26 08 
   1103       499.862 DT     013D Rx 6  02 20 AA 1A FF 02 
   1104       500.682 DT     02E3 Rx 7  08 48 20 00 00 00 00 
   1105       500.917 DT     0132 Rx 8  EA 89 F7 FF 27 40 FF 0F 
   1106       501.153 DT     0243 Rx 8  7A 7D A1 0F 00 00 00 00 
   1107       501.335 DT     039D Rx 5  5F 56 41 28 00 
   1108       502.185 DT     01FB Rx 8  01 FE FF B7 6D 0B 00 00 
   1109       502.627 DT     0545 Rx 8  01 00 00 00 00 10 B0 0B 
   1110       503.635 DT     02C1 Rx 8  80 0C 32 0B 8B 1F 00 00 
   1111       503.883 DT     03DA Rx 8  00 00 00 00 00 00 00 00 
   1112       504.392 DT     0228 Rx 8  03 16 54 88 50 00 31 A0 
   1113       504.758 DT     0528 Rx 4  62 33 51 59 
   1114       504.876 DT     03ED Rx 1  00 
   1115       505.126 DT     055A Rx 8  01 00 00 00 00 00 00 00 
   1116       505.364 DT     04E2 Rx 8  65 02 86 41 00 20 00 00 
   1117       505.604 DT     0405 Rx 8  10 00 00 00 00 4C 52 57 
   1118       505.844 DT     0201 Rx 8  05 40 18 00 10 79 B5 C1 
   1119       505.994 DT     0113 Rx 3  01 97 01 
   1120       506.228 DT     0221 Rx 8  40 41 05 05 00 50 51 4F 
   1121       506.465 DT     0343 Rx 8  00 90 5C 7E A1 51 00 00 
   1122       506.707 DT     03F5 Rx 8  00 C8 19 09 00 00 00 00 
   1123       506.941 DT     07FF Rx 8  01 91 45 44 42 4C 7A 00 
   1124       507.179 DT     0318 Rx 8  16 03 31 0F 11 12 09 A0 
   1125       507.407 DT     0458 Rx 7  02 02 00 80 00 00 00 
   1126       507.561 DT     0666 Rx 3  00 00 A0 
   1127       507.805 DT     0677 Rx 8  F8 FF FF FF FF FF FF 3F 
   1128       508.038 DT     07F1 Rx 7  02 00 00 00 00 00 00 
   1129       508.722 DT     0129 Rx 8  8C 2B 4F 20 00 20 FF 3F 
   1130       509.768 DT     013D Rx 6  02 20 AA 1A FF 02 
   1131       510.014 DT     037A Rx 8  02 00 00 00 00 00 00 00 
   1132       510.354 DT     07B8 Rx 8  E9 D7 02 01 04 00 20 89 
   1133       510.728 DT     0132 Rx 8  EE 89 F8 FF 27 40 FF 0F 
   1134       510.979 DT     0320 Rx 8  01 00 00 08 00 00 00 00 
   1135       511.215 DT     03C3 Rx 8  55 55 55 01 00 00 00 00 
   1136       511.447 DT     0772 Rx 8  01 2A EC 09 B0 09 42 09 
   1137       512.189 DT     0262 Rx 8  0B 00 D2 0D 00 B0 92 12 
   1138       512.425 DT     0282 Rx 8  4D 05 00 01 4C 01 7A 02 
   1139       512.655 DT     023E Rx 8  28 C6 63 95 01 6E 56 EB 
   1140       512.887 DT     02D2 Rx 8  D9 29 8D 4E 00 00 A1 01 
   1141       513.126 DT     0252 Rx 8  00 00 8C 06 00 00 A0 0F 
   1142       513.362 DT     0212 Rx 8  98 24 D6 0F 02 FF 1F 02 
   1143       513.588 DT     0292 Rx 8  4A 57 4D 75 D4 27 9E 01 
   1144       513.718 DT     02F2 Rx 2  12 01 
   1145       513.951 DT     0401 Rx 8  11 2A 24 82 29 82 11 82 
   1146       515.629 DT     02C1 Rx 8  01 00 00 14 28 70 64 00 
   1147       515.871 DT     0263 Rx 8  02 00 00 00 6D 10 00 00 
   1148       516.113 DT     02B3 Rx 8  92 24 00 00 00 00 00 00 
   1149       516.347 DT     02E1 Rx 8  29 0A A3 6A 17 00 00 00 
   1150       516.591 DT     0359 Rx 8  03 00 00 00 FF 01 00 00 
   1151       516.723 DT     02D1 Rx 2  7F 01 
   1152       516.966 DT     0553 Rx 8  00 00 00 00 00 00 30 88 
   1153       517.212 DT     06E8 Rx 8  CC 01 00 2C 00 00 00 00 
   1154       518.080 DT     07AA Rx 8  F6 03 80 86 40 D4 AF 02 
   1155       518.524 DT     078A Rx 8  01 00 01 00 00 00 02 0D 
   1156       518.758 DT     0129 Rx 8  EC 2C 4F 20 00 20 FF 3F 
   1157       519.178 DT     0552 Rx 8  00 00 00 00 00 00 30 87 
   1158       519.482 DT     02A7 Rx 8  00 00 00 00 00 84 05 84 
   1159       519.725 DT     0201 Rx 8  3E 73 33 03 00 00 00 00 
   1160       519.923 DT     013D Rx 6  02 20 AA 1A FF 02 
   1161       520.155 DT     0261 Rx 8  00 10 2B 00 D6 43 C0 55 
   1162       520.703 DT     0383 Rx 8  97 00 1E 80 00 00 A0 00 
   1163       520.939 DT     0132 Rx 8  F5 89 F7 FF 27 40 FF 0F 
   1164       521.483 DT     02A6 Rx 8  00 00 FF 1F 00 00 00 00 
   1165       521.732 DT     0381 Rx 8  0C 00 00 82 00 00 00 5D 
   1166       521.978 DT     038A Rx 8  03 00 00 00 00 00 00 00 
   1167       522.222 DT     0142 Rx 8  01 00 40 0A 00 00 00 00 
   1168       522.462 DT     02E8 Rx 8  C2 00 00 00 00 80 60 8C 
   1169       522.696 DT     03A1 Rx 8  2B A0 22 01 00 00 70 F4 
   1170       523.478 DT     02C7 Rx 8  00 00 00 00 00 47 48 FF 
   1171       523.728 DT     0677 Rx 8  01 FF FF FF FF FF FF 00 
   1172       525.662 DT     0423 Rx 6  F0 00 00 00 08 00 
   1173       525.902 DT     039A Rx 8  FD FD FD FD FD 01 00 00 
   1174       526.138 DT     0422 Rx 6  00 00 10 00 00 00 
   1175       527.633 DT     0421 Rx 7  00 0A 00 10 00 00 00 
   1176       527.869 DT     02C1 Rx 8  02 74 C4 57 00 80 02 00 
   1177       528.111 DT     042A Rx 8  01 90 00 48 00 24 00 02 
   1178       528.283 DT     0453 Rx 4  00 00 00 00 
   1179       528.495 DT     0448 Rx 6  00 00 10 10 00 00 
   1180       528.731 DT     0129 Rx 8  FE 2D 4F 20 00 20 FF 3F 
   1181       528.923 DT     0284 Rx 5  10 00 00 00 00 
   1182       530.053 DT     013D Rx 6  02 20 AA 1A FF 02 
   1183       530.698 DT     02C3 Rx 8  00 00 00 A6 01 00 80 69 
   1184       530.930 DT     0132 Rx 8  F4 89 F7 FF 27 40 FF 0F 
   1185       531.166 DT     0243 Rx 8  FC 7F FF 9F A2 02 41 29 
   1186       531.404 DT     0372 Rx 8  07 00 05 00 C9 87 10 00 
   1187       531.636 DT     02C4 Rx 8  E7 05 A3 90 81 0C C6 06 
   1188       531.880 DT     02E1 Rx 8  02 00 00 00 00 00 01 00 
   1189       532.129 DT     0204 Rx 8  81 00 00 46 00 00 00 10 
   1190       532.299 DT     022A Rx 4  00 00 19 16 
   1191       532.507 DT     0264 Rx 6  3B 00 00 00 A0 00 
   1192       532.747 DT     0224 Rx 8  04 08 00 40 19 01 10 08 
   1193       532.986 DT     03A2 Rx 8  C3 04 00 00 01 80 21 01 
   1194       533.166 DT     02B4 Rx 5  68 AD 25 C0 00 
   1195       533.402 DT     02C2 Rx 8  55 5B A9 06 00 00 12 00 
   1196       533.652 DT     0201 Rx 8  18 06 19 00 74 43 06 00 
   1197       533.838 DT     0219 Rx 5  04 74 74 00 00 
   1198       534.484 DT     0789 Rx 8  54 09 00 00 00 00 30 3C 
   1199       535.632 DT     0545 Rx 8  02 00 31 00 00 00 C0 3D 
   1200       537.618 DT     0718 Rx 7  04 FF FF 00 00 00 00 
   1201       537.961 DT     0419 Rx 1  00 
   1202       538.075 DT     0744 Rx 1  00 
   1203       538.627 DT     0441 Rx 8  7F C5 44 20 DB 0E 0C 57 
   1204       538.865 DT     0129 Rx 8  21 2E 4F 20 00 20 FF 3F 
   1205       539.665 DT     0321 Rx 8  F8 D9 A7 7B 02 7A A0 33 
   1206       539.903 DT     02C1 Rx 8  03 00 40 66 00 F0 34 00 
   1207       540.101 DT     013D Rx 6  02 20 AA 1A FF 02 
   1208       540.343 DT     02F9 Rx 8  D0 FB 07 28 00 00 00 00 
   1209       540.596 DT     03C8 Rx 8  05 00 00 00 00 00 00 00 
   1210       540.832 DT     0132 Rx 8  F7 89 F8 FF 27 40 FF 0F 
   1211       541.014 DT     039D Rx 5  60 57 41 28 00 
   1212       541.260 DT     0677 Rx 8  02 FF FF FF FF 00 00 00 
   1213       542.200 DT     02E2 Rx 8  52 49 5C 5C 49 49 49 0C 
   1214       542.442 DT     03C2 Rx 8  29 55 00 00 00 00 00 00 
   1215       545.589 DT     0743 Rx 1  00 
   1216       545.834 DT     0263 Rx 8  03 10 20 03 00 00 00 00 
   1217       546.082 DT     03F9 Rx 8  04 00 00 00 00 00 00 00 
   1218       546.494 DT     0788 Rx 8  FE 1E 00 00 00 00 00 00 
   1219       547.630 DT     0201 Rx 8  01 64 64 E4 21 02 96 00 
   1220       547.868 DT     02E1 Rx 8  03 6C 00 02 2C 44 00 00 
   1221       548.718 DT     0129 Rx 8  D0 2F 4F 20 00 20 FF 3F 
   1222       548.896 DT     0249 Rx 4  D3 03 00 00 
   1223       549.079 DT     01FA Rx 3  22 C0 01 
   1224       549.633 DT     013D Rx 6  02 20 AA 1A FF 02 
   1225       550.587 DT     02A1 Rx 6  00 00 98 3A 00 00 
   1226       550.819 DT     0132 Rx 8  F3 89 F8 FF 28 40 FF 0F 
   1227       550.965 DT     0225 Rx 3  05 45 52 
   1228       551.643 DT     02C1 Rx 8  04 CA 03 03 64 C1 39 53 
   1229       551.979 DT     0339 Rx 8  00 B1 00 00 00 01 40 0F 
   1230       552.232 DT     01FB Rx 8  00 FF FF FF FF FF FF FF 
   1231       552.466 DT     023E Rx 8  28 C6 63 95 01 6E 66 FB 
   1232       552.700 DT     0261 Rx 8  31 48 22 00 10 4A DA 10 
   1233       552.934 DT     0288 Rx 8  03 16 54 88 50 00 41 10 
   1234       555.006 DT     0420 Rx 6  28 01 40 4B 00 80 
   1235       555.646 DT     0677 Rx 8  FB FF FF FF FF FF FF 27 
   1236       555.886 DT     0221 Rx 8  41 01 55 00 00 00 60 1A 
   1237       556.099 DT     0283 Rx 6  00 00 00 00 00 00 
   1238       556.227 DT     0242 Rx 2  10 95 
   1239       556.465 DT     039A Rx 8  FC FD FD FD FD FD FD 01 
   1240       557.839 DT     0719 Rx 8  01 00 00 00 00 00 00 00 
   1241       558.585 DT     0798 Rx 8  02 80 76 1F 37 01 30 87 
   1242       558.823 DT     0129 Rx 8  35 20 4F 20 00 20 FF 3F 
   1243       559.763 DT     013D Rx 6  02 20 AA 1A FF 02 
   1244       560.629 DT     0381 Rx 8  0D 00 B8 B8 00 00 68 80 
   1245       560.862 DT     0132 Rx 8  E9 89 F8 FF 27 40 FF 0F 
   1246       561.096 DT     0243 Rx 8  01 FC 5A 5A 5F 5F 7A 7A 
   1247       561.346 DT     03C0 Rx 8  06 00 00 00 00 00 00 00 
   1248       561.638 DT     0201 Rx 8  1A 0F 20 C0 09 60 11 01 
   1249       562.202 DT     0282 Rx 8  00 00 00 00 EC F3 F2 24 
   1250       563.198 DT     0360 Rx 8  01 00 00 00 00 00 00 00 
   1251       563.628 DT     02C1 Rx 8  A5 00 00 00 E0 00 00 00 
   1252       563.840 DT     01F9 Rx 6  00 00 00 00 00 00 
   1253       564.075 DT     02E1 Rx 8  FC 19 10 2A 9E 12 0A 00 
   1254       564.505 DT     06C8 Rx 8  01 00 00 00 00 00 00 00 
   1255       565.707 DT     0103 Rx 8  11 30 00 00 96 14 11 02 
   1256       565.829 DT     0409 Rx 1  00 
   1257       568.623 DT     0545 Rx 8  80 01 31 60 A1 09 DA E0 
   1258       568.859 DT     0129 Rx 8  22 21 4F 20 00 20 FF 3F 
   1259       569.761 DT     013D Rx 6  02 20 AA 1A FF 02 
   1260       570.005 DT     0439 Rx 8  00 00 20 00 00 00 43 02 
   1261       570.241 DT     0102 Rx 8  22 33 00 00 E8 38 11 08 
   1262       570.512 DT     02A8 Rx 8  C2 00 00 00 00 80 70 5C 
   1263       570.752 DT     0123 Rx 8  00 00 48 12 D2 00 00 80 
   1264       570.986 DT     0132 Rx 8  F2 89 F8 FF 28 40 FF 0F 
   1265       571.208 DT     0400 Rx 7  40 40 E0 BF EF FB 00 
   1266       571.654 DT     0677 Rx 8  04 0F 00 00 00 00 00 00 
   1267       571.880 DT     03A1 Rx 8  68 63 0D 98 04 30 82 BC 
   1268       572.198 DT     0142 Rx 8  28 00 02 00 00 00 00 00 
   1269       572.642 DT     0340 Rx 8  07 00 00 00 00 00 00 00 
   1270       575.637 DT     02C1 Rx 8  06 00 00 00 40 00 00 00 
   1271       575.773 DT     0119 Rx 2  00 00 
   1272       576.009 DT     0201 Rx 8  03 40 18 00 10 89 F5 C1 
   1273       576.245 DT     0263 Rx 8  00 EE 0C F3 E4 3F A8 FA 
   1274       576.433 DT     03A3 Rx 5  00 D0 00 00 08 
   1275       576.643 DT     0428 Rx 6  00 00 10 10 00 00 
   1276       577.155 DT     0122 Rx 6  00 00 12 12 12 00 
   1277       577.791 DT     0285 Rx 8  61 02 86 01 01 00 20 00 
   1278       577.926 DT     03D8 Rx 2  72 01 
   1279       578.160 DT     0353 Rx 8  7B 0F 39 80 02 0A F8 FB 
   1280       578.714 DT     0129 Rx 8  6B 22 4F 20 00 20 FF 3F 
   1281       579.658 DT     02E1 Rx 8  05 00 00 00 00 00 00 00 
   1282       579.856 DT     013D Rx 6  02 20 AA 1A FF 02 
   1283       580.102 DT     0319 Rx 8  23 00 00 00 FF FF FF FF 
   1284       580.699 DT     0393 Rx 8  06 00 FC D8 07 C0 1E 20 
   1285       580.931 DT     0132 Rx 8  F1 89 F8 FF 27 40 FF 0F 
   1286       581.177 DT     0372 Rx 8  08 00 00 00 00 00 00 00 
   1287       581.419 DT     025B Rx 8  D3 C0 02 00 00 00 10 00 
   1288       581.599 DT     039D Rx 5  61 58 41 28 00 
   1289       582.187 DT     03A2 Rx 8  00 C0 F2 10 05 00 46 6C 
   1290       583.613 DT     0241 Rx 7  32 64 9C 0C 19 57 00 
   1291       584.172 DT     0272 Rx 8  06 00 FD E8 07 C0 1E 20 
   1292       585.616 DT     0261 Rx 8  56 FE 03 C2 8F 5C E5 2A 
   1293       585.854 DT     020C Rx 8  00 40 4A 1E 00 B0 07 00 
   1294       585.994 DT     039A Rx 8  FD FD FD FD FD 01 00 00 
   1295       586.236 DT     03DB Rx 8  05 0E 00 0E 00 00 00 00 
   1296       586.478 DT     043B Rx 8  03 7F 00 FF 00 00 00 00 
   1297       586.719 DT     0797 Rx 8  14 09 00 00 00 00 30 39 
   1298       587.525 DT     02C1 Rx 8  07 00 14 0D 0E 1D 22 47 
   1299       587.769 DT     0677 Rx 8  05 02 00 28 00 00 00 00 
   1300       587.997 DT     0718 Rx 7  00 7F 7F 7F FF FF FF 
   1301       588.619 DT     0129 Rx 8  7C 23 4F 20 00 20 FF 3F 
   1302       589.553 DT     0201 Rx 8  04 00 00 00 00 00 00 00 
   1303       589.779 DT     075D Rx 8  C9 10 E7 63 B7 8A 03 00 
   1304       589.898 DT     041D Rx 1  00 
   1305       590.134 DT     021D Rx 8  2C 20 08 14 80 00 40 10 
   1306       590.332 DT     043D Rx 6  02 20 AA 1A FF 02 
   1307       590.530 DT     013D Rx 6  02 20 AA 1A FF 02 
   1308       590.761 DT     0132 Rx 8  ED 89 F8 FF 29 40 FF 0F 
   1309       590.997 DT     0243 Rx 8  7A 7D A1 0F 00 00 00 00 
   1310       591.169 DT     01F8 Rx 4  22 00 00 00 
   1311       591.401 DT     025D Rx 8  DF 8C 01 C3 44 C1 0A E0 
   1312       591.651 DT     027D Rx 8  00 00 00 00 00 00 00 00 
   1313       591.893 DT     0379 Rx 8  04 A0 F9 1D 00 00 00 00 
   1314       592.064 DT     029D Rx 4  00 00 00 20 
   1315       592.296 DT     03C2 Rx 8  00 55 55 55 00 00 55 45 
   1316       592.528 DT     023E Rx 8  28 C6 63 95 01 6E 76 0B 
   1317       592.698 DT     02BD Rx 4  00 00 00 00 
   1318       592.834 DT     03E3 Rx 2  00 00 
   1319       593.084 DT     03E8 Rx 8  05 00 00 00 00 00 00 00 
   1320       593.239 DT     077D Rx 3  12 00 00 
   1321       593.593 DT     07DD Rx 3  FF 00 01 
   1322       594.537 DT     02F1 Rx 8  0C 09 00 90 00 00 00 00 
   1323       595.543 DT     02E1 Rx 8  10 21 04 00 00 00 26 08 
   1324       595.781 DT     04E3 Rx 8  00 8E 03 FB 0F 00 08 00 
   1325       597.612 DT     0139 Rx 1  00 
   1326       598.102 DT     03E2 Rx 8  40 15 80 0A 00 00 04 04 
   1327       598.351 DT     07A8 Rx 8  1E 1F 00 70 00 00 00 00 
   1328       598.613 DT     0129 Rx 8  93 24 4F 20 FF 1F FF 3F 
   1329       598.773 DT     0229 Rx 3  43 04 00 
   1330       598.951 DT     0249 Rx 4  D3 04 00 00 
   1331       599.215 DT     054F Rx 8  00 00 00 00 00 00 00 00 
   1332       599.572 DT     02C1 Rx 8  80 0C 32 0B 8B 1F 00 00 
   1333       599.770 DT     013D Rx 6  02 20 AA 1A FF 02 
   1334       600.010 DT     0381 Rx 8  0E 00 C8 C8 00 00 3C 12 
   1335       600.578 DT     02E3 Rx 7  20 00 00 CA 01 0B 00 
   1336       600.810 DT     0132 Rx 8  ED 89 F7 FF 27 40 FF 0F 
   1337       601.544 DT     0545 Rx 8  01 00 00 00 00 10 E0 3B 
   1338       602.096 DT     01FB Rx 8  01 FE FF B7 6D 0B 00 00 
   1339       603.543 DT     0201 Rx 8  05 40 18 00 10 79 B5 C1 
   1340       603.791 DT     03DA Rx 8  00 00 00 00 00 00 00 00 
   1341       604.035 DT     0677 Rx 8  F8 FF FF FF FF FF FF 3F 
   1342       604.295 DT     0228 Rx 8  03 16 54 88 50 00 41 B0 
   1343       604.527 DT     0113 Rx 3  01 97 01 
   1344       604.761 DT     07FF Rx 8  02 5F 4E AC DE CD D6 30 
   1345       604.997 DT     0318 Rx 8  16 03 31 0F 11 12 0B A2 
   1346       605.241 DT     04E2 Rx 8  00 80 01 00 00 00 08 00 
   1347       605.467 DT     0458 Rx 7  02 02 00 80 00 00 00 
   1348       605.702 DT     0221 Rx 8  40 41 05 05 00 50 71 6F 
   1349       605.932 DT     0263 Rx 8  01 E9 12 F2 E5 3C A5 FA 
   1350       606.168 DT     02B3 Rx 8  03 3C 3C 31 01 00 00 00 
   1351       606.402 DT     0343 Rx 8  00 90 64 AE A1 36 00 00 
   1352       606.644 DT     03F5 Rx 8  00 C8 19 09 00 00 00 00 
   1353       608.618 DT     0129 Rx 8  40 25 4F 20 01 20 FF 3F 
   1354       609.664 DT     013D Rx 6  02 20 AA 1A FF 02 
   1355       609.913 DT     037A Rx 8  00 00 00 00 00 00 00 00 
   1356       610.253 DT     07B8 Rx 8  72 1D 00 33 4C 04 30 E4 
   1357       610.603 DT     03C3 Rx 8  00 00 00 00 00 49 00 00 
   1358       610.835 DT     0132 Rx 8  EE 89 F7 FF 26 40 FF 0F 
   1359       611.549 DT     02C1 Rx 8  01 00 00 14 28 70 64 00 
   1360       611.783 DT     02E1 Rx 8  29 0A A3 6A 17 00 00 00 
   1361       612.092 DT     0262 Rx 8  0B 00 D2 0D 00 B0 92 12 
   1362       612.326 DT     0282 Rx 8  4D 05 00 81 42 01 7A 02 
   1363       612.558 DT     02D2 Rx 8  D9 29 8D 4E 00 00 A1 01 
   1364       612.796 DT     0252 Rx 8  00 00 8C 06 00 00 A0 0F 
   1365       613.032 DT     0212 Rx 8  98 24 D6 0F 02 FF 1F 02 
   1366       613.258 DT     0292 Rx 8  4A 57 4D 75 D4 27 9E 01 
   1367       613.389 DT     02F2 Rx 2  12 01 
   1368       615.605 DT     0553 Rx 8  00 00 00 00 00 00 40 98 
   1369       615.849 DT     0359 Rx 8  04 00 00 00 01 00 00 04 
   1370       616.087 DT     039A Rx 8  FC FD FD FD FD FD FD 01 
   1371       616.337 DT     06E8 Rx 8  01 00 00 00 00 00 00 00 
   1372       616.469 DT     02D1 Rx 2  7F 01 
   1373       617.536 DT     0201 Rx 8  3E 73 33 03 00 00 00 00 
   1374       618.000 DT     03AA Rx 8  00 00 00 00 00 00 00 00 
   1375       618.406 DT     07AA Rx 8  07 F6 FF F6 FF F0 FF 00 
   1376       618.642 DT     0129 Rx 8  37 26 4F 20 00 20 FF 3F 
   1377       618.880 DT     0261 Rx 8  03 00 00 00 00 40 F4 78 
   1378       619.124 DT     0552 Rx 8  00 00 00 00 00 00 40 97 
   1379       619.365 DT     078A Rx 8  01 00 02 00 00 00 48 5D 
   1380       619.607 DT     02A7 Rx 8  00 00 00 00 00 84 05 84 
   1381       619.805 DT     013D Rx 6  02 20 AA 1A FF 02 
   1382       620.055 DT     0677 Rx 8  01 FF FF FF FF FF FF 00 
   1383       620.601 DT     0383 Rx 8  97 00 1E 80 00 00 A0 00 
   1384       620.835 DT     0132 Rx 8  E3 89 F7 FF 26 40 FF 0F 
   1385       621.071 DT     0243 Rx 8  FC 7F FF 9F A2 02 41 29 
   1386       621.251 DT     039D Rx 5  62 59 41 28 00 
   1387       621.495 DT     02A6 Rx 8  00 00 FF 1F 00 00 00 00 
   1388       621.744 DT     038A Rx 8  00 00 00 00 00 00 00 00 
   1389       621.980 DT     03A1 Rx 8  2B A0 22 01 00 00 90 14 
   1390       622.224 DT     0142 Rx 8  01 00 40 0A 00 00 00 00 
   1391       622.462 DT     02E8 Rx 8  C2 00 00 00 00 80 70 9C 
   1392       623.370 DT     02C7 Rx 8  00 00 00 00 00 47 48 FF 
   1393       623.606 DT     02C1 Rx 8  02 74 C4 57 00 80 02 00 
   1394       625.566 DT     0423 Rx 6  F0 00 00 00 08 00 
   1395       626.042 DT     0422 Rx 6  00 00 10 00 00 00 
   1396       627.536 DT     0421 Rx 7  00 0A 00 10 00 00 00 
   1397       627.781 DT     02E1 Rx 8  02 00 00 00 00 00 01 00 
   1398       628.013 DT     0313 Rx 8  02 64 64 01 00 00 10 F1 
   1399       628.255 DT     042A Rx 8  01 90 00 48 00 24 00 02 
   1400       628.485 DT     02D3 Rx 8  F5 00 A3 02 13 F0 0C 54 
   1401       628.717 DT     0129 Rx 8  49 27 4F 20 FF 1F FF 3F 
   1402       628.957 DT     0285 Rx 8  02 D3 00 00 00 00 0E 00 
   1403       629.170 DT     0448 Rx 6  00 00 10 10 00 00 
   1404       629.664 DT     013D Rx 6  02 20 AA 1A FF 02 
   1405       630.598 DT     02C3 Rx 8  55 1B A8 36 00 00 12 00 
   1406       630.834 DT     0132 Rx 8  F8 89 F7 FF 27 40 FF 0F 
   1407       631.080 DT     0372 Rx 8  09 00 00 00 00 00 00 00 
   1408       631.312 DT     02C4 Rx 8  08 B3 01 09 0E B3 17 00 
   1409       631.548 DT     0201 Rx 8  40 06 19 00 74 43 06 00 
   1410       632.007 DT     0204 Rx 8  81 00 00 46 00 00 00 10 
   1411       632.177 DT     022A Rx 4  00 00 19 16 
   1412       632.407 DT     023E Rx 8  28 C6 63 95 01 6E 86 1B 
   1413       632.615 DT     0264 Rx 6  3B 00 00 00 A0 00 
   1414       632.855 DT     0224 Rx 8  04 08 00 40 19 01 10 08 
   1415       633.036 DT     02B4 Rx 5  68 AD 25 BB 00 
   1416       633.276 DT     02C2 Rx 8  00 00 00 97 01 00 C0 65 
   1417       633.514 DT     03A2 Rx 8  C5 04 00 00 01 80 21 01 
   1418       633.704 DT     0219 Rx 5  F0 1F FF FF 00 
   1419       633.950 DT     07E8 Rx 8  0A 01 CD 00 2D 00 1F 00 
   1420       634.388 DT     0789 Rx 8  54 09 00 00 00 00 40 4C 
   1421       634.627 DT     0545 Rx 8  02 00 2D 00 00 00 F0 69 
   1422       635.541 DT     02C1 Rx 8  03 00 40 66 00 F0 34 00 
   1423       635.783 DT     0263 Rx 8  02 00 00 00 6D 10 00 00 
   1424       636.029 DT     0677 Rx 8  02 FF FF FF FF 00 00 00 
   1425       637.525 DT     0718 Rx 7  01 FF FF FF FF FF 00 
   1426       637.873 DT     0419 Rx 1  00 
   1427       638.533 DT     0441 Rx 8  7F C5 44 20 DB 0E 10 5B 
   1428       638.765 DT     0129 Rx 8  5A 28 4F 20 01 20 FF 3F 
   1429       638.999 DT     0381 Rx 8  0F 00 00 32 64 36 01 0C 
   1430       639.662 DT     013D Rx 6  02 20 AA 1A FF 02 
   1431       639.906 DT     02F9 Rx 8  D0 FB 07 00 00 00 00 00 
   1432       640.420 DT     03C8 Rx 8  00 00 00 00 00 00 00 00 
   1433       640.652 DT     0132 Rx 8  F0 89 F8 FF 26 40 FF 0F 
   1434       642.104 DT     03C2 Rx 8  29 55 00 00 00 00 00 00 
   1435       643.534 DT     02E1 Rx 8  03 6C 00 02 2C 44 00 00 
   1436       645.526 DT     0201 Rx 8  01 64 64 E4 21 02 96 00 
   1437       645.784 DT     03F9 Rx 8  05 00 00 00 00 00 00 00 
   1438       646.025 DT     039A Rx 8  FD FD FD FD FD 01 00 00 
   1439       646.385 DT     0788 Rx 8  08 D5 A1 63 00 00 00 10 
   1440       647.547 DT     02C1 Rx 8  04 CA 03 03 64 C1 39 53 
   1441       648.615 DT     0129 Rx 8  A2 29 4F 20 00 20 FF 3F 
   1442       648.795 DT     0249 Rx 4  83 05 00 00 
   1443       648.981 DT     01FA Rx 3  22 C0 01 
   1444       649.530 DT     013D Rx 6  02 20 AA 1A FF 02 
   1445       650.501 DT     02A1 Rx 6  00 00 98 3A 00 00 
   1446       650.735 DT     0132 Rx 8  ED 89 F7 FF 28 40 FF 0F 
   1447       650.881 DT     0225 Rx 3  05 45 52 
   1448       651.115 DT     0243 Rx 8  01 FC 5A 5A 5F 5F 7A 7A 
   1449       651.558 DT     0677 Rx 8  FB FF FF FF FF FF FF 27 
   1450       651.790 DT     0261 Rx 8  00 10 2B 00 D6 43 00 95 
   1451       652.036 DT     0339 Rx 8  00 B1 00 00 00 01 40 0F 
   1452       652.288 DT     01FB Rx 8  00 FF FF FF FF FF FF FF 
   1453       652.520 DT     0288 Rx 8  03 16 54 88 50 00 51 20 
   1454       654.910 DT     0420 Rx 6  28 01 40 4B 00 90 
   1455       655.540 DT     0221 Rx 8  41 01 55 00 00 00 80 3A 
   1456       655.752 DT     0283 Rx 6  00 00 00 00 00 00 
   1457       655.978 DT     0242 Rx 2  10 95 
   1458       657.745 DT     0719 Rx 8  00 94 52 00 00 00 00 00 
   1459       658.487 DT     0798 Rx 8  6B D6 59 CE 3A 0B 40 F5 
   1460       658.725 DT     0129 Rx 8  7D 2A 4F 20 00 20 FF 3F 
   1461       659.553 DT     02C1 Rx 8  A5 00 00 00 E0 00 00 00 
   1462       659.751 DT     013D Rx 6  02 20 AA 1A FF 02 
   1463       659.991 DT     0201 Rx 8  1A 0F 20 C0 09 60 11 01 
   1464       660.225 DT     02E1 Rx 8  FC 19 0F 2A 9E 14 0A 00 
   1465       660.616 DT     03C0 Rx 8  07 00 00 00 00 00 00 00 
   1466       660.846 DT     0132 Rx 8  E9 89 F8 FF 2B 40 FF 0F 
   1467       661.026 DT     039D Rx 5  63 5A 41 28 00 
   1468       662.102 DT     0282 Rx 8  00 00 00 00 EC F3 F2 24 
   1469       663.100 DT     0360 Rx 8  02 00 00 04 00 00 00 00 
   1470       663.710 DT     01F9 Rx 6  00 00 00 00 00 00 
   1471       664.388 DT     06C8 Rx 8  CC 01 00 2C 00 00 00 00 
   1472       665.610 DT     0103 Rx 8  11 30 00 00 96 12 11 02 
   1473       665.855 DT     0263 Rx 8  03 10 20 03 00 00 00 00 
   1474       665.975 DT     0409 Rx 1  00 
   1475       667.539 DT     0677 Rx 8  04 0F 00 00 00 00 00 00 
   1476       667.769 DT     0545 Rx 8  D0 01 31 60 A1 0A 0A 61 
   1477       668.611 DT     0129 Rx 8  E5 2B 4F 20 FF 1F FF 3F 
   1478       669.533 DT     013D Rx 6  02 20 AA 1A FF 02 
   1479       669.777 DT     0439 Rx 8  00 00 20 00 00 00 43 02 
   1480       670.112 DT     0102 Rx 8  22 33 00 00 E8 38 11 08 
   1481       670.454 DT     02A8 Rx 8  C2 00 00 00 00 80 80 6C 
   1482       670.694 DT     0123 Rx 8  00 00 48 12 D2 00 00 80 
   1483       670.928 DT     0132 Rx 8  EE 89 F8 FF 27 40 FF 0F 
   1484       671.150 DT     0400 Rx 7  40 40 E0 BF EF FB 00 
   1485       671.570 DT     02C1 Rx 8  06 00 00 00 40 00 00 00 
   1486       671.796 DT     03A1 Rx 8  68 63 0D 98 04 34 A2 E0 
   1487       672.114 DT     0142 Rx 8  28 00 02 00 00 00 00 00 
   1488       672.557 DT     0340 Rx 8  08 00 00 00 00 00 00 00 
   1489       673.103 DT     023E Rx 8  28 C6 63 95 01 6E 96 2B 
   1490       673.237 DT     0410 Rx 2  45 00 
   1491       673.543 DT     0201 Rx 8  03 40 18 00 10 89 F5 C1 
   1492       675.543 DT     02E1 Rx 8  05 00 00 00 00 00 00 00 
   1493       675.679 DT     0119 Rx 2  00 00 
   1494       675.917 DT     039A Rx 8  FC FD FD FD FD FD FD 01 
   1495       676.106 DT     03A3 Rx 5  00 D0 00 00 08 
   1496       676.372 DT     0428 Rx 6  00 00 10 10 00 00 
   1497       677.058 DT     0122 Rx 6  00 00 12 12 12 00 
   1498       677.554 DT     0381 Rx 8  70 B3 01 2B 04 20 33 11 
   1499       678.046 DT     0293 Rx 8  01 0C 55 91 55 15 D4 C6 
   1500       678.258 DT     0253 Rx 7  64 C8 A7 64 C8 47 07 
   1501       678.496 DT     0285 Rx 8  03 75 9D 4B 8A 00 00 00 
   1502       678.730 DT     0129 Rx 8  EC 2C 4F 20 00 20 FF 3F 
   1503       679.677 DT     013D Rx 6  02 20 AA 1A FF 02 
   1504       680.595 DT     0393 Rx 8  09 80 63 00 00 00 00 00 
   1505       680.827 DT     0132 Rx 8  F7 89 F7 FF 27 40 FF 0F 
   1506       681.063 DT     0243 Rx 8  7A 7D A1 0F 00 00 00 00 
   1507       681.301 DT     025B Rx 8  D3 C0 02 00 00 00 20 10 
   1508       681.531 DT     0372 Rx 8  0A C2 A2 16 B4 F0 FF 02 
   1509       682.089 DT     03A2 Rx 8  00 C0 F2 10 05 80 46 6C 
   1510       683.515 DT     0241 Rx 7  32 64 9C 0C 19 57 00 
   1511       683.749 DT     02C1 Rx 8  07 00 14 0D 0E 1D 22 47 
   1512       683.994 DT     0677 Rx 8  05 02 00 28 00 00 00 00 
   1513       684.238 DT     0272 Rx 8  09 80 63 00 00 00 00 00 
   1514       684.542 DT     0261 Rx 8  31 48 06 00 10 4A 1A 34 
   1515       685.610 DT     020C Rx 8  00 40 4A 1E 00 B0 07 00 
   1516       686.236 DT     0797 Rx 8  14 09 00 00 00 00 40 49 
   1517       687.550 DT     0201 Rx 8  04 00 00 00 00 00 00 00 
   1518       687.780 DT     0718 Rx 7  02 FF FF FF FF FF FF 
   1519       688.614 DT     0129 Rx 8  FE 2D 4F 20 00 20 FF 3F 
   1520       689.319 DT     041D Rx 1  00 
   1521       689.671 DT     021D Rx 8  2C 20 08 14 80 00 40 10 
   1522       689.955 DT     043D Rx 6  02 20 AA 1A FF 02 
   1523       690.187 DT     025D Rx 8  DF 8C 01 C3 44 C1 0A E0 
   1524       690.526 DT     013D Rx 6  02 20 AA 1A FF 02 
   1525       690.760 DT     0132 Rx 8  F1 89 F7 FF 27 40 FF 0F 
   1526       690.896 DT     03E3 Rx 2  00 00 
   1527       691.068 DT     01F8 Rx 4  22 00 00 00 
   1528       691.318 DT     027D Rx 8  00 00 00 00 00 00 00 00 
   1529       691.489 DT     029D Rx 4  00 00 00 20 
   1530       691.731 DT     02E1 Rx 8  10 21 04 00 00 00 26 08 
   1531       691.969 DT     0379 Rx 8  05 00 13 0D 92 00 04 00 
   1532       692.139 DT     02BD Rx 4  00 00 00 00 
   1533       692.371 DT     03C2 Rx 8  00 55 55 55 00 00 55 45 
   1534       692.625 DT     03E8 Rx 8  00 00 00 00 00 00 00 00 
   1535       693.456 DT     077D Rx 3  12 00 00 
   1536       693.642 DT     07DD Rx 3  FF 00 01 
   1537       694.532 DT     02F1 Rx 8  0D 00 00 00 00 00 00 00 
   1538       695.548 DT     02C1 Rx 8  80 0C 32 0B 8B 1F 00 00 
   1539       695.784 DT     0263 Rx 8  00 EE 0C F3 E4 3F A8 FA 
   1540       696.018 DT     02B3 Rx 8  04 99 99 8B 8B 00 00 00 
   1541       696.262 DT     04E3 Rx 8  01 DE 06 00 00 00 08 00 
   1542       697.615 DT     0139 Rx 1  00 
   1543       698.107 DT     03E2 Rx 8  40 15 80 0A 00 00 04 04 
   1544       698.341 DT     07A8 Rx 8  0C D5 A1 63 00 00 40 10 
   1545       698.617 DT     0129 Rx 8  21 2E 4F 20 00 20 FF 3F 
   1546       698.777 DT     0229 Rx 3  41 05 00 
   1547       698.956 DT     0249 Rx 4  4C 06 00 00 
   1548       699.220 DT     054F Rx 8  00 00 00 00 00 00 00 00 
   1549       699.566 DT     0677 Rx 8  F8 FF FF FF FF FF FF 3F 
   1550       699.764 DT     013D Rx 6  02 20 AA 1A FF 02 
   1551       700.544 DT     0545 Rx 8  01 00 00 00 00 10 10 6B 
   1552       700.776 DT     0132 Rx 8  F1 89 F8 FF 29 40 FF 0F 
   1553       700.998 DT     02E3 Rx 7  03 00 00 C4 01 0B 00 
   1554       701.179 DT     039D Rx 5  64 5B 41 28 00 
   1555       701.547 DT     0201 Rx 8  05 40 18 00 10 79 B5 C1 
   1556       702.103 DT     01FB Rx 8  01 FE FF B7 6D 0B 00 00 
   1557       703.744 DT     03DA Rx 8  00 00 00 00 00 00 00 00 
   1558       704.298 DT     0228 Rx 8  03 16 54 88 50 00 51 C0 
   1559       704.530 DT     0113 Rx 3  01 97 01 
   1560       704.766 DT     07FF Rx 8  03 31 08 A1 E0 42 16 41 
   1561       705.000 DT     0318 Rx 8  16 03 31 0F 11 12 0D A4 
   1562       705.245 DT     04E2 Rx 8  01 6C 07 01 00 00 08 00 
   1563       705.471 DT     0458 Rx 7  02 02 00 80 00 00 00 
   1564       705.705 DT     0221 Rx 8  40 41 05 05 00 50 91 8F 
   1565       705.941 DT     0343 Rx 8  00 90 5C EE A1 51 00 00 
   1566       706.181 DT     039A Rx 8  FD FD FD FD FD 01 00 00 
   1567       706.423 DT     03F5 Rx 8  00 C8 19 09 00 00 00 00 
