;$FILEVERSION=2.0
;$STARTTIME=44637.6810380093
;$COLUMNS=N,O,T,I,d,l,D
;
;   C:\Users\bayerld\Documents\Tesla\20220317-vehiclecan-schlieﬂen-app.trc
;   Start time: 17.03.2022 16:20:41.684.0
;   Generated by PCAN-View v4.2.5.569
;-------------------------------------------------------------------------------
;   Connection                 Bit rate
;   PCANLight_USB_16@pcan_usb  500 kBit/s
;-------------------------------------------------------------------------------
;   Message   Time    Type ID     Rx/Tx
;   Number    Offset  |    [hex]  |  Data Length
;   |         [ms]    |    |      |  |  Data [hex] ...
;   |         |       |    |      |  |  |
;---+-- ------+------ +- --+----- +- +- +- +- -- -- -- -- -- -- --
      1         0.642 DT     0552 Rx 8  00 00 00 00 00 00 D0 27 
      2         0.878 DT     0132 Rx 8  EF 89 F7 FF 27 40 FF 0F 
      3         1.114 DT     02C1 Rx 8  02 74 C4 57 00 80 02 00 
      4         1.630 DT     013D Rx 6  02 20 AA 1A FF 02 
      5         2.428 DT     0383 Rx 8  97 00 1E 80 00 00 A0 00 
      6         2.932 DT     03A1 Rx 8  2B A0 22 01 00 00 B0 34 
      7         3.180 DT     038A Rx 8  01 00 00 00 00 00 00 00 
      8         3.642 DT     0142 Rx 8  01 00 80 03 00 00 00 00 
      9         4.881 DT     02E8 Rx 8  C2 00 00 00 00 80 00 2C 
     10         5.117 DT     0129 Rx 8  22 21 4F 20 00 20 FF 3F 
     11         5.361 DT     02E1 Rx 8  02 00 00 00 00 00 01 00 
     12         5.533 DT     0453 Rx 4  00 00 00 00 
     13         5.727 DT     0284 Rx 5  10 00 00 00 00 
     14         6.661 DT     022A Rx 4  00 00 19 16 
     15         7.394 DT     0423 Rx 6  00 00 00 00 08 00 
     16         7.624 DT     0263 Rx 8  01 E9 12 F2 E4 3C A5 FA 
     17         7.834 DT     0422 Rx 6  A0 00 10 00 00 00 
     18         8.932 DT     0421 Rx 7  00 0A 00 10 00 00 00 
     19         9.170 DT     0201 Rx 8  40 A6 19 00 70 43 06 00 
     20         9.412 DT     042A Rx 8  01 90 00 48 00 24 00 02 
     21         9.638 DT     0545 Rx 8  D0 01 31 D0 A1 0C CA 93 
     22        10.796 DT     0132 Rx 8  EC 89 F8 FF 28 40 FF 0F 
     23        11.037 DT     0372 Rx 8  07 00 04 00 DF 4D 0D 00 
     24        11.249 DT     0448 Rx 6  00 00 10 10 00 00 
     25        11.675 DT     013D Rx 6  02 20 AA 1A FF 02 
     26        12.427 DT     02C3 Rx 8  00 00 00 A6 01 00 80 69 
     27        12.925 DT     02C1 Rx 8  03 00 40 66 00 00 35 00 
     28        13.171 DT     0677 Rx 8  02 FF FF FF FF 00 00 00 
     29        13.639 DT     03A2 Rx 8  C7 04 00 00 01 80 21 01 
     30        14.636 DT     02C2 Rx 8  55 5B A9 06 00 00 12 00 
     31        14.900 DT     0129 Rx 8  C6 22 4F 20 01 20 FF 3F 
     32        15.112 DT     0219 Rx 5  04 74 74 00 00 
     33        16.026 DT     039D Rx 5  79 50 61 28 00 
     34        16.726 DT     0789 Rx 8  54 09 00 00 00 00 D0 DC 
     35        17.212 DT     039A Rx 8  FC FD FD FD FD FD FD 01 
     36        17.330 DT     0419 Rx 1  00 
     37        18.923 DT     0718 Rx 7  04 FF FF 00 00 00 00 
     38        19.507 DT     0744 Rx 1  00 
     39        19.915 DT     0441 Rx 8  7F C5 44 20 DB 0E 34 7F 
     40        20.797 DT     0132 Rx 8  ED 89 F7 FF 28 40 FF 0F 
     41        21.035 DT     02E1 Rx 8  03 6C 00 02 2C 44 00 00 
     42        21.281 DT     02F9 Rx 8  D0 FB 07 08 00 00 00 00 
     43        21.509 DT     0321 Rx 8  F8 D9 A7 7B 02 7A B0 43 
     44        21.708 DT     013D Rx 6  02 20 AA 1A FF 02 
     45        22.430 DT     0243 Rx 8  7A 7D A1 0F 00 00 00 00 
     46        22.800 DT     03C8 Rx 8  01 00 00 00 00 00 00 00 
     47        23.032 DT     0201 Rx 8  01 64 64 EA 21 02 96 00 
     48        23.640 DT     02E2 Rx 8  F7 D3 4F 40 69 56 53 55 
     49        23.882 DT     03C2 Rx 8  29 55 00 00 00 00 00 00 
     50        24.906 DT     0129 Rx 8  7C 23 4F 20 00 20 FF 3F 
     51        25.142 DT     02C1 Rx 8  04 CA 03 03 64 C1 39 53 
     52        25.311 DT     0249 Rx 4  5E 07 00 00 
     53        25.551 DT     0381 Rx 8  0A 00 00 A8 FA AA 00 00 
     54        25.947 DT     0261 Rx 8  31 48 24 00 12 4A DA 14 
     55        27.199 DT     03F9 Rx 8  00 00 00 00 00 00 00 00 
     56        27.321 DT     0743 Rx 1  00 
     57        28.733 DT     0788 Rx 8  01 00 00 00 FF A1 08 00 
     58        28.977 DT     0677 Rx 8  FB FF FF FF FF FF FF 27 
     59        29.209 DT     023E Rx 8  28 C6 63 95 01 6E F6 8B 
     60        30.543 DT     01FA Rx 3  22 C0 01 
     61        30.774 DT     0132 Rx 8  E7 89 F8 FF 26 40 FF 0F 
     62        31.640 DT     013D Rx 6  02 20 AA 1A FF 02 
     63        31.876 DT     02A1 Rx 6  00 00 98 3A 00 00 
     64        32.332 DT     0225 Rx 3  05 45 52 
     65        33.302 DT     0339 Rx 8  00 B1 00 00 00 01 40 0F 
     66        33.653 DT     01FB Rx 8  00 FF FF FF FF FF FF FF 
     67        34.353 DT     0420 Rx 6  28 01 40 4B 00 20 
     68        34.727 DT     0288 Rx 8  03 16 54 88 50 00 E1 B0 
     69        34.959 DT     0129 Rx 8  93 24 4F 20 FF 1F FF 3F 
     70        36.919 DT     02C1 Rx 8  A5 00 00 00 E0 00 00 00 
     71        37.161 DT     0201 Rx 8  22 0F 20 C0 09 60 11 01 
     72        37.397 DT     0221 Rx 8  41 01 55 00 00 00 A0 5A 
     73        37.525 DT     0242 Rx 2  10 95 
     74        37.770 DT     0263 Rx 8  02 00 00 00 6B 10 00 00 
     75        37.983 DT     0283 Rx 6  00 00 00 00 00 00 
     76        38.217 DT     02B3 Rx 8  04 99 99 8B 8B 00 00 00 
     77        38.447 DT     02E1 Rx 8  FC 19 12 2A 9E 12 0A 00 
     78        39.177 DT     0719 Rx 8  01 00 00 00 00 00 00 00 
     79        40.781 DT     0132 Rx 8  EB 89 F7 FF 26 40 FF 0F 
     80        41.025 DT     0798 Rx 8  05 00 00 00 00 00 D0 DD 
     81        41.444 DT     013D Rx 6  02 20 AA 1A FF 02 
     82        41.920 DT     0545 Rx 8  01 00 00 00 00 10 D0 2B 
     83        42.452 DT     03C0 Rx 8  02 00 00 04 00 00 00 00 
     84        43.646 DT     0282 Rx 8  00 00 00 00 EC F3 F2 24 
     85        44.654 DT     0360 Rx 8  04 00 00 00 00 00 00 00 
     86        44.904 DT     0129 Rx 8  ED 25 4F 20 00 20 FF 3F 
     87        45.152 DT     0677 Rx 8  04 0F 00 00 00 00 00 00 
     88        45.364 DT     01F9 Rx 6  00 00 00 00 00 00 
     89        45.485 DT     0409 Rx 1  00 
     90        46.735 DT     06C8 Rx 8  01 00 00 00 00 00 00 00 
     91        47.217 DT     039A Rx 8  FD FD FD FD FD 01 00 00 
     92        47.455 DT     0103 Rx 8  11 30 00 00 96 14 11 01 
     93        48.947 DT     02C1 Rx 8  06 00 00 00 40 00 00 00 
     94        50.301 DT     0400 Rx 7  40 60 E0 BF EF FB 00 
     95        50.786 DT     0132 Rx 8  E7 89 F8 FF 28 40 FF 0F 
     96        51.022 DT     0201 Rx 8  03 40 18 00 10 89 F5 C1 
     97        51.266 DT     0439 Rx 8  00 00 20 00 00 00 43 02 
     98        51.648 DT     0102 Rx 8  22 33 00 00 E8 38 11 08 
     99        51.846 DT     013D Rx 6  02 20 AA 1A FF 02 
    100        52.448 DT     0123 Rx 8  00 00 48 12 D2 00 00 E0 
    101        52.686 DT     0243 Rx 8  FC 7F FF 5F A2 02 41 29 
    102        52.928 DT     02A8 Rx 8  C2 00 00 00 00 80 10 FC 
    103        53.176 DT     02E1 Rx 8  05 00 00 00 00 00 00 00 
    104        53.407 DT     03A1 Rx 8  68 62 0D 98 00 34 C2 FB 
    105        53.665 DT     0142 Rx 8  08 02 02 00 00 00 00 00 
    106        53.955 DT     0340 Rx 8  03 00 00 00 00 00 00 00 
    107        54.751 DT     0285 Rx 8  61 02 86 01 01 00 20 00 
    108        54.987 DT     0129 Rx 8  37 26 4F 20 00 20 FF 3F 
    109        55.119 DT     03D8 Rx 2  72 01 
    110        55.357 DT     0353 Rx 8  7B 0F 39 80 02 0E F8 FB 
    111        56.071 DT     039D Rx 5  7A 51 61 28 00 
    112        57.066 DT     0119 Rx 2  00 00 
    113        57.388 DT     03A3 Rx 5  00 D0 00 00 08 
    114        58.598 DT     0122 Rx 6  00 00 12 12 12 00 
    115        58.808 DT     0428 Rx 6  00 00 10 10 00 00 
    116        59.036 DT     0261 Rx 8  5A FE 04 BA 8F 5C E5 27 
    117        60.786 DT     0132 Rx 8  EB 89 F7 FF 28 40 FF 0F 
    118        61.020 DT     02C1 Rx 8  07 00 14 0D 0E 1D 22 47 
    119        61.265 DT     0319 Rx 8  0B 03 01 00 01 00 00 00 
    120        61.511 DT     0372 Rx 8  08 00 00 00 00 00 00 00 
    121        61.709 DT     013D Rx 6  02 20 AA 1A FF 02 
    122        61.953 DT     0677 Rx 8  05 02 00 28 00 00 00 00 
    123        62.423 DT     0393 Rx 8  06 00 FC E0 07 C0 1E 20 
    124        63.629 DT     03A2 Rx 8  00 E0 72 0D 05 00 C6 6C 
    125        63.913 DT     0381 Rx 8  0B F0 FC EE EE EF EE 00 
    126        64.906 DT     0129 Rx 8  20 27 4F 20 00 20 FF 3F 
    127        65.154 DT     0201 Rx 8  04 00 00 00 00 00 00 00 
    128        65.370 DT     0241 Rx 7  33 64 DC 0C 19 57 00 
    129        65.610 DT     0272 Rx 8  06 00 FD E8 07 C0 1E 20 
    130        67.163 DT     043B Rx 8  03 7F 00 FF 00 00 00 00 
    131        67.409 DT     03DB Rx 8  03 00 00 00 00 00 00 00 
    132        67.647 DT     020C Rx 8  00 80 4A 1E 00 B0 07 00 
    133        67.892 DT     0263 Rx 8  03 10 20 03 00 00 00 00 
    134        68.812 DT     0797 Rx 8  14 09 00 00 00 00 D0 D9 
    135        69.054 DT     02E1 Rx 8  10 21 04 00 00 00 26 08 
    136        69.286 DT     023E Rx 8  28 C6 63 95 01 6E 06 9B 
    137        69.514 DT     0718 Rx 7  00 7F 7F 7F FF FF FF 
    138        70.342 DT     025B Rx 8  D3 C0 02 00 00 00 C0 B0 
    139        70.760 DT     0132 Rx 8  E7 89 F7 FF 28 40 FF 0F 
    140        71.695 DT     021D Rx 8  2C 20 08 14 80 00 40 10 
    141        72.157 DT     025D Rx 8  DF 8C 01 C3 44 C1 0A E0 
    142        72.355 DT     013D Rx 6  02 20 AA 1A FF 02 
    143        72.489 DT     03E3 Rx 2  00 04 
    144        72.661 DT     01F8 Rx 4  22 00 00 00 
    145        72.911 DT     027D Rx 8  00 00 00 00 00 00 00 00 
    146        73.152 DT     02C1 Rx 8  80 0C 32 0B 8B 1F 00 00 
    147        73.386 DT     0379 Rx 8  06 80 B9 AD 3B 00 04 00 
    148        73.504 DT     041D Rx 1  00 
    149        73.674 DT     029D Rx 4  00 00 00 20 
    150        73.906 DT     03C2 Rx 8  00 55 55 55 00 00 55 45 
    151        74.104 DT     043D Rx 6  02 20 AA 1A FF 02 
    152        74.275 DT     02BD Rx 4  00 00 00 00 
    153        74.511 DT     075D Rx 8  00 6D 8C 6B 8C 00 00 00 
    154        74.665 DT     077D Rx 3  12 00 00 
    155        74.901 DT     0129 Rx 8  F7 28 4F 20 00 20 FF 3F 
    156        75.155 DT     03E8 Rx 8  01 00 00 00 00 00 00 00 
    157        75.305 DT     0229 Rx 3  31 0E 00 
    158        75.548 DT     0545 Rx 8  02 00 1C 00 00 00 E0 48 
    159        75.714 DT     0249 Rx 4  3F 08 00 00 
    160        75.956 DT     02F1 Rx 8  08 01 00 60 04 58 01 00 
    161        76.206 DT     054F Rx 8  00 00 00 00 00 00 00 00 
    162        76.363 DT     07DD Rx 3  FF 00 01 
    163        76.903 DT     0677 Rx 8  F8 FF FF FF FF FF FF 3F 
    164        77.187 DT     039A Rx 8  FC FD FD FD FD FD FD 01 
    165        77.427 DT     04E3 Rx 8  02 13 07 00 00 00 08 00 
    166        78.911 DT     0201 Rx 8  05 40 18 00 10 79 B5 C1 
    167        79.027 DT     0139 Rx 1  00 
    168        79.633 DT     03E2 Rx 8  40 15 80 0A 00 00 04 04 
    169        80.752 DT     0132 Rx 8  ED 89 F8 FF 29 40 FF 0F 
    170        80.994 DT     07A8 Rx 8  01 00 00 00 FF A1 08 00 
    171        81.616 DT     013D Rx 6  02 20 AA 1A FF 02 
    172        82.384 DT     02E3 Rx 7  94 12 61 00 0C 06 00 
    173        82.612 DT     0243 Rx 8  01 FC 59 59 5E 5E 7A 7A 
    174        83.616 DT     01FB Rx 8  01 FE FF B7 6D 0B 00 00 
    175        84.878 DT     0129 Rx 8  0F 29 4F 20 01 20 FF 3F 
    176        85.118 DT     02C1 Rx 8  01 00 00 14 28 70 64 00 
    177        85.352 DT     02E1 Rx 8  29 0A A3 6A 17 00 00 00 
    178        85.601 DT     03DA Rx 8  00 00 00 00 00 00 00 00 
    179        86.435 DT     02A7 Rx 8  00 00 00 00 00 84 05 84 
    180        86.679 DT     04E2 Rx 8  02 69 00 01 00 00 08 00 
    181        86.829 DT     0113 Rx 3  01 97 01 
    182        87.065 DT     0221 Rx 8  40 41 05 05 00 50 B1 AF 
    183        87.295 DT     0228 Rx 8  03 16 54 88 50 00 E1 50 
    184        87.533 DT     0343 Rx 8  00 90 60 AE A1 51 00 00 
    185        87.775 DT     03F5 Rx 8  00 C8 19 09 00 00 00 00 
    186        88.007 DT     07FF Rx 8  02 5F 4E AC DE CD D6 30 
    187        88.248 DT     0318 Rx 8  16 03 2A 0F 11 14 1F B1 
    188        88.492 DT     02A6 Rx 8  00 00 FF 1F 00 00 00 00 
    189        88.718 DT     0458 Rx 7  02 02 00 80 00 00 00 
    190        90.430 DT     02C7 Rx 8  00 00 00 00 00 47 48 FF 
    191        90.758 DT     0132 Rx 8  F5 89 F8 FF 27 40 FF 0F 
    192        91.156 DT     037A Rx 8  02 00 00 00 00 00 00 00 
    193        91.619 DT     013D Rx 6  02 20 AA 1A FF 02 
    194        91.899 DT     0261 Rx 8  03 00 00 00 00 40 F4 78 
    195        92.339 DT     02D2 Rx 8  D9 29 8D 4E 00 00 A1 01 
    196        92.577 DT     0252 Rx 8  00 00 8C 06 00 00 A0 0F 
    197        92.813 DT     0212 Rx 8  98 24 DE 0F 02 FF 1F 02 
    198        93.055 DT     0201 Rx 8  3E 73 33 03 00 00 00 00 
    199        93.281 DT     0292 Rx 8  4A 57 4D 75 D4 27 9E 01 
    200        93.412 DT     02F2 Rx 2  12 01 
    201        93.646 DT     0262 Rx 8  0B 00 D2 0D 00 70 52 12 
    202        93.884 DT     0282 Rx 8  4D 05 00 81 20 01 7A 02 
    203        94.130 DT     03C3 Rx 8  00 00 00 00 00 45 00 00 
    204        94.378 DT     03AA Rx 8  00 00 00 00 00 00 00 00 
    205        94.619 DT     0310 Rx 8  0B 00 07 02 05 00 02 00 
    206        94.869 DT     0677 Rx 8  01 FF FF FF FF FF FF 00 
    207        95.103 DT     0129 Rx 8  14 2A 4F 20 FF 1F FF 3F 
    208        95.341 DT     07AA Rx 8  07 F9 FF F9 FF F4 FF 00 
    209        95.573 DT     07B8 Rx 8  05 20 59 DE 8D 00 D0 5B 
    210        95.997 DT     039D Rx 5  7B 52 61 28 00 
    211        96.238 DT     078A Rx 8  01 00 07 00 00 00 B2 04 
    212        96.478 DT     02C4 Rx 8  04 00 00 00 00 24 59 4B 
    213        96.894 DT     02C1 Rx 8  02 74 C4 57 00 80 02 00 
    214        97.152 DT     0204 Rx 8  81 00 00 46 00 00 00 10 
    215        97.390 DT     0359 Rx 8  0E 00 00 00 66 49 B9 82 
    216        97.626 DT     0263 Rx 8  00 EE 0C F3 E4 3F A8 FA 
    217        97.835 DT     0264 Rx 6  3B 00 00 00 A0 00 
    218        97.967 DT     02D1 Rx 2  7F 01 
    219        98.207 DT     0224 Rx 8  04 08 00 40 19 01 10 08 
    220        98.453 DT     0553 Rx 8  00 00 00 00 00 00 E0 38 
    221        98.633 DT     02B4 Rx 5  68 AD 25 CC 00 
    222        98.883 DT     06E8 Rx 8  01 00 00 00 00 00 00 00 
    223        99.133 DT     03C4 Rx 8  12 30 8C 1F 17 3F 3C E6 
    224       100.620 DT     0552 Rx 8  00 00 00 00 00 00 E0 37 
    225       100.854 DT     0132 Rx 8  E9 89 F7 FF 26 40 FF 0F 
    226       101.098 DT     02E1 Rx 8  02 00 00 00 00 00 01 00 
    227       101.612 DT     013D Rx 6  02 20 AA 1A FF 02 
    228       102.406 DT     0383 Rx 8  97 00 1E 80 00 00 A0 00 
    229       102.914 DT     0381 Rx 8  0C 00 00 82 00 00 00 5D 
    230       103.161 DT     038A Rx 8  03 00 00 00 00 00 00 00 
    231       103.397 DT     03A1 Rx 8  2B A0 22 01 00 00 D0 54 
    232       103.641 DT     0142 Rx 8  01 00 80 03 00 00 00 00 
    233       104.663 DT     0313 Rx 8  02 64 64 01 00 00 30 11 
    234       104.901 DT     0129 Rx 8  21 2B 4F 20 01 20 FF 3F 
    235       105.131 DT     02D3 Rx 8  F5 00 A3 02 13 F0 0C 54 
    236       105.375 DT     02E8 Rx 8  C2 00 00 00 00 80 10 3C 
    237       105.615 DT     0285 Rx 8  02 D3 00 00 00 00 0E 00 
    238       106.574 DT     022A Rx 4  00 00 19 16 
    239       106.894 DT     0201 Rx 8  68 06 19 00 70 43 06 00 
    240       107.194 DT     039A Rx 8  FD FD FD FD FD 01 00 00 
    241       107.402 DT     0423 Rx 6  00 00 00 00 08 00 
    242       107.612 DT     0422 Rx 6  A0 00 10 00 00 00 
    243       107.908 DT     0545 Rx 8  40 01 31 B0 A1 0E FA 15 
    244       108.902 DT     0421 Rx 7  00 0A 00 10 00 00 00 
    245       109.143 DT     02C1 Rx 8  03 00 40 66 00 00 35 00 
    246       109.373 DT     023E Rx 8  28 C6 63 95 01 6E 16 AB 
    247       109.615 DT     042A Rx 8  01 90 00 48 00 24 00 02 
    248       109.861 DT     0677 Rx 8  02 FF FF FF FF 00 00 00 
    249       110.821 DT     0132 Rx 8  E9 89 F7 FF 26 40 FF 0F 
    250       111.033 DT     0448 Rx 6  00 00 10 10 00 00 
    251       111.347 DT     0372 Rx 8  09 00 00 00 00 00 00 00 
    252       111.546 DT     013D Rx 6  02 20 AA 1A FF 02 
    253       112.402 DT     02C3 Rx 8  55 1B A8 36 00 00 12 00 
    254       112.638 DT     0243 Rx 8  7A 7D A1 0F 00 00 00 00 
    255       113.614 DT     03A2 Rx 8  C5 04 00 00 01 80 21 01 
    256       114.620 DT     02C2 Rx 8  00 00 00 97 01 00 C0 65 
    257       114.864 DT     07E8 Rx 8  0B 2D 01 01 00 01 00 00 
    258       115.099 DT     0129 Rx 8  EC 2C 4F 20 00 20 FF 3F 
    259       115.289 DT     0219 Rx 5  F0 1F FF FF 00 
    260       116.707 DT     0789 Rx 8  54 09 00 00 00 00 E0 EC 
    261       116.945 DT     02E1 Rx 8  03 6C 00 02 2C 44 00 00 
    262       117.419 DT     0419 Rx 1  00 
    263       118.897 DT     0718 Rx 7  01 FF FF FF FF FF 00 
    264       119.894 DT     0441 Rx 8  7F C5 44 20 DB 0E 38 83 
    265       120.771 DT     0132 Rx 8  ED 89 F7 FF 26 40 FF 0F 
    266       121.005 DT     0201 Rx 8  01 64 64 E9 21 02 96 00 
    267       121.241 DT     02C1 Rx 8  04 CA 03 03 64 C1 39 53 
    268       121.483 DT     02F9 Rx 8  D0 FB 07 10 00 00 00 00 
    269       121.681 DT     013D Rx 6  02 20 AA 1A FF 02 
    270       122.735 DT     03C8 Rx 8  02 00 00 00 00 00 00 00 
    271       123.629 DT     03C2 Rx 8  29 55 00 00 00 00 00 00 
    272       124.877 DT     0129 Rx 8  FE 2D 4F 20 00 20 FF 3F 
    273       125.110 DT     0261 Rx 8  00 10 29 00 D6 43 00 93 
    274       125.276 DT     0249 Rx 4  5E 09 00 00 
    275       125.520 DT     0677 Rx 8  FB FF FF FF FF FF FF 27 
    276       127.180 DT     03F9 Rx 8  01 00 00 00 00 00 00 00 
    277       127.438 DT     0263 Rx 8  01 E9 12 F2 E4 3C A5 FA 
    278       127.678 DT     02B3 Rx 8  05 00 4E 80 00 00 7D 7D 
    279       128.712 DT     0788 Rx 8  F6 1E 00 00 00 00 00 00 
    280       130.522 DT     01FA Rx 3  22 C0 01 
    281       130.755 DT     0132 Rx 8  E2 89 F7 FF 27 40 FF 0F 
    282       131.615 DT     013D Rx 6  02 20 AA 1A FF 02 
    283       131.859 DT     02A1 Rx 6  00 00 98 3A 00 00 
    284       132.309 DT     0225 Rx 3  05 45 52 
    285       132.905 DT     02C1 Rx 8  A5 00 00 00 E0 00 00 00 
    286       133.137 DT     02E1 Rx 8  FC 19 13 1A 9E 14 0A 00 
    287       133.383 DT     0339 Rx 8  00 B1 00 00 00 01 40 0F 
    288       133.636 DT     01FB Rx 8  00 FF FF FF FF FF FF FF 
    289       134.354 DT     0420 Rx 6  28 01 40 4B 00 30 
    290       134.710 DT     0288 Rx 8  03 16 54 88 50 00 F1 C0 
    291       134.948 DT     0129 Rx 8  21 2E 4F 20 00 20 FF 3F 
    292       135.190 DT     0201 Rx 8  22 0F 20 C0 09 60 11 01 
    293       135.932 DT     039D Rx 5  7C 53 61 28 00 
    294       136.894 DT     0221 Rx 8  41 01 55 00 00 00 C0 7A 
    295       137.222 DT     039A Rx 8  FC FD FD FD FD FD FD 01 
    296       137.435 DT     0283 Rx 6  00 00 00 00 00 00 
    297       137.563 DT     0242 Rx 2  10 95 
    298       139.143 DT     0719 Rx 8  00 94 52 00 00 00 00 00 
    299       140.753 DT     0132 Rx 8  E9 89 F7 FF 26 40 FF 0F 
    300       140.997 DT     0545 Rx 8  01 00 00 00 00 10 00 5B 
    301       141.245 DT     0677 Rx 8  04 0F 00 00 00 00 00 00 
    302       141.485 DT     0798 Rx 8  9E 01 00 00 00 00 E0 87 
    303       141.684 DT     013D Rx 6  02 20 AA 1A FF 02 
    304       141.924 DT     0381 Rx 8  0D 00 B8 B8 00 00 6C 80 
    305       142.416 DT     03C0 Rx 8  03 00 80 00 00 00 00 20 
    306       142.654 DT     0243 Rx 8  FC 7F FF 5F A2 02 41 29 
    307       143.624 DT     0282 Rx 8  00 00 00 00 EC F3 F2 24 
    308       144.630 DT     0360 Rx 8  05 00 00 00 00 00 00 00 
    309       144.878 DT     0129 Rx 8  D0 2F 4F 20 00 20 FF 3F 
    310       145.129 DT     02C1 Rx 8  06 00 00 00 40 00 00 00 
    311       145.341 DT     01F9 Rx 6  00 00 00 00 00 00 
    312       145.825 DT     0409 Rx 1  00 
    313       146.707 DT     06C8 Rx 8  CC 01 00 2C 00 00 00 00 
    314       147.417 DT     0103 Rx 8  11 30 00 00 96 14 11 01 
    315       148.909 DT     0201 Rx 8  03 40 18 00 10 89 F5 C1 
    316       149.139 DT     023E Rx 8  28 C6 63 95 01 6E 26 BB 
    317       149.387 DT     02E1 Rx 8  05 00 00 00 00 00 00 00 
    318       150.223 DT     0400 Rx 7  40 60 E0 BF EF FB 00 
    319       150.764 DT     0132 Rx 8  E8 89 F7 FF 26 40 FF 0F 
    320       151.138 DT     0439 Rx 8  00 00 20 00 00 00 43 02 
    321       151.376 DT     0410 Rx 2  45 00 
    322       151.642 DT     0102 Rx 8  22 33 00 00 E8 38 11 08 
    323       151.840 DT     013D Rx 6  02 20 AA 1A FF 02 
    324       152.426 DT     0123 Rx 8  00 00 48 12 D2 00 00 E0 
    325       152.778 DT     02A8 Rx 8  C2 00 00 00 00 80 20 0C 
    326       153.009 DT     03A1 Rx 8  68 62 0D 98 00 34 E2 1B 
    327       153.635 DT     0142 Rx 8  08 02 02 00 00 00 00 00 
    328       153.923 DT     0340 Rx 8  04 00 00 00 00 00 00 00 
    329       154.879 DT     0129 Rx 8  35 20 4F 20 00 20 FF 3F 
    330       155.425 DT     0293 Rx 8  01 0C 55 91 55 15 F4 E6 
    331       155.637 DT     0253 Rx 7  64 C8 A7 64 C8 47 07 
    332       155.875 DT     0285 Rx 8  03 75 9D 4B 8A 00 00 00 
    333       156.885 DT     02C1 Rx 8  07 00 14 0D 0E 1D 22 47 
    334       157.130 DT     0677 Rx 8  05 02 00 28 00 00 00 00 
    335       157.266 DT     0119 Rx 2  00 00 
    336       157.510 DT     0263 Rx 8  02 00 00 00 6B 10 00 00 
    337       157.698 DT     03A3 Rx 5  00 D0 00 00 08 
    338       157.930 DT     0261 Rx 8  31 48 14 00 12 4A 1A 44 
    339       158.588 DT     0122 Rx 6  00 00 12 12 12 00 
    340       158.798 DT     0428 Rx 6  00 00 10 10 00 00 
    341       160.762 DT     0132 Rx 8  E1 89 F7 FF 23 40 FF 0F 
    342       160.991 DT     0372 Rx 8  0A C2 AA 56 B4 F0 FF 02 
    343       161.623 DT     013D Rx 6  02 20 AA 1A FF 02 
    344       162.399 DT     0393 Rx 8  09 80 63 00 00 00 00 00 
    345       162.907 DT     0201 Rx 8  04 00 00 00 00 00 00 00 
    346       163.607 DT     03A2 Rx 8  00 C0 72 0D 05 80 C6 6C 
    347       164.871 DT     0129 Rx 8  4B 21 4F 20 FF 1F FF 3F 
    348       165.089 DT     0241 Rx 7  32 64 9C 0C 19 57 00 
    349       165.332 DT     02E1 Rx 8  10 21 04 00 00 00 26 08 
    350       165.630 DT     0272 Rx 8  09 80 63 00 00 00 00 00 
    351       167.204 DT     039A Rx 8  FD FD FD FD FD 01 00 00 
    352       167.442 DT     020C Rx 8  00 80 4A 1E 00 B0 07 00 
    353       168.818 DT     0797 Rx 8  14 09 00 00 00 00 E0 E9 
    354       169.058 DT     02C1 Rx 8  80 0C 32 0B 8B 1F 00 00 
    355       169.288 DT     0718 Rx 7  02 FF FF FF FF FF FF 
    356       170.759 DT     0132 Rx 8  EE 89 F7 FF 26 40 FF 0F 
    357       171.377 DT     025B Rx 8  D3 C0 02 00 00 00 D0 C0 
    358       171.613 DT     021D Rx 8  2C 20 08 14 80 00 40 10 
    359       171.731 DT     041D Rx 1  00 
    360       171.963 DT     025D Rx 8  DF 8C 01 C3 44 C1 0A E0 
    361       172.162 DT     043D Rx 6  02 20 AA 1A FF 02 
    362       172.360 DT     013D Rx 6  02 20 AA 1A FF 02 
    363       172.588 DT     0243 Rx 8  01 FC 59 59 5E 5E 7A 7A 
    364       172.760 DT     01F8 Rx 4  22 00 00 00 
    365       173.010 DT     027D Rx 8  00 00 00 00 00 00 00 00 
    366       173.180 DT     029D Rx 4  00 00 00 20 
    367       173.419 DT     0379 Rx 8  07 C0 A3 AD C5 00 04 00 
    368       173.589 DT     02BD Rx 4  00 00 00 00 
    369       173.822 DT     03C2 Rx 8  00 55 55 55 00 00 55 45 
    370       173.956 DT     03E3 Rx 2  00 04 
    371       174.200 DT     0545 Rx 8  02 00 1B 00 00 00 10 77 
    372       174.444 DT     0677 Rx 8  F8 FF FF FF FF FF FF 3F 
    373       174.598 DT     077D Rx 3  12 00 00 
    374       174.755 DT     07DD Rx 3  FF 00 01 
    375       174.989 DT     0129 Rx 8  6B 22 4F 20 00 20 FF 3F 
    376       175.239 DT     03E8 Rx 8  02 00 00 00 00 00 00 00 
    377       175.389 DT     0229 Rx 3  3B 0F 00 
    378       175.567 DT     0249 Rx 4  E2 0A 00 00 
    379       175.850 DT     054F Rx 8  00 00 00 00 00 00 00 00 
    380       176.090 DT     02F1 Rx 8  09 01 00 60 04 30 01 00 
    381       176.270 DT     039D Rx 5  7D 54 61 28 00 
    382       176.904 DT     0201 Rx 8  05 40 18 00 10 79 B5 C1 
    383       177.412 DT     04E3 Rx 8  03 2F 00 00 00 00 08 00 
    384       179.014 DT     0139 Rx 1  00 
    385       179.634 DT     03E2 Rx 8  40 15 80 0A 00 00 04 04 
    386       180.759 DT     0132 Rx 8  F2 89 F7 FF 25 40 FF 0F 
    387       180.999 DT     02C1 Rx 8  01 00 00 14 28 70 64 00 
    388       181.233 DT     02E1 Rx 8  29 0A A3 6A 17 00 00 00 
    389       181.473 DT     0381 Rx 8  0E 00 C8 C8 00 00 3C 12 
    390       181.671 DT     013D Rx 6  02 20 AA 1A FF 02 
    391       181.917 DT     07A8 Rx 8  12 1F 00 70 00 00 00 00 
    392       182.394 DT     02E3 Rx 7  86 0C 00 00 00 00 00 
    393       183.622 DT     01FB Rx 8  01 FE FF B7 6D 0B 00 00 
    394       184.880 DT     0129 Rx 8  7C 23 4F 20 00 20 FF 3F 
    395       185.142 DT     03DA Rx 8  00 00 00 00 00 00 00 00 
    396       186.426 DT     02A7 Rx 8  00 00 00 00 00 84 05 84 
    397       186.668 DT     04E2 Rx 8  03 20 01 00 00 00 08 00 
    398       186.818 DT     0113 Rx 3  01 97 01 
    399       187.050 DT     0221 Rx 8  40 41 05 05 00 50 D1 CF 
    400       187.282 DT     0228 Rx 8  03 16 54 88 50 00 F1 60 
    401       187.526 DT     0263 Rx 8  03 10 20 03 00 00 00 00 
    402       187.762 DT     0343 Rx 8  00 90 60 EE A1 36 00 00 
    403       188.005 DT     03F5 Rx 8  00 C8 19 09 00 00 00 00 
    404       188.239 DT     07FF Rx 8  03 31 08 A1 E0 42 16 41 
    405       188.483 DT     02A6 Rx 8  00 00 FF 1F 00 00 00 00 
    406       188.717 DT     0318 Rx 8  16 03 2A 0F 11 14 01 93 
    407       188.967 DT     0677 Rx 8  01 FF FF FF FF FF FF 00 
    408       189.199 DT     023E Rx 8  28 C6 63 95 01 6E 36 CB 
    409       189.425 DT     0458 Rx 7  02 02 00 80 00 00 00 
    410       189.609 DT     0382 Rx 5  3B 16 24 00 00 
    411       190.420 DT     02C7 Rx 8  00 00 00 00 00 47 48 FF 
    412       190.768 DT     0132 Rx 8  EB 89 F7 FF 26 40 FF 0F 
    413       191.010 DT     0201 Rx 8  3E 73 33 03 00 00 00 00 
    414       191.238 DT     0261 Rx 8  5A FE 04 BA 8F 5C 25 67 
    415       191.486 DT     037A Rx 8  00 00 00 00 00 00 00 00 
    416       191.684 DT     013D Rx 6  02 20 AA 1A FF 02 
    417       192.341 DT     02D2 Rx 8  D9 29 8D 4E 00 00 A1 01 
    418       192.579 DT     0252 Rx 8  00 00 8C 06 00 00 A0 0F 
    419       192.815 DT     0212 Rx 8  98 24 DE 0F 02 FF 1F 02 
    420       193.041 DT     0292 Rx 8  4A 57 4D 75 D4 27 9E 01 
    421       193.277 DT     02C1 Rx 8  02 74 C4 57 00 80 02 00 
    422       193.408 DT     02F2 Rx 2  12 01 
    423       193.642 DT     0262 Rx 8  0B 00 D2 0D 00 70 52 12 
    424       193.882 DT     0282 Rx 8  4D 05 00 01 08 01 7A 02 
    425       194.118 DT     03C3 Rx 8  55 55 55 01 00 00 00 00 
    426       194.364 DT     07B8 Rx 8  06 00 00 00 00 00 E0 88 
    427       194.724 DT     077A Rx 8  00 38 18 00 0F 0D 00 00 
    428       194.961 DT     0129 Rx 8  FA 24 4F 20 00 20 FF 3F 
    429       195.201 DT     07AA Rx 8  C0 EF CE F4 00 00 00 00 
    430       195.445 DT     078A Rx 8  01 00 08 00 00 00 51 00 
    431       196.313 DT     02C4 Rx 8  25 22 42 08 00 00 00 20 
    432       196.895 DT     02E1 Rx 8  02 00 00 00 00 00 01 00 
    433       197.156 DT     0204 Rx 8  81 00 00 46 00 00 00 10 
    434       197.364 DT     0264 Rx 6  3B 00 00 00 A0 00 
    435       197.608 DT     0359 Rx 8  0F 00 00 00 1E 00 00 00 
    436       197.848 DT     0224 Rx 8  04 08 00 40 19 01 10 08 
    437       197.980 DT     02D1 Rx 2  7F 01 
    438       198.208 DT     02A4 Rx 8  59 C7 7A D7 BF 5E 78 31 
    439       198.446 DT     039A Rx 8  FC FD FD FD FD FD FD 01 
    440       198.627 DT     02B4 Rx 5  68 AD 25 C7 00 
    441       198.761 DT     0364 Rx 2  00 78 
    442       199.005 DT     0553 Rx 8  00 00 00 00 00 00 F0 48 
    443       199.255 DT     03A4 Rx 8  01 00 00 00 00 00 00 00 
    444       199.501 DT     06E8 Rx 8  CC 01 00 2C 00 00 00 00 
    445       200.623 DT     0552 Rx 8  00 00 00 00 00 00 F0 47 
    446       200.854 DT     0132 Rx 8  E7 89 F8 FF 26 40 FF 0F 
    447       201.608 DT     013D Rx 6  02 20 AA 1A FF 02 
    448       202.410 DT     0383 Rx 8  97 00 1E 80 00 00 A0 00 
    449       202.646 DT     0243 Rx 8  7A 7D A1 0F 00 00 00 00 
    450       202.940 DT     03A1 Rx 8  2B A0 22 01 00 00 F0 74 
    451       203.188 DT     038A Rx 8  00 00 00 00 00 00 00 00 
    452       203.625 DT     0142 Rx 8  01 00 80 03 00 00 00 00 
    453       204.863 DT     02E8 Rx 8  C2 00 00 00 00 80 20 4C 
    454       205.099 DT     0129 Rx 8  ED 25 4F 20 00 20 FF 3F 
    455       205.341 DT     0201 Rx 8  40 06 19 00 70 43 06 00 
    456       205.471 DT     0213 Rx 2  C0 D5 
    457       205.711 DT     02C1 Rx 8  03 00 40 66 00 00 35 00 
    458       205.957 DT     0677 Rx 8  02 FF FF FF FF 00 00 00 
    459       206.882 DT     0545 Rx 8  80 01 31 90 A1 0C 2A 63 
    460       207.082 DT     022A Rx 4  00 00 19 16 
    461       207.386 DT     0423 Rx 6  00 00 00 00 08 00 
    462       207.596 DT     0422 Rx 6  A0 00 10 00 00 00 
    463       208.908 DT     0421 Rx 7  00 0A 00 10 00 00 00 
    464       209.150 DT     042A Rx 8  01 90 00 48 00 24 00 02 
    465       209.386 DT     03C9 Rx 8  03 8C BE DC CF 98 00 05 
    466       210.763 DT     0132 Rx 8  E8 89 F7 FF 26 40 FF 0F 
    467       211.007 DT     0372 Rx 8  0B FF FF 3F FF FF 3F 80 
    468       211.219 DT     0448 Rx 6  00 00 10 10 00 00 
    469       211.637 DT     013D Rx 6  02 20 AA 1A FF 02 
    470       212.409 DT     02C3 Rx 8  00 00 00 A6 01 00 80 69 
    471       212.905 DT     02E1 Rx 8  03 6C 00 02 2C 44 00 00 
    472       213.630 DT     03A2 Rx 8  C5 04 00 00 01 80 21 01 
    473       214.624 DT     02C2 Rx 8  55 5B A9 06 00 00 12 00 
    474       214.872 DT     0129 Rx 8  5E 26 4F 20 FF 1F FF 3F 
    475       215.084 DT     0219 Rx 5  F1 1F FF FF 03 
    476       215.968 DT     039D Rx 5  7E 55 61 28 00 
    477       216.712 DT     0789 Rx 8  54 09 00 00 00 00 F0 FC 
    478       216.948 DT     02C1 Rx 8  04 CA 03 03 64 C1 39 53 
    479       217.280 DT     0419 Rx 1  00 
    480       217.517 DT     0263 Rx 8  00 EE 0C F3 E4 3F A8 FA 
    481       217.743 DT     02B3 Rx 8  06 D2 29 E3 D6 40 A2 D3 
    482       218.909 DT     0201 Rx 8  01 64 64 E9 21 02 96 00 
    483       219.141 DT     0718 Rx 7  03 FF FF FF FF FF FF 
    484       219.887 DT     0441 Rx 8  7F C5 44 20 DB 0E 3C 87 
    485       220.121 DT     0381 Rx 8  0F 00 00 32 64 36 01 0C 
    486       220.775 DT     0132 Rx 8  E7 89 F7 FF 26 40 FF 0F 
    487       220.957 DT     0361 Rx 5  2E 0A 1D 05 01 
    488       221.202 DT     0677 Rx 8  FB FF FF FF FF FF FF 27 
    489       221.444 DT     02F9 Rx 8  D0 FB 07 18 00 00 00 00 
    490       221.642 DT     013D Rx 6  02 20 AA 1A FF 02 
    491       222.742 DT     03C8 Rx 8  03 00 00 00 00 00 00 00 
    492       223.622 DT     02E2 Rx 8  D8 16 00 00 00 00 00 00 
    493       223.864 DT     03C2 Rx 8  29 55 00 00 00 00 00 00 
    494       224.102 DT     0261 Rx 8  03 00 00 00 00 40 34 B8 
    495       224.877 DT     0129 Rx 8  20 27 4F 20 00 20 FF 3F 
    496       225.055 DT     0249 Rx 4  28 0B 00 00 
    497       227.177 DT     03F9 Rx 8  02 00 00 00 00 00 00 00 
    498       227.417 DT     039A Rx 8  FD FD FD FD FD 01 00 00 
    499       227.597 DT     0323 Rx 5  36 16 1E 00 00 
    500       228.708 DT     0788 Rx 8  08 D5 A1 63 00 00 00 10 
    501       228.951 DT     02C1 Rx 8  A5 00 00 00 E0 00 00 00 
    502       229.181 DT     023E Rx 8  28 C6 63 95 01 6E 46 DB 
    503       229.411 DT     02E1 Rx 8  FC 19 16 1A 9E 19 0A 00 
    504       230.531 DT     01FA Rx 3  22 C0 01 
    505       230.763 DT     0132 Rx 8  E8 89 F7 FF 29 40 FF 0F 
    506       231.616 DT     013D Rx 6  02 20 AA 1A FF 02 
    507       231.860 DT     02A1 Rx 6  00 00 98 3A 00 00 
    508       232.312 DT     0225 Rx 3  05 45 52 
    509       232.550 DT     0243 Rx 8  FC 7F FF 5F A2 02 41 29 
    510       232.928 DT     0201 Rx 8  22 0F 20 C0 09 60 11 01 
    511       233.284 DT     0339 Rx 8  00 B1 00 00 00 01 40 0F 
    512       233.634 DT     01FB Rx 8  00 FF FF FF FF FF FF FF 
    513       234.326 DT     0420 Rx 6  28 01 40 4B 00 40 
    514       234.710 DT     0288 Rx 8  03 16 54 88 50 00 01 D0 
    515       234.943 DT     0129 Rx 8  5A 28 4F 20 01 20 FF 3F 
    516       235.183 DT     03E9 Rx 8  F1 20 00 00 00 00 C0 BD 
    517       236.803 DT     055A Rx 8  01 00 00 00 00 00 00 00 
    518       237.039 DT     0221 Rx 8  41 01 55 00 00 00 E0 9A 
    519       237.279 DT     0405 Rx 8  10 00 00 00 00 4C 52 57 
    520       237.491 DT     0283 Rx 6  00 00 00 00 00 00 
    521       237.619 DT     0242 Rx 2  10 95 
    522       237.867 DT     0677 Rx 8  04 0F 00 00 00 00 00 00 
    523       239.143 DT     0719 Rx 8  01 00 00 00 00 00 00 00 
    524       239.906 DT     0545 Rx 8  01 00 00 00 00 10 30 8B 
    525       240.772 DT     0132 Rx 8  E8 89 F8 FF 25 40 FF 0F 
    526       241.022 DT     02C1 Rx 8  06 00 00 00 40 00 00 00 
    527       241.258 DT     0798 Rx 8  78 42 09 00 00 00 F0 BB 
    528       241.456 DT     013D Rx 6  02 20 AA 1A FF 02 
    529       242.422 DT     03C0 Rx 8  04 00 00 00 00 00 00 00 
    530       243.628 DT     0282 Rx 8  00 00 00 00 EC F3 F2 24 
    531       244.634 DT     0360 Rx 8  06 00 00 00 00 00 00 00 
    532       244.877 DT     0129 Rx 8  0F 29 4F 20 01 20 FF 3F 
    533       245.125 DT     02E1 Rx 8  05 00 00 00 00 00 00 00 
    534       245.337 DT     01F9 Rx 6  00 00 00 00 00 00 
    535       245.833 DT     0409 Rx 1  00 
    536       246.717 DT     06C8 Rx 8  01 00 00 00 00 00 00 00 
    537       246.953 DT     0201 Rx 8  03 40 18 00 10 89 F5 C1 
    538       247.421 DT     0103 Rx 8  11 30 00 00 96 14 11 01 
    539       247.651 DT     0263 Rx 8  01 E9 12 F2 E4 3C A5 FA 
    540       250.264 DT     0400 Rx 7  40 60 E0 BF EF FB 00 
    541       250.762 DT     0132 Rx 8  E4 89 F8 FF 29 40 FF 0F 
    542       251.142 DT     0439 Rx 8  00 00 20 00 00 00 43 02 
    543       251.630 DT     0102 Rx 8  22 33 00 00 E8 38 11 08 
    544       251.828 DT     013D Rx 6  02 20 AA 1A FF 02 
    545       252.430 DT     0123 Rx 8  00 00 48 12 D2 00 00 E0 
    546       252.780 DT     02A8 Rx 8  C2 00 00 00 00 80 30 1C 
    547       253.014 DT     02C1 Rx 8  07 00 14 0D 0E 1D 22 47 
    548       253.245 DT     03A1 Rx 8  68 62 0D 98 00 34 02 3B 
    549       253.489 DT     0677 Rx 8  05 02 00 28 00 00 00 00 
    550       253.735 DT     0142 Rx 8  08 02 02 00 00 00 00 00 
    551       253.985 DT     0340 Rx 8  05 00 00 00 00 00 00 00 
    552       254.877 DT     0129 Rx 8  7D 2A 4F 20 00 20 FF 3F 
    553       255.979 DT     039D Rx 5  7F 56 61 28 00 
    554       256.902 DT     0261 Rx 8  00 10 29 00 D6 43 40 D3 
    555       257.048 DT     0119 Rx 2  00 00 
    556       257.286 DT     039A Rx 8  FC FD FD FD FD FD FD 01 
    557       257.474 DT     03A3 Rx 5  00 D0 00 00 08 
    558       258.578 DT     0122 Rx 6  00 00 12 12 12 00 
    559       258.788 DT     0428 Rx 6  00 00 10 10 00 00 
    560       259.022 DT     0381 Rx 8  70 B3 01 2B 04 20 33 11 
    561       260.761 DT     0132 Rx 8  ED 89 F8 FF 27 40 FF 0F 
    562       261.009 DT     0201 Rx 8  04 00 00 00 00 00 00 00 
    563       261.251 DT     02E1 Rx 8  10 21 04 00 00 00 26 08 
    564       261.497 DT     0372 Rx 8  0C 00 00 00 00 00 00 00 
    565       261.696 DT     013D Rx 6  02 20 AA 1A FF 02 
    566       262.416 DT     0393 Rx 8  06 00 FC D8 07 C0 1E 20 
    567       262.644 DT     0243 Rx 8  01 FC 59 59 5E 5E 7A 7A 
    568       263.610 DT     03A2 Rx 8  00 C0 72 0D 05 80 C6 6C 
    569       264.876 DT     0129 Rx 8  21 2B 4F 20 01 20 FF 3F 
    570       265.092 DT     0241 Rx 7  33 64 DC 0C 19 57 00 
    571       265.332 DT     02C1 Rx 8  80 0C 32 0B 8B 1F 00 00 
    572       265.618 DT     0272 Rx 8  06 00 FD E8 07 C0 1E 20 
    573       267.415 DT     020C Rx 8  00 80 4A 1E 00 B0 07 00 
    574       268.823 DT     0797 Rx 8  14 09 00 00 00 00 F0 F9 
    575       269.067 DT     0677 Rx 8  F8 FF FF FF FF FF FF 3F 
    576       269.297 DT     023E Rx 8  28 C6 63 95 01 6E 56 EB 
    577       269.527 DT     0718 Rx 7  04 FF FF 00 00 00 00 
    578       270.341 DT     025B Rx 8  D3 C0 02 00 00 00 E0 D0 
    579       270.763 DT     0132 Rx 8  EE 89 F8 FF 27 40 FF 0F 
    580       271.706 DT     021D Rx 8  2C 20 08 14 80 00 40 10 
    581       272.164 DT     025D Rx 8  DF 8C 01 C3 44 C1 0A E0 
    582       272.362 DT     013D Rx 6  02 20 AA 1A FF 02 
    583       272.496 DT     03E3 Rx 2  00 04 
    584       272.668 DT     01F8 Rx 4  22 00 00 00 
    585       272.918 DT     027D Rx 8  00 00 00 00 00 00 00 00 
    586       273.037 DT     041D Rx 1  00 
    587       273.271 DT     0379 Rx 8  00 00 48 80 9A 19 1A 01 
    588       273.513 DT     0545 Rx 8  02 00 18 00 00 00 40 A4 
    589       273.745 DT     03C2 Rx 8  00 55 55 55 00 00 55 45 
    590       273.989 DT     075D Rx 8  01 62 60 60 47 00 00 00 
    591       274.160 DT     029D Rx 4  00 00 00 20 
    592       274.330 DT     02BD Rx 4  00 00 00 00 
    593       274.528 DT     043D Rx 6  02 20 AA 1A FF 02 
    594       274.682 DT     077D Rx 3  12 00 00 
    595       274.915 DT     0129 Rx 8  85 2C 4F 20 FF 1F FF 3F 
    596       275.155 DT     0201 Rx 8  05 40 18 00 10 79 B5 C1 
    597       275.305 DT     0229 Rx 3  46 00 00 
    598       275.555 DT     03E8 Rx 8  03 00 00 00 00 00 00 00 
    599       275.723 DT     0249 Rx 4  3A 0C 00 00 
    600       275.965 DT     02F1 Rx 8  0A B1 01 00 00 00 00 00 
    601       276.215 DT     054F Rx 8  00 00 00 00 00 00 00 00 
    602       276.372 DT     07DD Rx 3  FF 00 01 
    603       276.912 DT     02C1 Rx 8  01 00 00 14 28 70 64 00 
    604       277.146 DT     02E1 Rx 8  29 0A A3 6A 17 00 00 00 
    605       277.436 DT     04E3 Rx 8  04 00 00 00 00 00 00 00 
    606       277.680 DT     0263 Rx 8  02 00 00 00 6B 10 00 00 
    607       279.016 DT     0139 Rx 1  00 
    608       279.638 DT     03E2 Rx 8  40 15 80 0A 00 00 04 04 
    609       280.757 DT     0132 Rx 8  E5 89 F8 FF 29 40 FF 0F 
    610       280.991 DT     07A8 Rx 8  0C D5 A1 63 00 00 40 10 
    611       281.619 DT     013D Rx 6  02 20 AA 1A FF 02 
    612       282.388 DT     02E3 Rx 7  F7 D3 4F 3F A5 C0 08 
    613       283.624 DT     01FB Rx 8  01 FE FF B7 6D 0B 00 00 
    614       284.876 DT     0129 Rx 8  FE 2D 4F 20 00 20 FF 3F 
    615       285.126 DT     0677 Rx 8  01 FF FF FF FF FF FF 00 
    616       285.375 DT     03DA Rx 8  00 00 00 00 00 00 00 00 
    617       286.417 DT     02A7 Rx 8  00 00 00 00 00 84 05 84 
    618       286.659 DT     04E2 Rx 8  04 00 13 00 0A 00 00 00 
    619       286.809 DT     0113 Rx 3  01 97 01 
    620       287.041 DT     0221 Rx 8  40 41 05 05 00 50 F1 EF 
    621       287.275 DT     0228 Rx 8  03 16 54 88 50 00 01 70 
    622       287.513 DT     0343 Rx 8  00 90 64 1E A2 51 00 00 
    623       287.753 DT     039A Rx 8  FD FD FD FD FD 01 00 00 
    624       287.995 DT     03F5 Rx 8  00 C8 19 09 00 00 00 00 
    625       288.225 DT     07FF Rx 8  04 CC 16 54 61 12 B4 2A 
    626       288.469 DT     02A6 Rx 8  00 00 FF 1F 00 00 00 00 
    627       288.704 DT     0318 Rx 8  16 03 2A 0F 11 14 03 95 
    628       288.946 DT     0201 Rx 8  3E 73 33 03 00 00 00 00 
    629       289.182 DT     02C1 Rx 8  02 74 C4 57 00 80 02 00 
    630       289.408 DT     0458 Rx 7  02 02 00 80 00 00 00 
    631       289.922 DT     0261 Rx 8  31 48 01 00 14 4A 5A 73 
    632       290.410 DT     02C7 Rx 8  00 00 00 00 00 47 48 FF 
    633       290.770 DT     0132 Rx 8  EE 89 F8 FF 27 40 FF 0F 
    634       291.164 DT     037A Rx 8  01 00 00 00 00 00 00 00 
    635       291.627 DT     013D Rx 6  02 20 AA 1A FF 02 
    636       292.363 DT     02D2 Rx 8  D9 29 8D 4E 00 00 A1 01 
    637       292.599 DT     0243 Rx 8  7A 7D A1 0F 00 00 00 00 
    638       292.837 DT     0252 Rx 8  00 00 8C 06 00 00 A0 0F 
    639       293.073 DT     0212 Rx 8  98 24 DE 0F 02 FF 1F 02 
    640       293.300 DT     0292 Rx 8  4A 57 4D 75 D4 27 9E 01 
    641       293.544 DT     02E1 Rx 8  02 00 00 00 00 00 01 00 
    642       293.778 DT     0262 Rx 8  0B 00 D2 0D 00 70 52 12 
    643       294.014 DT     0282 Rx 8  4D 05 00 81 43 01 7A 02 
    644       294.144 DT     02F2 Rx 2  12 01 
    645       294.384 DT     0392 Rx 8  01 05 A9 16 01 00 00 00 
    646       294.615 DT     03B2 Rx 8  1D CA 51 33 62 00 3B 01 
    647       294.861 DT     03C3 Rx 8  00 00 00 00 00 45 00 00 
    648       295.095 DT     0129 Rx 8  8C 2E 4F 20 01 20 FF 3F 
    649       295.335 DT     076A Rx 8  00 63 CB D8 02 00 00 00 
    650       295.573 DT     07AA Rx 8  01 CA 0D CA 0D 01 00 00 
    651       295.816 DT     078A Rx 8  01 00 00 00 00 00 2A 13 
    652       296.000 DT     039D Rx 5  80 57 61 28 00 
    653       296.240 DT     07B8 Rx 8  60 02 09 00 00 00 F0 FD 
    654       296.478 DT     02C4 Rx 8  06 83 A1 8C CA 28 0C 00 
    655       297.158 DT     0204 Rx 8  81 00 00 46 00 00 00 10 
    656       297.366 DT     0264 Rx 6  3B 00 00 00 A0 00 
    657       297.616 DT     0359 Rx 8  00 00 00 00 00 00 00 00 
    658       297.857 DT     0224 Rx 8  04 08 00 40 19 01 10 08 
    659       297.989 DT     02D1 Rx 2  7F 01 
    660       298.169 DT     02B4 Rx 5  68 AD 25 C8 00 
    661       298.403 DT     0381 Rx 8  F1 EF 7B 07 1A 00 16 00 
    662       298.649 DT     0553 Rx 8  00 00 00 00 00 00 00 58 
    663       298.899 DT     06E8 Rx 8  01 00 00 00 00 00 00 00 
    664       300.629 DT     0552 Rx 8  00 00 00 00 00 00 00 57 
    665       300.864 DT     0132 Rx 8  E9 89 F7 FF 23 40 FF 0F 
    666       301.104 DT     02C1 Rx 8  03 00 40 66 00 00 35 00 
    667       301.350 DT     0677 Rx 8  02 FF FF FF FF 00 00 00 
    668       301.612 DT     013D Rx 6  02 20 AA 1A FF 02 
    669       302.412 DT     0383 Rx 8  97 00 1E 80 00 00 A0 00 
    670       302.922 DT     0201 Rx 8  40 A6 19 00 70 43 06 00 
    671       303.170 DT     038A Rx 8  01 00 00 00 00 00 00 00 
    672       303.405 DT     03A1 Rx 8  2B A0 22 01 00 00 10 94 
    673       303.649 DT     0142 Rx 8  01 00 80 03 00 00 00 00 
    674       304.865 DT     02E8 Rx 8  C2 00 00 00 00 80 30 5C 
    675       305.103 DT     0129 Rx 8  D0 2F 4F 20 00 20 FF 3F 
    676       305.339 DT     0473 Rx 8  30 00 00 00 82 A1 34 62 
    677       305.585 DT     03B3 Rx 8  88 80 05 00 00 00 60 00 
    678       305.935 DT     0545 Rx 8  D0 01 31 60 A1 0A 5A B1 
    679       306.561 DT     022A Rx 4  00 00 19 16 
    680       307.379 DT     0423 Rx 6  00 00 00 00 08 00 
    681       307.624 DT     0263 Rx 8  03 10 20 03 00 00 00 00 
    682       307.858 DT     02B3 Rx 8  07 DF DC EA E9 F3 F0 D3 
    683       308.068 DT     0422 Rx 6  A0 00 10 00 00 00 
    684       308.918 DT     0421 Rx 7  00 0A 00 10 00 00 00 
    685       309.152 DT     023E Rx 8  28 C6 63 95 01 6E 66 FB 
    686       309.390 DT     02E1 Rx 8  03 6C 00 02 2C 44 00 00 
    687       309.632 DT     042A Rx 8  01 90 00 48 00 24 00 02 
    688       310.763 DT     0132 Rx 8  E2 89 F7 FF 26 40 FF 0F 
    689       311.007 DT     0372 Rx 8  0D 41 1F 00 00 00 00 00 
    690       311.219 DT     0448 Rx 6  00 00 10 10 00 00 
    691       311.639 DT     013D Rx 6  02 20 AA 1A FF 02 
    692       312.409 DT     02C3 Rx 8  55 1B A8 36 00 00 12 00 
    693       312.899 DT     02C1 Rx 8  04 CA 03 03 64 C1 39 53 
    694       313.621 DT     03A2 Rx 8  C5 04 00 00 01 80 21 01 
    695       314.628 DT     02C2 Rx 8  00 00 00 97 01 00 C0 65 
    696       314.878 DT     0129 Rx 8  98 20 4F 20 01 20 FF 3F 
    697       315.086 DT     0219 Rx 5  F2 1F FF FF 01 
    698       316.720 DT     0789 Rx 8  54 09 00 00 00 00 00 0C 
    699       316.954 DT     0201 Rx 8  01 64 64 E9 21 02 96 00 
    700       317.200 DT     043B Rx 8  00 7F 00 FF 00 00 00 00 
    701       317.442 DT     034A Rx 8  02 07 00 10 00 00 00 50 
    702       317.680 DT     039A Rx 8  FC FD FD FD FD FD FD 01 
    703       317.796 DT     0419 Rx 1  00 
    704       318.041 DT     0677 Rx 8  FB FF FF FF FF FF FF 27 
    705       318.913 DT     0718 Rx 7  00 7F 7F 7F FF FF FF 
    706       319.901 DT     0441 Rx 8  7F C5 44 20 DB 0E 00 4B 
    707       320.773 DT     0132 Rx 8  E7 89 F8 FF 27 40 FF 0F 
    708       321.023 DT     0320 Rx 8  02 00 00 00 00 00 00 00 
    709       321.267 DT     02F9 Rx 8  D0 FB 07 20 00 00 00 00 
    710       321.506 DT     0772 Rx 8  02 0A 00 0A 10 09 00 00 
    711       321.704 DT     013D Rx 6  02 20 AA 1A FF 02 
    712       322.406 DT     0243 Rx 8  FC 7F FF 5F A2 02 41 29 
    713       322.746 DT     03C8 Rx 8  04 00 00 00 00 00 00 00 
    714       322.974 DT     0261 Rx 8  5A FE 04 BA 8F 5C 65 A7 
    715       323.642 DT     03C2 Rx 8  29 55 00 00 00 00 00 00 
    716       324.872 DT     0129 Rx 8  8F 21 4F 20 01 20 FF 3F 
    717       325.115 DT     02C1 Rx 8  A5 00 00 00 E0 00 00 00 
    718       325.281 DT     0249 Rx 4  13 0D 00 00 
    719       325.513 DT     02E1 Rx 8  FC 19 12 1A 9E 14 0A 00 
    720       327.181 DT     03F9 Rx 8  03 00 00 00 00 00 00 00 
    721       328.719 DT     0788 Rx 8  01 00 00 00 FF A1 08 00 
    722       330.529 DT     01FA Rx 3  22 C0 01 
    723       330.760 DT     0132 Rx 8  E7 89 F8 FF 27 40 FF 0F 
    724       331.002 DT     0201 Rx 8  22 0F 20 C0 09 60 11 01 
    725       331.616 DT     013D Rx 6  02 20 AA 1A FF 02 
    726       331.870 DT     02A1 Rx 6  00 00 98 3A 00 00 
    727       332.314 DT     0225 Rx 3  05 45 52 
    728       332.922 DT     0677 Rx 8  04 0F 00 00 00 00 00 00 
    729       333.287 DT     0339 Rx 8  00 B1 00 00 00 01 40 0F 
    730       333.637 DT     01FB Rx 8  00 FF FF FF FF FF FF FF 
    731       334.329 DT     0420 Rx 6  28 01 40 4B 00 50 
    732       334.717 DT     0288 Rx 8  03 16 54 88 50 00 11 E0 
    733       334.951 DT     0129 Rx 8  6B 22 4F 20 00 20 FF 3F 
    734       336.002 DT     039D Rx 5  81 58 61 28 00 
    735       336.910 DT     02C1 Rx 8  06 00 00 00 40 00 00 00 
    736       337.148 DT     0221 Rx 8  41 01 55 00 00 00 00 BA 
    737       337.397 DT     0381 Rx 8  12 01 00 00 00 00 07 00 
    738       337.525 DT     0242 Rx 2  10 95 
    739       337.761 DT     0263 Rx 8  00 EE 0C F3 E4 3F A8 FA 
    740       337.973 DT     0283 Rx 6  00 00 00 00 00 00 
    741       338.921 DT     0545 Rx 8  01 00 00 00 00 10 60 BB 
    742       339.163 DT     0719 Rx 8  00 94 52 00 00 00 00 00 
    743       340.762 DT     0132 Rx 8  E3 89 F7 FF 29 40 FF 0F 
    744       341.010 DT     02E1 Rx 8  05 00 00 00 00 00 00 00 
    745       341.244 DT     0798 Rx 8  21 D8 02 4E 38 01 00 8A 
    746       341.442 DT     013D Rx 6  02 20 AA 1A FF 02 
    747       342.422 DT     03C0 Rx 8  05 00 00 00 00 00 00 00 
    748       343.630 DT     0282 Rx 8  00 00 00 00 EC F3 F2 24 
    749       344.636 DT     0360 Rx 8  07 00 00 00 00 00 00 00 
    750       344.878 DT     0129 Rx 8  7C 23 4F 20 00 20 FF 3F 
    751       345.114 DT     0201 Rx 8  03 40 18 00 10 89 F5 C1 
    752       345.327 DT     01F9 Rx 6  00 00 00 00 00 00 
    753       345.447 DT     0409 Rx 1  00 
    754       346.715 DT     06C8 Rx 8  CC 01 00 2C 00 00 00 00 
    755       347.203 DT     039A Rx 8  FD FD FD FD FD 01 00 00 
    756       347.441 DT     0103 Rx 8  11 30 00 00 96 14 11 01 
    757       348.901 DT     02C1 Rx 8  07 00 14 0D 0E 1D 22 47 
    758       349.133 DT     023E Rx 8  28 C6 63 95 01 6E 76 0B 
    759       349.377 DT     0677 Rx 8  05 02 00 28 00 00 00 00 
    760       350.172 DT     0400 Rx 7  40 60 E0 BF EF FB 00 
    761       350.768 DT     0132 Rx 8  E7 89 F8 FF 29 40 FF 0F 
    762       351.144 DT     0439 Rx 8  00 00 20 00 00 00 43 02 
    763       351.328 DT     0739 Rx 5  24 06 1B 01 00 
    764       351.636 DT     0102 Rx 8  22 33 00 00 E8 38 11 08 
    765       351.834 DT     013D Rx 6  02 20 AA 1A FF 02 
    766       352.435 DT     0123 Rx 8  00 00 48 12 D2 00 00 E0 
    767       352.663 DT     0243 Rx 8  01 FC 59 59 5E 5E 7A 7A 
    768       352.905 DT     02A8 Rx 8  C2 00 00 00 00 80 40 2C 
    769       353.135 DT     03A1 Rx 8  68 62 0D 98 00 34 22 5B 
    770       353.641 DT     0142 Rx 8  08 02 02 00 00 00 00 00 
    771       353.943 DT     0340 Rx 8  06 00 00 00 00 00 00 00 
    772       354.723 DT     0333 Rx 5  84 0A 5A 07 02 
    773       354.955 DT     0129 Rx 8  57 24 4F 20 01 20 FF 3F 
    774       355.194 DT     0334 Rx 8  3F 3F C8 00 E2 3F B0 4E 
    775       355.528 DT     0362 Rx 3  00 00 00 
    776       355.926 DT     0261 Rx 8  03 00 00 00 00 40 74 F8 
    777       356.918 DT     02E1 Rx 8  10 21 04 00 00 00 26 08 
    778       357.064 DT     0119 Rx 2  00 00 
    779       357.380 DT     03A3 Rx 5  00 D0 00 00 08 
    780       358.582 DT     0122 Rx 6  00 00 12 12 12 00 
    781       358.792 DT     0428 Rx 6  00 00 10 10 00 00 
    782       359.040 DT     0201 Rx 8  04 00 00 00 00 00 00 00 
    783       360.765 DT     0132 Rx 8  EF 89 F8 FF 29 40 FF 0F 
    784       361.005 DT     02C1 Rx 8  80 0C 32 0B 8B 1F 00 00 
    785       361.241 DT     0372 Rx 8  0E 00 00 40 35 82 06 2E 
    786       361.423 DT     0708 Rx 5  2C 21 09 00 00 
    787       361.623 DT     013D Rx 6  02 20 AA 1A FF 02 
    788       362.408 DT     0393 Rx 8  09 80 63 00 00 00 00 00 
    789       363.616 DT     03A2 Rx 8  00 C0 72 0D 05 00 C6 6C 
    790       364.874 DT     0129 Rx 8  ED 25 4F 20 00 20 FF 3F 
    791       365.092 DT     0241 Rx 7  32 64 9C 0C 19 57 00 
    792       365.336 DT     0677 Rx 8  F8 FF FF FF FF FF FF 3F 
    793       365.620 DT     0272 Rx 8  09 80 63 00 00 00 00 00 
    794       367.416 DT     020C Rx 8  00 80 4A 1E 00 B0 07 00 
    795       367.647 DT     0263 Rx 8  01 E9 12 F2 E4 3C A5 FA 
    796       368.831 DT     0797 Rx 8  14 09 00 00 00 00 00 09 
    797       369.059 DT     0718 Rx 7  01 FF FF FF FF FF 00 
    798       370.765 DT     0132 Rx 8  E5 89 F8 FF 28 40 FF 0F 
    799       371.439 DT     025B Rx 8  D3 C0 02 00 00 00 F0 E0 
    800       371.679 DT     053E Rx 8  0D 01 00 00 0F 1E 66 74 
    801       371.907 DT     033D Rx 8  1A 29 0A BE 87 4A FA 98 
    802       372.026 DT     041D Rx 1  00 
    803       372.270 DT     037D Rx 8  62 FF 60 60 00 00 00 00 
    804       372.404 DT     03E3 Rx 2  00 04 
    805       372.576 DT     01F8 Rx 4  22 00 00 00 
    806       372.774 DT     043D Rx 6  02 20 AA 1A FF 02 
    807       372.972 DT     013D Rx 6  02 20 AA 1A FF 02 
    808       373.213 DT     0201 Rx 8  05 40 18 00 10 79 B5 C1 
    809       373.453 DT     02C1 Rx 8  01 00 00 14 28 70 64 00 
    810       373.687 DT     02E1 Rx 8  29 0A A3 6A 17 00 00 00 
    811       373.921 DT     0379 Rx 8  01 00 48 80 9A 19 16 01 
    812       374.153 DT     03C2 Rx 8  00 55 55 55 00 00 55 45 
    813       374.357 DT     03DD Rx 6  00 12 00 13 00 05 
    814       374.593 DT     021D Rx 8  2C 20 08 14 80 00 40 10 
    815       374.826 DT     025D Rx 8  DF 8C 01 C3 44 C1 0A E0 
    816       375.060 DT     0129 Rx 8  9A 26 4F 20 01 20 FF 3F 
    817       375.310 DT     027D Rx 8  00 00 00 00 00 00 00 00 
    818       375.460 DT     0229 Rx 3  44 01 00 
    819       375.631 DT     029D Rx 4  00 00 00 20 
    820       375.795 DT     0249 Rx 4  AF 0E 00 00 
    821       375.965 DT     02BD Rx 4  00 00 00 00 
    822       376.209 DT     02F1 Rx 8  2B 05 00 01 15 00 00 00 
    823       376.441 DT     0381 Rx 8  33 64 3C 30 0C 20 36 00 
    824       376.619 DT     039D Rx 5  86 69 55 28 00 
    825       376.869 DT     03E8 Rx 8  04 00 00 00 00 00 00 00 
    826       377.109 DT     0545 Rx 8  02 00 15 00 00 00 70 D1 
    827       377.347 DT     039A Rx 8  FC FD FD FD FD FD FD 01 
    828       377.582 DT     04E3 Rx 8  A5 05 6A 71 04 05 00 00 
    829       377.832 DT     054F Rx 8  00 00 00 00 00 00 00 00 
    830       377.986 DT     077D Rx 3  12 00 00 
    831       378.142 DT     07DD Rx 3  FF 00 01 
    832       379.020 DT     0139 Rx 1  00 
    833       379.641 DT     03E2 Rx 8  40 15 80 0A 00 00 04 04 
    834       380.761 DT     0132 Rx 8  EA 89 F7 FF 27 40 FF 0F 
    835       381.011 DT     0677 Rx 8  01 FF FF FF FF FF FF 00 
    836       381.253 DT     07A8 Rx 8  01 00 00 00 FF A1 08 00 
    837       381.623 DT     013D Rx 6  02 20 AA 1A FF 02 
    838       382.395 DT     02E3 Rx 7  18 C8 20 00 00 00 00 
    839       382.631 DT     0243 Rx 8  7A 7D A1 0F 00 00 00 00 
    840       383.627 DT     01FB Rx 8  01 FE FF B7 6D 0B 00 00 
    841       384.875 DT     0129 Rx 8  20 27 4F 20 00 20 FF 3F 
    842       385.112 DT     02C1 Rx 8  02 74 C4 57 00 80 02 00 
    843       385.360 DT     03DA Rx 8  00 00 00 00 00 00 00 00 
    844       386.406 DT     02A7 Rx 8  00 00 00 00 00 84 05 84 
    845       386.644 DT     04E2 Rx 8  65 02 86 41 00 20 00 00 
    846       386.794 DT     0113 Rx 3  01 97 01 
    847       387.036 DT     0201 Rx 8  3E 73 33 03 00 00 00 00 
    848       387.274 DT     0221 Rx 8  40 41 05 05 00 50 11 0F 
    849       387.510 DT     0228 Rx 8  03 16 54 88 50 00 11 80 
    850       387.744 DT     0343 Rx 8  00 90 64 AE A1 36 00 00 
    851       387.987 DT     03F5 Rx 8  00 C8 19 09 00 00 00 00 
    852       388.231 DT     07FF Rx 8  05 08 A0 40 00 00 00 00 
    853       388.475 DT     02A6 Rx 8  00 00 FF 1F 00 00 00 00 
    854       388.711 DT     0318 Rx 8  16 03 2A 0F 11 14 05 97 
    855       388.947 DT     0261 Rx 8  00 10 28 00 D6 43 80 12 
    856       389.177 DT     023E Rx 8  28 C6 63 95 01 6E 86 1B 
    857       389.421 DT     02E1 Rx 8  02 00 00 00 00 00 01 00 
    858       389.647 DT     0458 Rx 7  02 02 00 80 00 00 00 
    859       390.401 DT     02C7 Rx 8  00 00 00 00 00 47 48 FF 
    860       390.773 DT     0132 Rx 8  E7 89 F7 FF 27 40 FF 0F 
    861       391.167 DT     037A Rx 8  02 00 00 00 00 00 00 00 
    862       391.631 DT     013D Rx 6  02 20 AA 1A FF 02 
    863       392.389 DT     02D2 Rx 8  D9 29 8D 4E 00 00 A1 01 
    864       392.628 DT     0252 Rx 8  00 00 8C 06 00 00 A0 0F 
    865       392.864 DT     0212 Rx 8  98 24 DE 0F 02 FF 1F 02 
    866       393.090 DT     0292 Rx 8  4A 57 4D 75 D4 27 9E 01 
    867       393.220 DT     02F2 Rx 2  12 01 
    868       393.456 DT     03C3 Rx 8  55 55 55 01 00 00 00 00 
    869       393.690 DT     0262 Rx 8  0B 00 D2 0D 00 70 52 12 
    870       393.927 DT     0282 Rx 8  4D 05 00 01 2A 01 7A 02 
    871       394.173 DT     07B8 Rx 8  01 D8 02 01 04 00 00 82 
    872       394.697 DT     07AA Rx 8  92 08 54 F7 1D 05 21 00 
    873       394.933 DT     0129 Rx 8  F7 28 4F 20 00 20 FF 3F 
    874       395.179 DT     078A Rx 8  01 00 01 00 00 00 03 0D 
    875       396.284 DT     02C4 Rx 8  E7 05 A3 90 81 0C C6 06 
    876       396.908 DT     02C1 Rx 8  03 00 40 66 00 00 35 00 
    877       397.154 DT     0677 Rx 8  02 FF FF FF FF 00 00 00 
    878       397.402 DT     0204 Rx 8  81 00 00 46 00 00 00 10 
    879       397.646 DT     0263 Rx 8  02 00 00 00 6B 10 00 00 
    880       397.854 DT     0264 Rx 6  3B 00 00 00 A0 00 
    881       398.089 DT     02B3 Rx 8  08 1F 1C 0F 0D 07 08 21 
    882       398.329 DT     0224 Rx 8  04 08 00 40 19 01 10 08 
    883       398.509 DT     02B4 Rx 5  68 AD 25 BF 00 
    884       398.641 DT     02D1 Rx 2  7F 01 
    885       398.891 DT     0359 Rx 8  01 00 00 00 00 00 00 00 
    886       399.135 DT     0553 Rx 8  00 00 00 00 00 00 10 68 
    887       399.381 DT     06E8 Rx 8  CC 01 00 2C 00 00 00 00 
    888       400.633 DT     0552 Rx 8  00 00 00 00 00 00 10 67 
    889       400.866 DT     0132 Rx 8  F0 89 F8 FF 27 40 FF 0F 
    890       401.108 DT     0201 Rx 8  40 06 19 00 70 43 06 00 
    891       401.616 DT     013D Rx 6  02 20 AA 1A FF 02 
    892       402.416 DT     0383 Rx 8  97 00 1E 80 00 00 A0 00 
    893       402.920 DT     03A1 Rx 8  2B A0 22 01 00 00 30 B4 
    894       403.166 DT     038A Rx 8  03 00 00 00 00 00 00 00 
    895       403.633 DT     0142 Rx 8  01 00 80 03 00 00 00 00 
    896       404.871 DT     02E8 Rx 8  C2 00 00 00 00 80 40 6C 
    897       405.107 DT     0129 Rx 8  A2 29 4F 20 00 20 FF 3F 
    898       405.345 DT     02E1 Rx 8  03 6C 00 02 2C 44 00 00 
    899       405.529 DT     02F3 Rx 5  0C 0C 0B 00 00 
    900       405.761 DT     0545 Rx 8  80 01 36 00 A2 13 8A 40 
    901       406.564 DT     022A Rx 4  00 00 19 16 
    902       407.204 DT     039A Rx 8  FD FD FD FD FD 01 00 00 
    903       407.412 DT     0423 Rx 6  00 00 00 00 08 00 
    904       407.622 DT     0422 Rx 6  A0 00 10 00 00 00 
    905       408.910 DT     0421 Rx 7  00 0A 00 10 00 00 00 
    906       409.146 DT     02C1 Rx 8  04 CA 03 03 64 C1 39 53 
    907       409.388 DT     042A Rx 8  01 90 00 48 00 24 00 02 
    908       410.763 DT     0132 Rx 8  E8 89 F8 FF 28 40 FF 0F 
    909       411.005 DT     0372 Rx 8  0F 54 03 00 00 00 00 00 
    910       411.217 DT     0448 Rx 6  00 00 10 10 00 00 
    911       411.641 DT     013D Rx 6  02 20 AA 1A FF 02 
    912       412.419 DT     02C3 Rx 8  00 00 00 A6 01 00 80 69 
    913       412.657 DT     0243 Rx 8  FC 7F FF 5F A2 02 41 29 
    914       412.927 DT     0677 Rx 8  FB FF FF FF FF FF FF 27 
    915       413.625 DT     03A2 Rx 8  C5 04 00 00 01 80 21 01 
    916       414.624 DT     02C2 Rx 8  55 5B A9 06 00 00 12 00 
    917       414.872 DT     0129 Rx 8  14 2A 4F 20 FF 1F FF 3F 
    918       415.106 DT     0201 Rx 8  01 64 64 E9 21 02 96 00 
    919       415.292 DT     0219 Rx 5  F3 1F FF FF 02 
    920       415.526 DT     0381 Rx 8  14 39 4B 00 32 C0 07 96 
    921       416.028 DT     039D Rx 5  87 6A 55 28 00 
    922       416.724 DT     0789 Rx 8  54 09 00 00 00 00 10 1C 
    923       417.283 DT     0419 Rx 1  00 
    924       418.903 DT     0718 Rx 7  02 FF FF FF FF FF FF 
    925       419.895 DT     0441 Rx 8  7F C5 44 20 DB 0E 04 4F 
    926       420.775 DT     0132 Rx 8  E7 89 F8 FF 27 40 FF 0F 
    927       421.017 DT     02C1 Rx 8  A5 00 00 00 E0 00 00 00 
    928       421.247 DT     02E1 Rx 8  FC 19 16 1A 9E 16 0A 00 
    929       421.489 DT     02F9 Rx 8  D0 FB 07 28 00 00 00 00 
    930       421.688 DT     013D Rx 6  02 20 AA 1A FF 02 
    931       421.914 DT     0737 Rx 7  03 01 00 00 00 00 00 
    932       422.142 DT     0261 Rx 8  31 48 FC FF 16 4A 9A AF 
    933       422.794 DT     03C8 Rx 8  05 00 00 00 00 00 00 00 
    934       423.638 DT     02E2 Rx 8  00 00 00 C6 01 0B 00 00 
    935       423.880 DT     03C2 Rx 8  29 55 00 00 00 00 00 00 
    936       424.874 DT     0129 Rx 8  8C 2B 4F 20 00 20 FF 3F 
    937       425.054 DT     0249 Rx 4  CE 0F 00 00 
    938       425.305 DT     0330 Rx 8  14 05 00 00 87 80 EB D0 
    939       427.185 DT     03F9 Rx 8  04 00 00 00 00 00 00 00 
    940       427.353 DT     03D3 Rx 3  00 00 00 
    941       427.597 DT     0263 Rx 8  03 10 20 03 00 00 00 00 
    942       428.727 DT     0788 Rx 8  FE 1E 00 00 00 00 00 00 
    943       428.970 DT     0201 Rx 8  22 0F 20 C0 09 60 11 01 
    944       429.202 DT     023E Rx 8  28 C6 63 95 01 6E 96 2B 
    945       429.450 DT     0677 Rx 8  04 0F 00 00 00 00 00 00 
    946       430.532 DT     01FA Rx 3  22 C0 01 
    947       430.766 DT     0132 Rx 8  EC 89 F9 FF 29 40 FF 0F 
    948       431.618 DT     013D Rx 6  02 20 AA 1A FF 02 
    949       431.868 DT     02A1 Rx 6  00 00 98 3A 00 00 
    950       432.319 DT     0225 Rx 3  05 45 52 
    951       432.929 DT     02C1 Rx 8  06 00 00 00 40 00 00 00 
    952       433.291 DT     0339 Rx 8  00 B1 00 00 00 01 40 0F 
    953       433.641 DT     01FB Rx 8  00 FF FF FF FF FF FF FF 
    954       434.329 DT     0420 Rx 6  28 01 40 4B 00 60 
    955       434.721 DT     0288 Rx 8  03 16 54 88 50 00 21 F0 
    956       434.955 DT     0129 Rx 8  EC 2C 4F 20 00 20 FF 3F 
    957       436.911 DT     02E1 Rx 8  05 00 00 00 00 00 00 00 
    958       437.151 DT     0221 Rx 8  41 01 55 00 00 00 20 DA 
    959       437.389 DT     039A Rx 8  FC FD FD FD FD FD FD 01 
    960       437.602 DT     0283 Rx 6  00 00 00 00 00 00 
    961       437.730 DT     0242 Rx 2  10 95 
    962       437.972 DT     0545 Rx 8  01 00 00 00 00 10 90 EB 
    963       439.150 DT     0719 Rx 8  01 00 00 00 00 00 00 00 
    964       440.764 DT     0132 Rx 8  E4 89 F7 FF 28 40 FF 0F 
    965       441.000 DT     0798 Rx 8  02 40 76 1F 37 01 10 27 
    966       441.435 DT     013D Rx 6  02 20 AA 1A FF 02 
    967       442.429 DT     03C0 Rx 8  06 00 00 00 00 00 00 00 
    968       442.657 DT     0243 Rx 8  01 FC 59 59 5E 5E 7A 7A 
    969       442.913 DT     0201 Rx 8  03 40 18 00 10 89 F5 C1 
    970       443.633 DT     0282 Rx 8  00 00 00 00 EC F3 F2 24 
    971       444.644 DT     0360 Rx 8  08 00 00 00 00 00 00 00 
    972       444.876 DT     0129 Rx 8  97 2D 4F 20 FF 1F FF 3F 
    973       445.110 DT     02C1 Rx 8  07 00 14 0D 0E 1D 22 47 
    974       445.322 DT     01F9 Rx 6  00 00 00 00 00 00 
    975       445.566 DT     0677 Rx 8  05 02 00 28 00 00 00 00 
    976       445.687 DT     0409 Rx 1  00 
    977       446.725 DT     06C8 Rx 8  01 00 00 00 00 00 00 00 
    978       447.429 DT     0103 Rx 8  11 30 00 00 96 14 11 01 
    979       450.273 DT     0400 Rx 7  40 60 E0 BF EF FB 00 
    980       450.765 DT     0132 Rx 8  E8 89 F8 FF 28 40 FF 0F 
    981       451.147 DT     0439 Rx 8  00 00 20 00 00 00 43 02 
    982       451.637 DT     0102 Rx 8  22 33 00 00 E8 38 11 08 
    983       451.836 DT     013D Rx 6  02 20 AA 1A FF 02 
    984       452.440 DT     0123 Rx 8  00 00 48 12 D2 00 00 E0 
    985       452.788 DT     02A8 Rx 8  C2 00 00 00 00 80 50 3C 
    986       453.030 DT     02E1 Rx 8  10 21 04 00 00 00 26 08 
    987       453.258 DT     03A1 Rx 8  68 62 0D 98 00 34 42 7B 
    988       453.654 DT     0142 Rx 8  08 02 02 00 00 00 00 00 
    989       453.930 DT     0340 Rx 8  07 00 00 00 00 00 00 00 
    990       454.164 DT     0381 Rx 8  35 2E 1F AE 46 1E 80 02 
    991       454.533 DT     0273 Rx 8  81 A0 30 00 19 02 30 11 
    992       454.871 DT     0129 Rx 8  48 2E 4F 20 FF 1F FF 3F 
    993       455.097 DT     0261 Rx 8  5A FE 04 BA 8F 5C A5 E7 
    994       456.033 DT     039D Rx 5  A8 6B 75 28 00 
    995       456.917 DT     02C1 Rx 8  80 0C 32 0B 8B 1F 00 00 
    996       457.165 DT     0201 Rx 8  04 00 00 00 00 00 00 00 
    997       457.301 DT     0119 Rx 2  00 00 
    998       457.538 DT     0263 Rx 8  00 EE 0C F3 E4 3F A8 FA 
    999       457.726 DT     03A3 Rx 5  00 D0 00 00 08 
   1000       458.586 DT     0122 Rx 6  00 00 12 12 12 00 
   1001       458.796 DT     0428 Rx 6  00 00 10 10 00 00 
   1002       460.768 DT     0132 Rx 8  EF 89 F7 FF 28 40 FF 0F 
   1003       461.007 DT     0372 Rx 8  10 00 00 00 00 9A E2 2E 
   1004       461.251 DT     0677 Rx 8  F8 FF FF FF FF FF FF 3F 
   1005       461.627 DT     013D Rx 6  02 20 AA 1A FF 02 
   1006       462.417 DT     0393 Rx 8  06 00 FB D8 07 C0 1E 20 
   1007       463.623 DT     03A2 Rx 8  00 E0 72 0F 05 80 C6 6C 
   1008       464.875 DT     0129 Rx 8  D0 2F 4F 20 00 20 FF 3F 
   1009       465.093 DT     0241 Rx 7  32 64 9C 0C 19 57 00 
   1010       465.625 DT     0272 Rx 8  06 00 FD E8 07 C0 1E 20 
   1011       467.215 DT     039A Rx 8  FD FD FD FD FD 01 00 00 
   1012       467.454 DT     020C Rx 8  00 60 4A 1E 00 B0 07 00 
   1013       468.834 DT     0797 Rx 8  14 09 00 00 00 00 10 19 
   1014       469.074 DT     02C1 Rx 8  01 00 00 14 28 70 64 00 
   1015       469.306 DT     023E Rx 8  28 C6 63 95 01 6E A6 3B 
   1016       469.540 DT     02E1 Rx 8  29 0A A3 6A 17 00 00 00 
   1017       469.772 DT     0718 Rx 7  03 FF FF FF FF FF FF 
   1018       470.520 DT     025B Rx 8  D3 C0 02 00 00 00 00 F0 
   1019       470.769 DT     0132 Rx 8  EA 89 F8 FF 27 40 FF 0F 
   1020       471.009 DT     0201 Rx 8  05 40 18 00 10 79 B5 C1 
   1021       471.251 DT     0545 Rx 8  02 00 12 00 00 00 A0 FE 
   1022       471.731 DT     031E Rx 8  00 00 00 00 00 00 00 00 
   1023       472.189 DT     021D Rx 8  2C 20 08 14 80 00 40 10 
   1024       472.388 DT     013D Rx 6  02 20 AA 1A FF 02 
   1025       472.560 DT     01F8 Rx 4  22 00 00 00 
   1026       472.798 DT     0243 Rx 8  7A 7D 99 0F 00 00 00 00 
   1027       473.030 DT     025D Rx 8  DF 8C 01 C3 44 C1 0A E0 
   1028       473.264 DT     0379 Rx 8  02 00 48 80 9A 19 16 01 
   1029       473.398 DT     03E3 Rx 2  00 04 
   1030       473.516 DT     041D Rx 1  00 
   1031       473.767 DT     027D Rx 8  00 00 00 00 00 00 00 00 
   1032       473.937 DT     029D Rx 4  00 00 00 20 
   1033       474.107 DT     02BD Rx 4  00 00 00 00 
   1034       474.339 DT     03C2 Rx 8  00 55 55 55 00 00 55 45 
   1035       474.537 DT     043D Rx 6  02 20 AA 1A FF 02 
   1036       474.782 DT     075D Rx 8  32 89 1C 00 00 00 00 00 
   1037       475.020 DT     0129 Rx 8  35 20 4F 20 00 20 FF 3F 
   1038       475.270 DT     03E8 Rx 8  05 00 00 00 00 00 00 00 
   1039       475.418 DT     0229 Rx 3  52 02 00 
   1040       475.572 DT     077D Rx 3  12 00 00 
   1041       475.739 DT     0249 Rx 4  9B 00 00 00 
   1042       475.983 DT     02F1 Rx 8  0C 09 00 90 00 00 00 00 
   1043       476.233 DT     054F Rx 8  00 00 00 00 00 00 00 00 
   1044       476.389 DT     07DD Rx 3  FF 00 01 
   1045       476.923 DT     0677 Rx 8  01 FF FF FF FF FF FF 00 
   1046       477.417 DT     04E3 Rx 8  00 8E 03 FB 0F 00 08 00 
   1047       479.023 DT     0139 Rx 1  00 
   1048       479.648 DT     03E2 Rx 8  40 15 80 0A 00 00 04 04 
   1049       480.764 DT     0132 Rx 8  EA 89 F7 FF 28 40 FF 0F 
   1050       481.000 DT     02C1 Rx 8  02 74 C4 57 00 80 02 00 
   1051       481.246 DT     07A8 Rx 8  12 1F 00 70 00 00 00 00 
   1052       481.628 DT     013D Rx 6  02 20 AA 1A FF 02 
   1053       482.399 DT     02E3 Rx 7  20 00 00 CA 01 0B 00 
   1054       483.631 DT     01FB Rx 8  01 FE FF B7 6D 0B 00 00 
   1055       484.873 DT     0129 Rx 8  22 21 4F 20 00 20 FF 3F 
   1056       485.115 DT     0201 Rx 8  3E 73 33 03 00 00 00 00 
   1057       485.359 DT     02E1 Rx 8  02 00 00 00 00 00 01 00 
   1058       485.607 DT     03DA Rx 8  00 00 00 00 00 00 00 00 
   1059       486.397 DT     02A7 Rx 8  00 00 00 00 00 84 05 84 
   1060       486.641 DT     04E2 Rx 8  00 80 01 00 00 00 08 00 
   1061       486.873 DT     0228 Rx 8  03 16 54 88 50 00 21 90 
   1062       487.112 DT     0221 Rx 8  40 41 05 05 00 50 31 2F 
   1063       487.354 DT     03F5 Rx 8  00 C8 19 09 00 00 00 00 
   1064       487.584 DT     0263 Rx 8  01 E9 12 F2 E4 3C A5 FA 
   1065       487.816 DT     02B3 Rx 8  A9 4F 1F 00 00 64 7B 66 
   1066       488.054 DT     0261 Rx 8  03 00 00 00 00 40 B4 38 
   1067       488.288 DT     0343 Rx 8  00 90 64 AE A1 51 00 00 
   1068       488.532 DT     02A6 Rx 8  00 00 FF 1F 00 00 00 00 
   1069       488.781 DT     055A Rx 8  01 00 00 00 00 00 00 00 
   1070       489.013 DT     0405 Rx 8  11 33 45 37 46 41 30 4D 
   1071       489.165 DT     0113 Rx 3  01 97 01 
   1072       489.401 DT     07FF Rx 8  01 91 45 44 42 4C 7A 00 
   1073       489.637 DT     0318 Rx 8  16 03 2A 0F 11 14 07 99 
   1074       489.865 DT     0458 Rx 7  02 02 00 80 00 00 00 
   1075       490.391 DT     02C7 Rx 8  00 00 00 00 00 47 48 FF 
   1076       490.788 DT     0132 Rx 8  E8 89 F8 FF 28 40 FF 0F 
   1077       491.172 DT     037A Rx 8  00 00 00 00 00 00 00 00 
   1078       491.652 DT     013D Rx 6  02 20 AA 1A FF 02 
   1079       492.424 DT     03C3 Rx 8  00 00 00 00 00 45 00 00 
   1080       492.656 DT     02D2 Rx 8  D9 29 8D 4E 00 00 A1 01 
   1081       492.894 DT     0252 Rx 8  00 00 8C 06 00 00 A0 0F 
   1082       493.131 DT     0212 Rx 8  98 24 DE 0F 02 FF 1F 02 
   1083       493.343 DT     025A Rx 6  00 00 00 00 00 00 
   1084       493.569 DT     0292 Rx 8  4A 57 4D 75 D4 27 9E 01 
   1085       493.803 DT     0262 Rx 8  0B 00 D2 0D 00 70 52 12 
   1086       494.039 DT     0282 Rx 8  4D 05 00 81 10 01 7A 02 
   1087       494.279 DT     02C1 Rx 8  03 00 40 66 00 00 35 00 
   1088       494.410 DT     02F2 Rx 2  12 01 
   1089       494.650 DT     0381 Rx 8  16 03 00 19 03 12 00 00 
   1090       494.884 DT     0129 Rx 8  02 22 4F 20 FF 1F FF 3F 
   1091       495.130 DT     0677 Rx 8  02 FF FF FF FF 00 00 00 
   1092       495.370 DT     078A Rx 8  01 00 02 00 00 00 54 5D 
   1093       495.604 DT     07B8 Rx 8  82 1D 00 33 50 04 10 D8 
   1094       496.000 DT     039D Rx 5  89 6C 55 28 00 
   1095       496.285 DT     02C4 Rx 8  08 AE 01 A7 0D 8A 17 00 
   1096       497.161 DT     0204 Rx 8  81 00 00 46 00 00 00 10 
   1097       497.369 DT     0264 Rx 6  3B 00 00 00 A0 00 
   1098       497.607 DT     0359 Rx 8  02 00 00 00 64 82 86 24 
   1099       497.847 DT     0224 Rx 8  04 08 00 40 19 01 10 08 
   1100       497.979 DT     02D1 Rx 2  7F 01 
   1101       498.159 DT     02B4 Rx 5  69 AD 25 C2 00 
   1102       498.397 DT     039A Rx 8  FC FD FD FD FD FD FD 01 
   1103       498.641 DT     0553 Rx 8  00 00 00 00 00 00 20 78 
   1104       498.891 DT     06E8 Rx 8  01 00 00 00 00 00 00 00 
   1105       499.133 DT     0201 Rx 8  40 06 19 00 70 43 06 00 
   1106       500.637 DT     0552 Rx 8  00 00 00 00 00 00 20 77 
   1107       500.868 DT     0132 Rx 8  EC 89 F8 FF 27 40 FF 0F 
   1108       501.106 DT     02E1 Rx 8  03 6C 00 02 2C 44 00 00 
   1109       501.618 DT     013D Rx 6  02 20 AA 1A FF 02 
   1110       502.420 DT     0383 Rx 8  97 00 1E 80 00 00 A0 00 
   1111       502.658 DT     0243 Rx 8  FC 7F FF 5F A2 02 41 29 
   1112       502.940 DT     03A1 Rx 8  2B A0 22 01 00 00 50 D4 
   1113       503.188 DT     038A Rx 8  00 00 00 00 00 00 00 00 
   1114       503.636 DT     0142 Rx 8  01 00 80 03 00 00 00 00 
   1115       503.897 DT     0545 Rx 8  D0 01 31 C0 A1 0B BA 72 
   1116       504.877 DT     0129 Rx 8  7C 23 4F 20 00 20 FF 3F 
   1117       505.113 DT     02C1 Rx 8  04 CA 03 03 64 C1 39 53 
   1118       505.305 DT     0284 Rx 5  10 00 00 00 00 
   1119       505.547 DT     02E8 Rx 8  C2 00 00 00 00 80 50 7C 
   1120       506.815 DT     022A Rx 4  00 00 19 16 
   1121       507.387 DT     0423 Rx 6  00 00 00 00 08 00 
   1122       507.599 DT     0422 Rx 6  A0 00 10 00 00 00 
   1123       508.914 DT     0421 Rx 7  00 0A 00 10 00 00 00 
   1124       509.144 DT     023E Rx 8  28 C6 63 95 01 6E B6 4B 
   1125       509.386 DT     042A Rx 8  01 90 00 48 00 24 00 02 
   1126       509.630 DT     0677 Rx 8  FB FF FF FF FF FF FF 27 
   1127       510.766 DT     0132 Rx 8  E7 89 F7 FF 28 40 FF 0F 
   1128       511.015 DT     0372 Rx 8  11 00 00 00 00 00 00 00 
   1129       511.227 DT     0448 Rx 6  00 00 10 10 00 00 
   1130       511.641 DT     013D Rx 6  02 20 AA 1A FF 02 
   1131       512.417 DT     02C3 Rx 8  55 1B A8 36 00 00 12 00 
   1132       512.901 DT     0201 Rx 8  01 64 64 E9 21 02 96 00 
   1133       513.629 DT     03A2 Rx 8  C5 04 00 00 01 80 21 01 
   1134       514.635 DT     02C2 Rx 8  00 00 00 97 01 00 C0 65 
   1135       514.874 DT     0129 Rx 8  FA 24 4F 20 00 20 FF 3F 
   1136       515.104 DT     0219 Rx 5  04 74 74 00 00 
   1137       516.724 DT     0789 Rx 8  54 09 00 00 00 00 20 2C 
   1138       516.966 DT     02C1 Rx 8  A5 00 00 00 E0 00 00 00 
   1139       517.196 DT     02E1 Rx 8  FC 19 12 1A 9E 12 0A 00 
   1140       517.314 DT     0419 Rx 1  00 
   1141       517.558 DT     0263 Rx 8  02 00 00 00 6B 10 00 00 
   1142       518.912 DT     0718 Rx 7  04 FF FF 00 00 00 00 
   1143       519.908 DT     0441 Rx 8  7D C5 44 20 DB 0E 08 51 
   1144       520.783 DT     0132 Rx 8  E9 89 F7 FF 26 40 FF 0F 
   1145       521.015 DT     0261 Rx 8  00 10 27 00 D6 43 C0 51 
   1146       521.259 DT     02F9 Rx 8  D0 FB 07 00 00 00 00 00 
   1147       521.651 DT     0302 Rx 8  12 E1 F1 C8 23 75 6D 8F 
   1148       521.849 DT     013D Rx 6  02 20 AA 1A FF 02 
   1149       522.755 DT     03C8 Rx 8  00 00 00 00 00 00 00 00 
   1150       523.639 DT     03C2 Rx 8  29 55 00 00 00 00 00 00 
   1151       524.867 DT     0129 Rx 8  84 25 4F 20 FF 1F FF 3F 
   1152       525.115 DT     0677 Rx 8  04 0F 00 00 00 00 00 00 
   1153       525.284 DT     0249 Rx 4  E8 01 00 00 
   1154       526.916 DT     0201 Rx 8  22 0F 20 C0 09 60 11 01 
   1155       527.188 DT     03F9 Rx 8  05 00 00 00 00 00 00 00 
   1156       527.428 DT     039A Rx 8  FD FD FD FD FD 01 00 00 
   1157       528.722 DT     0788 Rx 8  08 D5 A1 63 00 00 00 10 
   1158       528.972 DT     02C1 Rx 8  06 00 00 00 40 00 00 00 
   1159       530.536 DT     01FA Rx 3  22 C0 01 
   1160       530.770 DT     0132 Rx 8  E0 89 F8 FF 2B 40 FF 0F 
   1161       531.623 DT     013D Rx 6  02 20 AA 1A FF 02 
   1162       531.873 DT     02A1 Rx 6  00 00 98 3A 00 00 
   1163       532.123 DT     0381 Rx 8  17 00 00 00 00 00 00 00 
   1164       532.323 DT     0225 Rx 3  05 45 52 
   1165       532.551 DT     0243 Rx 8  01 FC 59 59 5E 5E 7A 7A 
   1166       532.935 DT     02E1 Rx 8  05 00 00 00 00 00 00 00 
   1167       533.307 DT     0339 Rx 8  00 B1 00 00 00 01 40 0F 
   1168       533.654 DT     01FB Rx 8  00 FF FF FF FF FF FF FF 
   1169       534.340 DT     0420 Rx 6  28 01 40 4B 00 70 
   1170       534.724 DT     0288 Rx 8  03 16 54 88 50 00 31 00 
   1171       534.960 DT     0129 Rx 8  37 26 4F 20 00 20 FF 3F 
   1172       535.976 DT     039D Rx 5  8A 6D 55 28 00 
   1173       536.434 DT     020A Rx 6  F6 15 09 82 18 01 
   1174       536.908 DT     0545 Rx 8  01 00 00 00 00 10 C0 1B 
   1175       537.148 DT     0221 Rx 8  41 01 55 00 00 00 40 FA 
   1176       537.417 DT     0283 Rx 6  00 00 00 00 00 00 
   1177       537.545 DT     0242 Rx 2  10 95 
   1178       539.155 DT     0719 Rx 8  00 94 52 00 00 00 00 00 
   1179       540.767 DT     0132 Rx 8  E7 89 F8 FF 28 40 FF 0F 
   1180       541.003 DT     0201 Rx 8  03 40 18 00 10 89 F5 C1 
   1181       541.237 DT     02C1 Rx 8  07 00 14 0D 0E 1D 22 47 
   1182       541.481 DT     0677 Rx 8  05 02 00 28 00 00 00 00 
   1183       541.680 DT     013D Rx 6  02 20 AA 1A FF 02 
   1184       541.910 DT     0798 Rx 8  6B B6 59 CE 3A 0B 20 B5 
   1185       542.430 DT     03C0 Rx 8  07 00 00 00 00 00 00 00 
   1186       543.638 DT     0282 Rx 8  00 00 00 00 EC F3 F2 24 
   1187       544.648 DT     0360 Rx 8  00 00 00 00 00 00 00 00 
   1188       544.886 DT     0129 Rx 8  20 27 4F 20 00 20 FF 3F 
   1189       545.120 DT     01F9 Rx 6  00 00 00 00 00 00 
   1190       545.584 DT     0409 Rx 1  00 
   1191       546.723 DT     06C8 Rx 8  CC 01 00 2C 00 00 00 00 
   1192       547.431 DT     0103 Rx 8  11 30 00 00 96 14 11 01 
   1193       547.675 DT     0263 Rx 8  03 10 20 03 00 00 00 00 
   1194       548.927 DT     02E1 Rx 8  10 21 04 00 00 00 26 08 
   1195       549.157 DT     023E Rx 8  28 C6 63 95 01 6E C6 5B 
   1196       550.171 DT     0400 Rx 7  40 60 E0 BF EF FB 00 
   1197       550.769 DT     0132 Rx 8  EE 89 F8 FF 27 40 FF 0F 
   1198       551.151 DT     0439 Rx 8  00 00 20 00 00 00 43 02 
   1199       551.643 DT     0102 Rx 8  22 33 00 00 E8 38 11 08 
   1200       551.842 DT     013D Rx 6  02 20 AA 1A FF 02 
   1201       552.443 DT     0123 Rx 8  00 00 48 12 D2 00 00 E0 
   1202       552.793 DT     02A8 Rx 8  C2 00 00 00 00 80 60 4C 
   1203       553.033 DT     02C1 Rx 8  80 0C 32 0B 8B 1F 00 00 
   1204       553.263 DT     03A1 Rx 8  68 62 0D 98 00 30 62 97 
   1205       553.647 DT     0142 Rx 8  08 02 02 00 00 00 00 00 
   1206       553.941 DT     0340 Rx 8  08 00 00 00 00 00 00 00 
   1207       554.177 DT     0261 Rx 8  31 48 1F 00 13 4A DA 10 
   1208       554.873 DT     0129 Rx 8  F7 28 4F 20 00 20 FF 3F 
   1209       555.122 DT     0201 Rx 8  04 00 00 00 00 00 00 00 
   1210       555.360 DT     0285 Rx 8  61 02 86 01 01 00 20 00 
   1211       556.914 DT     0677 Rx 8  F8 FF FF FF FF FF FF 3F 
   1212       557.058 DT     0119 Rx 2  00 00 
   1213       557.296 DT     039A Rx 8  FC FD FD FD FD FD FD 01 
   1214       557.484 DT     03A3 Rx 5  00 D0 00 00 08 
   1215       558.590 DT     0122 Rx 6  00 00 12 12 12 00 
   1216       558.801 DT     0428 Rx 6  00 00 10 10 00 00 
   1217       560.769 DT     0132 Rx 8  F5 89 F8 FF 2B 40 FF 0F 
   1218       561.003 DT     0372 Rx 8  12 00 82 D4 7A 19 F2 FF 
   1219       561.629 DT     013D Rx 6  02 20 AA 1A FF 02 
   1220       562.415 DT     0393 Rx 8  09 80 63 00 00 00 00 00 
   1221       562.654 DT     0243 Rx 8  7A 7D 99 0F 00 00 00 00 
   1222       563.624 DT     03A2 Rx 8  00 C0 72 0D 05 00 C6 6C 
   1223       564.872 DT     0129 Rx 8  A2 29 4F 20 00 20 FF 3F 
   1224       565.088 DT     0241 Rx 7  33 64 DC 0C 19 57 00 
   1225       565.328 DT     02C1 Rx 8  01 00 00 14 28 70 64 00 
   1226       565.562 DT     02E1 Rx 8  29 0A A3 6A 17 00 00 00 
   1227       565.806 DT     0272 Rx 8  09 80 63 00 00 00 00 00 
   1228       567.182 DT     043B Rx 8  01 7F 00 FF 00 00 00 00 
   1229       567.426 DT     03DB Rx 8  04 00 00 00 01 00 00 00 
   1230       567.665 DT     020C Rx 8  00 60 4A 1E 00 B0 07 00 
   1231       568.835 DT     0797 Rx 8  14 09 00 00 00 00 20 29 
   1232       569.075 DT     0201 Rx 8  05 40 18 00 10 79 B5 C1 
   1233       569.303 DT     0718 Rx 7  00 7F 7F 7F FF FF FF 
   1234       569.913 DT     0545 Rx 8  02 00 11 00 00 00 D0 2D 
   1235       570.777 DT     0132 Rx 8  E4 89 F8 FF 27 40 FF 0F 
   1236       571.025 DT     0381 Rx 8  18 00 00 00 00 00 00 00 
   1237       571.370 DT     025B Rx 8  D3 C0 02 00 00 00 10 00 
   1238       571.618 DT     031E Rx 8  01 00 00 00 00 00 00 00 
   1239       571.736 DT     041D Rx 1  00 
   1240       571.972 DT     021D Rx 8  2C 20 08 14 80 00 40 10 
   1241       572.171 DT     043D Rx 6  02 20 AA 1A FF 02 
   1242       572.369 DT     013D Rx 6  02 20 AA 1A FF 02 
   1243       572.601 DT     025D Rx 8  DF 8C 01 C3 44 C1 0A E0 
   1244       572.773 DT     01F8 Rx 4  22 00 00 00 
   1245       572.907 DT     03E3 Rx 2  00 04 
   1246       573.157 DT     0677 Rx 8  01 FF FF FF FF FF FF 00 
   1247       573.408 DT     027D Rx 8  00 00 00 00 00 00 00 00 
   1248       573.578 DT     029D Rx 4  00 00 00 20 
   1249       573.748 DT     02BD Rx 4  00 00 00 00 
   1250       573.984 DT     0379 Rx 8  03 00 3E 82 9A A9 31 01 
   1251       574.216 DT     03C2 Rx 8  00 55 55 55 00 00 55 45 
   1252       574.371 DT     077D Rx 3  12 00 00 
   1253       574.579 DT     07DD Rx 3  FF 00 01 
   1254       574.873 DT     0129 Rx 8  7D 2A 4F 20 00 20 FF 3F 
   1255       575.127 DT     03E8 Rx 8  00 00 00 00 00 00 00 00 
   1256       575.275 DT     0229 Rx 3  6D 03 00 
   1257       575.454 DT     0249 Rx 4  2A 02 00 00 
   1258       575.718 DT     054F Rx 8  00 00 00 00 00 00 00 00 
   1259       575.966 DT     02F1 Rx 8  0D 00 00 00 00 00 00 00 
   1260       576.146 DT     039D Rx 5  8B 6E 55 28 00 
   1261       576.908 DT     02C1 Rx 8  02 74 C4 57 00 80 02 00 
   1262       577.428 DT     04E3 Rx 8  01 DE 06 00 00 00 08 00 
   1263       577.665 DT     0263 Rx 8  00 EE 0C F3 E4 3F A8 FA 
   1264       577.907 DT     02B3 Rx 8  0A 2B 00 78 00 00 00 00 
   1265       579.027 DT     0139 Rx 1  00 
   1266       579.649 DT     03E2 Rx 8  40 15 80 0A 00 00 04 04 
   1267       580.765 DT     0132 Rx 8  EC 89 F8 FF 28 40 FF 0F 
   1268       581.009 DT     02E1 Rx 8  02 00 00 00 00 00 01 00 
   1269       581.245 DT     07A8 Rx 8  08 D5 A1 63 00 00 40 10 
   1270       581.624 DT     013D Rx 6  02 20 AA 1A FF 02 
   1271       582.402 DT     02E3 Rx 7  03 00 00 C4 01 0B 00 
   1272       582.908 DT     0201 Rx 8  3E 73 33 03 00 00 00 00 
   1273       583.634 DT     01FB Rx 8  01 FE FF B7 6D 0B 00 00 
   1274       584.874 DT     0129 Rx 8  8C 2B 4F 20 00 20 FF 3F 
   1275       585.154 DT     03DA Rx 8  00 00 00 00 00 00 00 00 
   1276       586.388 DT     02A7 Rx 8  00 00 00 00 00 84 05 84 
   1277       586.632 DT     04E2 Rx 8  01 6C 07 00 00 00 08 00 
   1278       586.782 DT     0113 Rx 3  01 97 01 
   1279       587.017 DT     0221 Rx 8  40 41 05 05 00 50 51 4F 
   1280       587.251 DT     0228 Rx 8  03 16 54 88 50 00 31 A0 
   1281       587.479 DT     0261 Rx 8  5A FE 04 BA 8F 5C E5 27 
   1282       587.717 DT     0343 Rx 8  00 90 60 4E A1 36 00 00 
   1283       587.957 DT     039A Rx 8  FD FD FD FD FD 01 00 00 
   1284       588.199 DT     03F5 Rx 8  00 C8 19 09 00 00 00 00 
   1285       588.443 DT     02A6 Rx 8  00 00 FF 1F 00 00 00 00 
   1286       588.675 DT     07FF Rx 8  02 5F 4E AC DE CD D6 30 
   1287       588.912 DT     0318 Rx 8  16 03 2A 0F 11 14 09 9B 
   1288       589.152 DT     02C1 Rx 8  03 00 40 66 00 00 35 00 
   1289       589.384 DT     023E Rx 8  28 C6 63 95 01 6E D6 6B 
   1290       589.610 DT     0458 Rx 7  02 02 00 80 00 00 00 
   1291       589.856 DT     0677 Rx 8  02 FF FF FF FF 00 00 00 
   1292       590.382 DT     02C7 Rx 8  00 00 00 00 00 47 48 FF 
   1293       590.770 DT     0132 Rx 8  EE 89 F8 FF 28 40 FF 0F 
   1294       591.174 DT     037A Rx 8  01 00 00 00 00 00 00 00 
   1295       591.633 DT     013D Rx 6  02 20 AA 1A FF 02 
   1296       592.373 DT     02D2 Rx 8  D9 29 8D 4E 00 00 A1 01 
   1297       592.611 DT     0243 Rx 8  FC 7F FF 5F A2 02 41 29 
   1298       592.849 DT     0252 Rx 8  00 00 8C 06 00 00 A0 0F 
   1299       593.085 DT     0212 Rx 8  98 24 DE 0F 02 FF 1F 02 
   1300       593.312 DT     0292 Rx 8  4A 57 4D 75 D4 27 9E 01 
   1301       593.442 DT     02F2 Rx 2  12 01 
   1302       593.676 DT     0262 Rx 8  0B 00 D2 0D 00 70 52 12 
   1303       593.912 DT     0282 Rx 8  4D 05 00 01 4C 01 7A 02 
   1304       594.148 DT     03C3 Rx 8  55 55 55 01 00 00 00 00 
   1305       594.383 DT     0401 Rx 8  0D 2A 13 82 16 82 1C 82 
   1306       594.497 DT     024A Rx 1  03 
   1307       594.737 DT     076A Rx 8  00 69 4B DA 02 00 00 00 
   1308       594.971 DT     0129 Rx 8  EC 2C 4F 20 00 20 FF 3F 
   1309       595.209 DT     07AA Rx 8  03 4F F7 1B 05 03 00 00 
   1310       595.452 DT     078A Rx 8  01 00 03 00 00 00 60 5D 
   1311       595.686 DT     07B8 Rx 8  D3 EF 3F FD 69 08 20 31 
   1312       596.284 DT     02C4 Rx 8  49 D9 FD 2E A0 84 A5 89 
   1313       596.906 DT     0201 Rx 8  40 A6 19 00 70 43 06 00 
   1314       597.144 DT     02E1 Rx 8  03 6C 00 02 2C 44 00 00 
   1315       597.392 DT     0204 Rx 8  81 00 00 46 00 00 00 10 
   1316       597.601 DT     0264 Rx 6  3B 00 00 00 A0 00 
   1317       597.841 DT     0224 Rx 8  04 08 00 40 19 01 10 08 
   1318       597.973 DT     02D1 Rx 2  7F 01 
   1319       598.153 DT     02B4 Rx 5  68 AD 25 C0 00 
   1320       598.397 DT     0359 Rx 8  03 00 00 00 FF 01 00 00 
   1321       598.636 DT     03C4 Rx 8  14 05 00 00 1C BE 4C 31 
   1322       598.878 DT     0553 Rx 8  00 00 00 00 00 00 30 88 
   1323       599.124 DT     06E8 Rx 8  CC 01 00 2C 00 00 00 00 
   1324       600.638 DT     0552 Rx 8  00 00 00 00 00 00 30 87 
   1325       600.870 DT     0132 Rx 8  E9 89 F8 FF 27 40 FF 0F 
   1326       601.106 DT     02C1 Rx 8  04 CA 03 03 64 C1 39 53 
   1327       601.615 DT     013D Rx 6  02 20 AA 1A FF 02 
   1328       602.423 DT     0383 Rx 8  97 00 1E 80 00 00 A0 00 
   1329       602.913 DT     0545 Rx 8  40 01 31 10 A1 04 EA 5B 
   1330       603.161 DT     038A Rx 8  01 00 00 00 00 00 00 00 
   1331       603.395 DT     03A1 Rx 8  2B A0 22 01 00 00 70 F4 
   1332       603.647 DT     0142 Rx 8  01 00 80 03 00 00 00 00 
   1333       604.871 DT     0129 Rx 8  FE 2D 4F 20 00 20 FF 3F 
   1334       605.112 DT     02E8 Rx 8  C2 00 00 00 00 80 60 8C 
   1335       605.348 DT     0313 Rx 8  02 64 64 01 00 00 40 21 
   1336       605.592 DT     0677 Rx 8  FB FF FF FF FF FF FF 27 
   1337       605.832 DT     0285 Rx 8  02 D3 00 00 00 00 0E 00 
   1338       606.659 DT     022A Rx 4  00 00 19 16 
   1339       607.391 DT     0423 Rx 6  00 00 00 00 08 00 
   1340       607.621 DT     0263 Rx 8  01 E9 12 F2 E4 3C A5 FA 
   1341       607.831 DT     0422 Rx 6  A0 00 10 00 00 00 
   1342       608.931 DT     0421 Rx 7  00 0A 00 10 00 00 00 
   1343       609.174 DT     042A Rx 8  01 90 00 48 00 24 00 02 
   1344       609.902 DT     0381 Rx 8  00 1E 56 46 2E 32 A1 40 
   1345       610.768 DT     0132 Rx 8  E8 89 F8 FF 26 40 FF 0F 
   1346       611.002 DT     0201 Rx 8  01 64 64 E9 21 02 96 00 
   1347       611.214 DT     0448 Rx 6  00 00 10 10 00 00 
   1348       611.454 DT     07C8 Rx 8  0D 49 A1 C3 8E 00 00 00 
   1349       611.653 DT     013D Rx 6  02 20 AA 1A FF 02 
   1350       612.425 DT     02C3 Rx 8  00 00 00 A6 01 00 80 69 
   1351       612.921 DT     02C1 Rx 8  A5 00 00 00 E0 00 00 00 
   1352       613.155 DT     02E1 Rx 8  FC 19 0F 2A 9E 0E 0A 00 
   1353       613.643 DT     03A2 Rx 8  C5 04 00 00 01 80 21 01 
   1354       614.645 DT     02C2 Rx 8  55 5B A9 06 00 00 12 00 
   1355       614.883 DT     0129 Rx 8  21 2E 4F 20 00 20 FF 3F 
   1356       615.099 DT     0219 Rx 5  F0 1F FF FF 00 
   1357       616.230 DT     039D Rx 5  8C 6F 55 28 00 
   1358       616.730 DT     0789 Rx 8  54 09 00 00 00 00 30 3C 
   1359       617.206 DT     039A Rx 8  FC FD FD FD FD FD FD 01 
   1360       617.324 DT     0419 Rx 1  00 
   1361       618.908 DT     0718 Rx 7  01 FF FF FF FF FF 00 
   1362       619.902 DT     0441 Rx 8  7F C5 44 20 DB 0E 0C 57 
   1363       620.140 DT     0261 Rx 8  03 00 00 00 00 40 F4 78 
   1364       620.785 DT     0132 Rx 8  E5 89 F7 FF 28 40 FF 0F 
   1365       621.019 DT     0301 Rx 8  12 5A AC B0 30 7F FD 93 
   1366       621.265 DT     02F9 Rx 8  D0 FB 07 08 00 00 00 00 
   1367       621.513 DT     0677 Rx 8  04 0F 00 00 00 00 00 00 
   1368       621.711 DT     013D Rx 6  02 20 AA 1A FF 02 
   1369       622.411 DT     0243 Rx 8  01 FC 59 59 5E 5E 7A 7A 
   1370       622.759 DT     03C8 Rx 8  01 00 00 00 00 00 00 00 
   1371       623.630 DT     02E2 Rx 8  52 49 5C 5C 49 49 49 0C 
   1372       623.872 DT     03C2 Rx 8  29 55 00 00 00 00 00 00 
   1373       624.872 DT     0129 Rx 8  7D 2F 4F 20 01 20 FF 3F 
   1374       625.114 DT     0201 Rx 8  22 0F 20 C0 09 60 11 01 
   1375       625.280 DT     0249 Rx 4  D3 03 00 00 
   1376       625.530 DT     02C1 Rx 8  06 00 00 00 40 00 00 00 
   1377       627.192 DT     03F9 Rx 8  00 00 00 00 00 00 00 00 
   1378       627.438 DT     0303 Rx 8  0D 11 84 F7 8B 00 00 00 
   1379       628.733 DT     0788 Rx 8  01 00 00 00 FF A1 08 00 
   1380       628.981 DT     02E1 Rx 8  05 00 00 00 00 00 00 00 
   1381       629.211 DT     023E Rx 8  28 C6 63 95 01 6E E6 7B 
   1382       630.539 DT     01FA Rx 3  22 C0 01 
   1383       630.769 DT     0132 Rx 8  E7 89 F8 FF 26 40 FF 0F 
   1384       631.627 DT     013D Rx 6  02 20 AA 1A FF 02 
   1385       631.872 DT     02A1 Rx 6  00 00 98 3A 00 00 
   1386       632.330 DT     0225 Rx 3  05 45 52 
   1387       633.298 DT     0339 Rx 8  00 B1 00 00 00 01 40 0F 
   1388       633.650 DT     01FB Rx 8  00 FF FF FF FF FF FF FF 
   1389       634.332 DT     0420 Rx 6  28 01 40 4B 00 80 
   1390       634.728 DT     0288 Rx 8  03 16 54 88 50 00 41 10 
   1391       634.967 DT     0129 Rx 8  35 20 4F 20 00 20 FF 3F 
   1392       635.213 DT     043A Rx 8  03 00 00 00 00 00 00 00 
   1393       635.935 DT     0545 Rx 8  01 00 00 00 00 10 F0 4B 
   1394       636.909 DT     02C1 Rx 8  07 00 14 0D 0E 1D 22 47 
   1395       637.149 DT     0221 Rx 8  41 01 55 00 00 00 60 1A 
   1396       637.393 DT     0677 Rx 8  05 02 00 28 00 00 00 00 
   1397       637.637 DT     0263 Rx 8  02 00 00 00 6B 10 00 00 
   1398       637.765 DT     0242 Rx 2  10 95 
   1399       637.978 DT     0283 Rx 6  00 00 00 00 00 00 
   1400       638.938 DT     0201 Rx 8  03 40 18 00 10 89 F5 C1 
   1401       639.188 DT     0719 Rx 8  01 00 00 00 00 00 00 00 
   1402       640.768 DT     0132 Rx 8  EC 89 F7 FF 25 40 FF 0F 
   1403       640.994 DT     0798 Rx 8  54 E9 63 18 67 0C 30 63 
   1404       641.441 DT     013D Rx 6  02 20 AA 1A FF 02 
   1405       642.433 DT     03C0 Rx 8  08 00 00 00 00 00 00 00 
   1406       643.635 DT     0282 Rx 8  00 00 00 00 EC F3 F2 24 
   1407       644.649 DT     0360 Rx 8  01 00 00 00 00 00 00 00 
   1408       644.883 DT     0129 Rx 8  8F 21 4F 20 01 20 FF 3F 
   1409       645.125 DT     02E1 Rx 8  10 21 04 00 00 00 26 08 
   1410       645.337 DT     01F9 Rx 6  00 00 00 00 00 00 
   1411       646.319 DT     0409 Rx 1  00 
   1412       646.734 DT     06C8 Rx 8  01 00 00 00 00 00 00 00 
   1413       647.212 DT     039A Rx 8  FD FD FD FD FD 01 00 00 
   1414       647.450 DT     0103 Rx 8  11 30 00 00 96 14 11 01 
   1415       648.932 DT     02C1 Rx 8  80 0C 32 0B 8B 1F 00 00 
   1416       649.172 DT     0381 Rx 8  01 00 00 70 47 44 44 04 
   1417       650.298 DT     0400 Rx 7  40 60 E0 BF EF FB 00 
   1418       650.500 DT     038B Rx 6  FF FF 07 19 AC 00 
   1419       650.775 DT     0232 Rx 8  4A 00 CF 09 BC 04 00 00 
   1420       651.009 DT     0132 Rx 8  E7 89 F7 FF 27 40 FF 0F 
   1421       651.253 DT     0439 Rx 8  00 00 20 00 00 00 43 02 
   1422       651.487 DT     0752 Rx 8  00 28 58 42 04 00 00 76 
   1423       651.723 DT     0102 Rx 8  22 33 00 00 E8 38 11 08 
   1424       651.921 DT     013D Rx 6  02 20 AA 1A FF 02 
   1425       652.445 DT     0123 Rx 8  00 00 48 12 D2 00 00 E0 
   1426       652.682 DT     0243 Rx 8  7A 7D A1 0F 00 00 00 00 
   1427       652.924 DT     02A8 Rx 8  C2 00 00 00 00 80 70 5C 
   1428       653.172 DT     0201 Rx 8  04 00 00 00 00 00 00 00 
   1429       653.404 DT     0261 Rx 8  00 10 27 00 D6 43 00 91 
   1430       653.650 DT     0142 Rx 8  08 02 02 00 00 00 00 00 
   1431       653.876 DT     0312 Rx 8  00 44 38 72 33 72 CB 17 
   1432       654.126 DT     0340 Rx 8  00 00 00 00 00 00 00 00 
   1433       654.325 DT     0374 Rx 6  A6 E0 31 E5 68 04 
   1434       654.525 DT     0332 Rx 6  09 1A 81 06 0A 38 
   1435       654.763 DT     0300 Rx 8  0D 03 00 00 16 8C 35 2A 
   1436       654.997 DT     0129 Rx 8  6B 22 4F 20 00 20 FF 3F 
   1437       655.227 DT     0293 Rx 8  01 0C 55 91 55 15 04 F6 
   1438       655.459 DT     0352 Rx 8  20 82 8E 73 9C 23 00 8E 
   1439       655.670 DT     0253 Rx 7  64 C8 A7 64 C8 47 07 
   1440       655.900 DT     03A1 Rx 8  68 62 0D 98 00 34 82 BB 
   1441       656.136 DT     0285 Rx 8  03 75 9D 4B 8A 00 00 00 
   1442       656.320 DT     039D Rx 5  7D 60 55 28 00 
   1443       656.454 DT     0410 Rx 2  45 00 
   1444       656.606 DT     0452 Rx 3  E7 54 09 
   1445       656.839 DT     03F2 Rx 8  08 F6 D9 00 40 11 11 00 
   1446       657.077 DT     03D2 Rx 8  A8 35 03 00 52 0B 04 00 
   1447       657.213 DT     0119 Rx 2  00 00 
   1448       657.401 DT     03A3 Rx 5  00 D0 00 00 08 
   1449       657.567 DT     0472 Rx 4  78 60 3A 00 
   1450       657.811 DT     0677 Rx 8  F8 FF FF FF FF FF FF 3F 
   1451       658.593 DT     0122 Rx 6  00 00 12 12 12 00 
   1452       658.804 DT     0428 Rx 6  00 00 10 10 00 00 
   1453       660.773 DT     0132 Rx 8  EB 89 F7 FF 27 40 FF 0F 
   1454       661.013 DT     02C1 Rx 8  01 00 00 14 28 70 64 00 
   1455       661.247 DT     02E1 Rx 8  29 0A A3 6A 17 00 00 00 
   1456       661.497 DT     0320 Rx 8  00 00 00 00 00 00 00 00 
   1457       661.729 DT     0372 Rx 8  00 06 80 57 71 21 B0 43 
   1458       661.964 DT     0772 Rx 8  00 2A D8 09 E8 08 1E 0A 
   1459       662.162 DT     013D Rx 6  02 20 AA 1A FF 02 
   1460       662.432 DT     0393 Rx 8  06 00 FB D8 07 C0 1E 20 
   1461       663.628 DT     03A2 Rx 8  00 C0 72 0F 05 80 C6 6C 
   1462       664.874 DT     0129 Rx 8  7C 23 4F 20 00 20 FF 3F 
   1463       665.092 DT     0241 Rx 7  32 64 9C 0C 19 57 00 
   1464       665.631 DT     0272 Rx 8  06 00 FD E0 07 C0 1E 20 
   1465       666.921 DT     0201 Rx 8  05 40 18 00 10 79 B5 C1 
   1466       667.429 DT     020C Rx 8  00 60 4A 1E 00 B0 07 00 
   1467       667.673 DT     0263 Rx 8  03 10 20 03 00 00 00 00 
   1468       667.913 DT     02B3 Rx 8  00 82 81 82 82 7D 67 00 
   1469       668.839 DT     0797 Rx 8  14 09 00 00 00 00 30 39 
   1470       669.079 DT     0545 Rx 8  02 00 11 00 00 00 00 5D 
   1471       669.311 DT     023E Rx 8  28 C6 63 95 01 6E F6 8B 
   1472       669.561 DT     0677 Rx 8  01 FF FF FF FF FF FF 00 
   1473       669.792 DT     0718 Rx 7  02 FF FF FF FF FF FF 
   1474       670.342 DT     025B Rx 8  D3 C0 02 00 00 00 20 10 
   1475       670.774 DT     0132 Rx 8  EB 89 F8 FF 28 40 FF 0F 
   1476       671.510 DT     031E Rx 8  02 00 00 00 00 00 00 00 
   1477       671.628 DT     041D Rx 1  00 
   1478       671.865 DT     021D Rx 8  2C 20 08 14 80 00 40 10 
   1479       672.121 DT     043D Rx 6  02 20 AA 1A FF 02 
   1480       672.319 DT     013D Rx 6  02 20 AA 1A FF 02 
   1481       672.551 DT     025D Rx 8  DF 8C 01 C3 44 C1 0A E0 
   1482       672.723 DT     01F8 Rx 4  22 00 00 00 
   1483       672.959 DT     02C1 Rx 8  02 74 C4 57 00 80 02 00 
   1484       673.210 DT     027D Rx 8  00 00 00 00 00 00 00 00 
   1485       673.448 DT     0379 Rx 8  04 A0 4F 1E 00 00 00 00 
   1486       673.618 DT     029D Rx 4  00 00 00 20 
   1487       673.850 DT     03C2 Rx 8  00 55 55 55 00 00 55 45 
   1488       673.984 DT     03E3 Rx 2  00 04 
   1489       674.154 DT     02BD Rx 4  00 00 00 00 
   1490       674.401 DT     075D Rx 8  53 00 00 00 00 00 00 00 
   1491       674.555 DT     077D Rx 3  12 00 00 
   1492       674.867 DT     0129 Rx 8  93 24 4F 20 FF 1F FF 3F 
   1493       675.121 DT     03E8 Rx 8  01 00 00 00 00 00 00 00 
   1494       675.272 DT     0229 Rx 3  43 04 00 
   1495       675.428 DT     07DD Rx 3  FF 00 01 
   1496       675.594 DT     0249 Rx 4  D3 04 00 00 
   1497       675.858 DT     054F Rx 8  00 00 00 00 00 00 00 00 
   1498       676.094 DT     02F1 Rx 8  2E 06 40 23 8C 00 60 04 
   1499       676.916 DT     02E1 Rx 8  02 00 00 00 00 00 01 00 
   1500       677.237 DT     039A Rx 8  FC FD FD FD FD FD FD 01 
   1501       677.477 DT     04E3 Rx 8  02 13 07 00 00 00 08 00 
   1502       679.031 DT     0139 Rx 1  00 
   1503       679.653 DT     03E2 Rx 8  40 15 80 0A 00 00 04 04 
   1504       680.767 DT     0132 Rx 8  EB 89 F8 FF 29 40 FF 0F 
   1505       681.009 DT     0201 Rx 8  3E 73 33 03 00 00 00 00 
   1506       681.251 DT     07A8 Rx 8  01 00 00 00 FF A1 08 00 
   1507       681.628 DT     013D Rx 6  02 20 AA 1A FF 02 
   1508       682.404 DT     02E3 Rx 7  94 D2 60 00 10 06 00 
   1509       682.642 DT     0243 Rx 8  FC 7F FF 5F A2 02 41 29 
   1510       683.638 DT     01FB Rx 8  01 FE FF B7 6D 0B 00 00 
   1511       684.870 DT     0129 Rx 8  40 25 4F 20 01 20 FF 3F 
   1512       685.110 DT     02C1 Rx 8  03 00 40 66 00 00 35 00 
   1513       685.358 DT     03DA Rx 8  00 00 00 00 00 00 00 00 
   1514       685.604 DT     0677 Rx 8  02 FF FF FF FF 00 00 00 
   1515       685.928 DT     0261 Rx 8  31 48 40 00 11 4A 1A 6F 
   1516       686.379 DT     02A7 Rx 8  00 00 00 00 00 84 05 84 
   1517       686.639 DT     04E2 Rx 8  02 69 00 FF 0F 00 08 00 
   1518       686.789 DT     0113 Rx 3  01 97 01 
   1519       687.023 DT     0221 Rx 8  40 41 05 05 00 50 71 6F 
   1520       687.257 DT     0228 Rx 8  03 16 54 88 50 00 41 B0 
   1521       687.491 DT     0343 Rx 8  00 90 64 AE A1 51 00 00 
   1522       687.733 DT     03F5 Rx 8  00 C8 19 09 00 00 00 00 
   1523       687.965 DT     0381 Rx 8  22 59 F6 77 00 F0 3C 64 
   1524       688.115 DT     0726 Rx 3  08 00 00 
   1525       688.350 DT     07FF Rx 8  03 31 08 A1 E0 42 16 41 
   1526       688.594 DT     02A6 Rx 8  00 00 FF 1F 00 00 00 00 
   1527       688.828 DT     0318 Rx 8  16 03 2A 0F 11 14 0B 9D 
   1528       689.056 DT     0458 Rx 7  02 02 00 80 00 00 00 
   1529       690.372 DT     02C7 Rx 8  00 00 00 00 00 47 48 FF 
   1530       690.774 DT     0132 Rx 8  EE 89 F8 FF 28 40 FF 0F 
   1531       691.176 DT     037A Rx 8  02 00 00 00 00 00 00 00 
   1532       691.638 DT     013D Rx 6  02 20 AA 1A FF 02 
   1533       692.433 DT     03C3 Rx 8  00 00 00 00 00 45 00 00 
   1534       692.883 DT     07B8 Rx 8  E4 58 63 00 00 00 30 71 
   1535       693.121 DT     02E1 Rx 8  03 6C 00 02 2C 44 00 00 
   1536       693.425 DT     02D2 Rx 8  D9 29 8D 4E 00 00 A1 01 
   1537       693.659 DT     0262 Rx 8  0B 00 D2 0D 00 70 52 12 
   1538       693.893 DT     0282 Rx 8  4D 05 00 81 32 01 7A 02 
   1539       694.129 DT     077A Rx 8  01 00 3C 5D 60 5D 48 5D 
   1540       694.368 DT     0252 Rx 8  00 00 8C 06 00 00 A0 0F 
   1541       694.604 DT     0212 Rx 8  98 24 DE 0F 02 FF 1F 02 
   1542       694.830 DT     0292 Rx 8  4A 57 4D 75 D4 27 9E 01 
   1543       695.066 DT     0129 Rx 8  37 26 4F 20 00 20 FF 3F 
   1544       695.309 DT     0201 Rx 8  40 06 19 00 70 43 06 00 
   1545       695.439 DT     02F2 Rx 2  12 01 
   1546       695.679 DT     07AA Rx 8  04 00 10 C0 00 19 00 00 
   1547       695.923 DT     078A Rx 8  01 00 04 00 00 00 73 06 
   1548       696.105 DT     039D Rx 5  7E 61 55 28 00 
   1549       696.341 DT     02C4 Rx 8  6A 01 03 95 01 0E 00 00 
   1550       696.916 DT     02C1 Rx 8  04 CA 03 03 64 C1 39 53 
   1551       697.166 DT     0204 Rx 8  81 00 00 46 00 00 00 10 
   1552       697.374 DT     0264 Rx 6  3B 00 00 00 A0 00 
   1553       697.610 DT     0263 Rx 8  00 EE 0C F3 E4 3F A8 FA 
   1554       697.850 DT     0224 Rx 8  04 08 00 40 19 01 10 08 
   1555       697.982 DT     02D1 Rx 2  7F 01 
   1556       698.161 DT     02B4 Rx 5  68 AD 25 C3 00 
   1557       698.405 DT     0359 Rx 8  04 00 00 00 01 00 00 04 
   1558       698.651 DT     0553 Rx 8  00 00 00 00 00 00 40 98 
   1559       698.901 DT     06E8 Rx 8  01 00 00 00 00 00 00 00 
   1560       700.641 DT     0552 Rx 8  00 00 00 00 00 00 40 97 
   1561       700.876 DT     0132 Rx 8  F1 89 F7 FF 26 40 FF 0F 
   1562       701.120 DT     0677 Rx 8  FB FF FF FF FF FF FF 27 
   1563       701.622 DT     013D Rx 6  02 20 AA 1A FF 02 
   1564       701.898 DT     0545 Rx 8  80 01 31 B0 A1 0E 1A 75 
   1565       702.438 DT     0383 Rx 8  97 00 1E 80 00 00 A0 00 
   1566       702.924 DT     03A1 Rx 8  2B A0 22 01 00 00 90 14 
