;$FILEVERSION=2.0
;$STARTTIME=44637.6815334491
;$COLUMNS=N,O,T,I,d,l,D
;
;   C:\Users\bayerld\Documents\Tesla\20220317-vehiclecan-hupe-app.trc
;   Start time: 17.03.2022 16:21:24.490.0
;   Generated by PCAN-View v4.2.5.569
;-------------------------------------------------------------------------------
;   Connection                 Bit rate
;   PCANLight_USB_16@pcan_usb  500 kBit/s
;-------------------------------------------------------------------------------
;   Message   Time    Type ID     Rx/Tx
;   Number    Offset  |    [hex]  |  Data Length
;   |         [ms]    |    |      |  |  Data [hex] ...
;   |         |       |    |      |  |  |
;---+-- ------+------ +- --+----- +- +- +- +- -- -- -- -- -- -- --
      1         0.016 DT     0142 Rx 8  01 00 40 0A 00 00 00 00 
      2         0.252 DT     0473 Rx 8  30 00 00 00 82 A1 34 62 
      3         0.498 DT     03B3 Rx 8  88 80 05 00 00 00 60 00 
      4         0.668 DT     022A Rx 4  00 00 19 16 
      5         1.150 DT     02C1 Rx 8  01 00 00 14 28 70 64 00 
      6         1.385 DT     02E1 Rx 8  29 0A A3 6A 17 00 00 00 
      7         1.627 DT     02E8 Rx 8  C2 00 00 00 00 80 C0 EC 
      8         3.131 DT     0201 Rx 8  05 40 18 00 10 79 B5 C1 
      9         3.779 DT     0423 Rx 6  00 00 00 00 08 00 
     10         3.990 DT     0422 Rx 6  80 00 10 00 00 00 
     11         4.216 DT     0381 Rx 8  67 69 55 A4 48 93 22 05 
     12         5.148 DT     0421 Rx 7  00 0A 00 10 00 00 00 
     13         5.406 DT     042A Rx 8  01 90 00 48 00 24 00 02 
     14         6.147 DT     0545 Rx 8  01 00 00 00 00 10 D0 2B 
     15         6.541 DT     0132 Rx 8  E2 89 F7 FF 27 40 FF 0F 
     16         6.789 DT     0372 Rx 8  03 00 01 00 00 00 00 00 
     17         7.521 DT     0448 Rx 6  00 00 10 10 00 00 
     18         8.001 DT     013D Rx 6  02 20 AA 1A FF 02 
     19         8.813 DT     02C3 Rx 8  00 00 00 A6 01 00 80 69 
     20         9.150 DT     0677 Rx 8  01 FF FF FF FF FF FF 00 
     21         9.388 DT     0129 Rx 8  7D 2A 4F 20 00 20 FF 3F 
     22         9.698 DT     039D Rx 5  8B 6E 55 28 00 
     23         9.938 DT     03A2 Rx 8  C7 04 00 00 01 80 21 01 
     24        10.920 DT     02C2 Rx 8  55 5B A9 06 00 00 12 00 
     25        11.330 DT     0219 Rx 5  F2 1F FF FF 01 
     26        12.778 DT     0419 Rx 1  00 
     27        13.134 DT     02C1 Rx 8  02 74 C4 57 00 80 02 00 
     28        13.371 DT     0789 Rx 8  54 09 00 00 00 00 90 9C 
     29        13.619 DT     034A Rx 8  03 00 00 00 00 00 00 00 
     30        13.855 DT     0263 Rx 8  00 EE 0C F3 E4 3F A8 FA 
     31        14.099 DT     043B Rx 8  02 7F 00 FF 00 00 00 00 
     32        15.121 DT     0718 Rx 7  00 7F 7F 7F FF FF FF 
     33        16.119 DT     0441 Rx 8  7E C5 44 20 DB 0E 24 6E 
     34        16.533 DT     0132 Rx 8  E7 89 F8 FF 28 40 FF 0F 
     35        17.059 DT     0724 Rx 3  02 00 64 
     36        17.302 DT     0201 Rx 8  3E 73 33 03 00 00 00 00 
     37        17.546 DT     02E1 Rx 8  02 00 00 00 00 00 01 00 
     38        17.788 DT     02F9 Rx 8  D0 FB 07 18 00 00 00 00 
     39        18.014 DT     013D Rx 6  02 20 AA 1A FF 02 
     40        19.188 DT     0129 Rx 8  8C 2B 4F 20 00 20 FF 3F 
     41        19.438 DT     03C8 Rx 8  03 00 00 00 00 00 00 00 
     42        19.606 DT     0249 Rx 4  CE 0F 00 00 
     43        19.933 DT     02E2 Rx 8  05 00 00 C4 01 0B 00 00 
     44        20.175 DT     03C2 Rx 8  29 55 00 00 00 00 00 00 
     45        23.125 DT     0261 Rx 8  5E FE 04 BA 8F 5C E5 2B 
     46        23.435 DT     03F9 Rx 8  02 00 00 00 00 00 00 00 
     47        23.667 DT     023E Rx 8  28 C6 63 95 01 6E D6 6B 
     48        23.907 DT     039A Rx 8  FD FD FD FD FD 01 00 00 
     49        24.039 DT     0727 Rx 2  05 00 
     50        25.145 DT     02C1 Rx 8  03 00 40 66 00 00 35 00 
     51        25.392 DT     0677 Rx 8  02 FF FF FF FF 00 00 00 
     52        25.628 DT     0788 Rx 8  04 D5 A1 63 00 00 00 10 
     53        26.526 DT     0132 Rx 8  E7 89 F8 FF 27 40 FF 0F 
     54        26.822 DT     01FA Rx 3  22 C0 01 
     55        27.996 DT     013D Rx 6  02 20 AA 1A FF 02 
     56        28.202 DT     02A1 Rx 6  00 00 98 3A 00 00 
     57        28.718 DT     0225 Rx 3  05 45 52 
     58        28.947 DT     0243 Rx 8  01 FC 59 59 5E 5E 7A 7A 
     59        29.185 DT     0129 Rx 8  EC 2C 4F 20 00 20 FF 3F 
     60        29.531 DT     0339 Rx 8  00 B1 00 00 00 01 40 0F 
     61        29.827 DT     0420 Rx 6  28 01 40 4B 00 E0 
     62        30.079 DT     01FB Rx 8  00 FF FF FF FF FF FF FF 
     63        31.143 DT     0201 Rx 8  40 06 19 00 70 43 06 00 
     64        31.373 DT     0288 Rx 8  03 16 54 88 50 00 A1 70 
     65        33.138 DT     02E1 Rx 8  03 6C 00 02 2C 45 00 00 
     66        33.378 DT     0221 Rx 8  41 01 55 00 00 00 20 DA 
     67        33.800 DT     0283 Rx 6  00 00 00 00 00 00 
     68        33.928 DT     0242 Rx 2  10 95 
     69        35.390 DT     0719 Rx 8  01 00 00 00 00 00 00 00 
     70        36.524 DT     0132 Rx 8  E7 89 F8 FF 28 40 FF 0F 
     71        37.134 DT     02C1 Rx 8  04 CA 03 03 64 C1 39 53 
     72        37.376 DT     0798 Rx 8  9E 01 00 00 00 00 90 37 
     73        38.001 DT     013D Rx 6  02 20 AA 1A FF 02 
     74        38.823 DT     03C0 Rx 8  07 00 00 00 00 00 00 00 
     75        39.133 DT     0545 Rx 8  02 00 10 00 00 00 E0 3C 
     76        39.367 DT     0129 Rx 8  53 2D 4F 20 01 20 FF 3F 
     77        39.941 DT     0282 Rx 8  00 00 00 00 EC F3 F2 24 
     78        40.643 DT     0409 Rx 1  00 
     79        40.929 DT     0360 Rx 8  07 00 00 00 00 00 00 00 
     80        41.173 DT     0677 Rx 8  FB FF FF FF FF FF FF 27 
     81        41.385 DT     01F9 Rx 6  00 00 00 00 00 00 
     82        43.132 DT     0381 Rx 8  08 50 0A FD 0F 0C 00 00 
     83        43.382 DT     06C8 Rx 8  01 00 00 00 00 00 00 00 
     84        43.824 DT     0103 Rx 8  11 30 00 00 96 14 11 02 
     85        44.054 DT     0263 Rx 8  01 E9 12 F2 E4 3C A5 FA 
     86        45.138 DT     0201 Rx 8  01 64 64 EA 29 02 96 00 
     87        45.768 DT     0400 Rx 7  40 60 E0 BF EF FB 00 
     88        46.540 DT     0132 Rx 8  EE 89 F8 FF 27 40 FF 0F 
     89        47.389 DT     0439 Rx 8  00 00 20 00 00 00 43 02 
     90        47.925 DT     0102 Rx 8  22 33 00 00 E8 38 11 08 
     91        48.123 DT     013D Rx 6  02 20 AA 1A FF 02 
     92        48.833 DT     0123 Rx 8  00 00 48 12 D2 00 00 80 
     93        49.145 DT     02C1 Rx 8  A5 00 00 00 E0 00 00 00 
     94        49.383 DT     0129 Rx 8  21 2E 4F 20 00 20 FF 3F 
     95        49.623 DT     02A8 Rx 8  C2 00 00 00 00 80 D0 BC 
     96        49.857 DT     02E1 Rx 8  FC 19 10 FA 9D 0D 0A 00 
     97        50.102 DT     0142 Rx 8  28 02 02 00 00 00 00 00 
     98        50.286 DT     0333 Rx 5  84 0A 5A 07 02 
     99        50.538 DT     0340 Rx 8  08 00 00 00 00 00 00 00 
    100        50.776 DT     0334 Rx 8  3F 3F C8 00 E2 3F 00 9E 
    101        50.954 DT     039D Rx 5  8C 6F 55 28 00 
    102        51.184 DT     03A1 Rx 8  68 62 0D 98 00 30 42 77 
    103        51.318 DT     03A8 Rx 2  00 FF 
    104        53.302 DT     0119 Rx 2  00 00 
    105        53.540 DT     039A Rx 8  FC FD FD FD FD FD FD 01 
    106        53.773 DT     03A3 Rx 5  00 D0 00 00 08 
    107        54.875 DT     0122 Rx 6  00 00 12 12 12 00 
    108        55.273 DT     0428 Rx 6  00 00 10 10 00 00 
    109        56.145 DT     0261 Rx 8  03 00 00 00 00 40 F4 78 
    110        56.531 DT     0132 Rx 8  E8 89 F8 FF 25 40 FF 0F 
    111        56.769 DT     0372 Rx 8  04 00 4F 00 24 2F 56 00 
    112        57.149 DT     0677 Rx 8  04 0F 00 00 00 00 00 00 
    113        58.087 DT     013D Rx 6  02 20 AA 1A FF 02 
    114        58.813 DT     0393 Rx 8  06 00 FC D8 07 C0 1E 20 
    115        59.049 DT     0243 Rx 8  7A 7D A1 0F 00 00 00 00 
    116        59.285 DT     0129 Rx 8  7D 2F 4F 20 01 20 FF 3F 
    117        59.525 DT     0201 Rx 8  2A 0F 20 C0 09 60 15 01 
    118        59.921 DT     03A2 Rx 8  00 C0 72 0F 05 00 C6 6C 
    119        61.107 DT     0241 Rx 7  32 64 9C 0C 19 57 00 
    120        61.358 DT     02C1 Rx 8  06 00 00 00 40 00 00 00 
    121        61.540 DT     0748 Rx 5  2B 21 08 00 00 
    122        61.914 DT     0272 Rx 8  06 00 FC E0 07 C0 1E 20 
    123        63.656 DT     023E Rx 8  28 C6 63 95 01 6E E6 7B 
    124        63.894 DT     020C Rx 8  00 80 4A 1E 00 B0 07 00 
    125        65.158 DT     02E1 Rx 8  05 00 00 00 00 00 00 00 
    126        65.386 DT     0718 Rx 7  01 FF FF FF FF FF 00 
    127        65.626 DT     0797 Rx 8  14 09 00 00 00 00 90 99 
    128        65.919 DT     025B Rx 8  D3 C0 02 00 00 00 80 70 
    129        66.525 DT     0132 Rx 8  E2 89 F8 FF 28 40 FF 0F 
    130        68.023 DT     075D Rx 8  84 00 00 00 00 00 00 00 
    131        68.259 DT     021D Rx 8  2C 20 08 14 80 00 40 10 
    132        68.378 DT     041D Rx 1  00 
    133        68.576 DT     013D Rx 6  02 20 AA 1A FF 02 
    134        68.712 DT     03E3 Rx 2  00 00 
    135        68.884 DT     01F8 Rx 4  22 00 00 00 
    136        69.116 DT     025D Rx 8  DF 8C 01 C3 44 C1 0A E0 
    137        69.354 DT     0129 Rx 8  35 20 4F 20 00 20 FF 3F 
    138        69.589 DT     0379 Rx 8  02 00 48 80 9A 19 16 01 
    139        69.739 DT     0229 Rx 3  F6 0A 00 
    140        69.937 DT     043D Rx 6  02 20 AA 1A FF 02 
    141        70.103 DT     0249 Rx 4  9B 00 00 00 
    142        70.353 DT     027D Rx 8  00 00 00 00 00 00 00 00 
    143        70.524 DT     029D Rx 4  00 00 00 20 
    144        70.756 DT     03C2 Rx 8  00 55 55 55 00 00 55 45 
    145        71.006 DT     054F Rx 8  00 00 00 00 00 00 00 00 
    146        71.160 DT     077D Rx 3  12 00 00 
    147        71.330 DT     02BD Rx 4  00 00 00 00 
    148        71.487 DT     07DD Rx 3  FF 00 01 
    149        71.737 DT     03E8 Rx 8  03 00 00 00 00 00 00 00 
    150        72.131 DT     02F1 Rx 8  04 90 17 81 34 00 01 00 
    151        72.361 DT     0545 Rx 8  80 01 36 80 A1 0B FA 27 
    152        73.129 DT     02C1 Rx 8  07 00 14 0D 0E 1D 22 47 
    153        73.365 DT     0201 Rx 8  03 40 18 00 10 89 F5 C1 
    154        73.609 DT     0677 Rx 8  05 02 00 28 00 00 00 00 
    155        73.850 DT     0263 Rx 8  02 00 00 00 EB 0F 00 00 
    156        74.084 DT     02B3 Rx 8  07 DF DC EA E9 F3 F0 D3 
    157        74.332 DT     04E3 Rx 8  04 00 00 00 00 00 00 00 
    158        75.264 DT     0139 Rx 1  00 
    159        75.936 DT     03E2 Rx 8  40 15 80 0A 00 00 04 04 
    160        76.530 DT     0132 Rx 8  E6 89 F7 FF 25 40 FF 0F 
    161        77.260 DT     02A7 Rx 8  00 00 00 00 00 84 05 84 
    162        77.552 DT     07A8 Rx 8  08 D5 A1 63 00 00 40 10 
    163        78.003 DT     013D Rx 6  02 20 AA 1A FF 02 
    164        78.793 DT     02E3 Rx 7  F7 D3 4F 3F A9 F0 0A 
    165        79.185 DT     0129 Rx 8  22 21 4F 20 00 20 FF 3F 
    166        79.429 DT     02A6 Rx 8  00 00 FF 1F 00 00 00 00 
    167        79.925 DT     01FB Rx 8  01 FE FF B7 6D 0B 00 00 
    168        81.149 DT     02E1 Rx 8  10 21 04 00 00 00 26 08 
    169        81.389 DT     02C7 Rx 8  00 00 00 00 00 47 48 FF 
    170        81.638 DT     03DA Rx 8  00 00 00 00 00 00 00 00 
    171        82.162 DT     0381 Rx 8  69 00 00 00 00 00 00 0F 
    172        82.906 DT     04E2 Rx 8  04 00 12 00 0A 00 00 00 
    173        83.154 DT     03F5 Rx 8  00 C8 19 09 00 00 00 00 
    174        83.304 DT     0113 Rx 3  01 97 01 
    175        83.542 DT     0221 Rx 8  40 41 05 05 00 50 31 2F 
    176        83.774 DT     0228 Rx 8  03 16 54 88 50 00 A1 10 
    177        84.010 DT     0343 Rx 8  00 90 5C 7E A1 51 00 00 
    178        84.250 DT     039A Rx 8  FD FD FD FD FD 01 00 00 
    179        84.494 DT     07FF Rx 8  05 08 A0 40 00 00 00 00 
    180        84.729 DT     0318 Rx 8  16 03 18 0F 11 15 17 98 
    181        84.957 DT     0458 Rx 7  02 02 00 80 00 00 00 
    182        85.197 DT     02C1 Rx 8  80 0C 32 0B 8B 1F 00 00 
    183        86.457 DT     076A Rx 8  00 63 CB D8 02 00 00 00 
    184        86.691 DT     0132 Rx 8  DB 89 F7 FF 27 40 FF 0F 
    185        86.950 DT     02C4 Rx 8  8C 41 03 96 B0 0C 00 00 
    186        87.198 DT     0201 Rx 8  04 00 00 00 00 00 00 00 
    187        87.446 DT     0204 Rx 8  81 00 00 46 00 00 00 10 
    188        87.694 DT     037A Rx 8  01 00 00 00 00 00 00 00 
    189        87.902 DT     0264 Rx 6  3A 00 00 00 A0 00 
    190        88.101 DT     013D Rx 6  02 20 AA 1A FF 02 
    191        88.333 DT     02D2 Rx 8  D9 29 8D 4E 00 00 A1 01 
    192        88.571 DT     0252 Rx 8  00 00 8C 06 00 00 A0 0F 
    193        88.807 DT     0212 Rx 8  98 24 D6 0F 02 FF 1F 02 
    194        89.045 DT     0243 Rx 8  FC 7F FF 5F A2 02 41 29 
    195        89.278 DT     0129 Rx 8  C6 22 4F 20 01 20 FF 3F 
    196        89.510 DT     0261 Rx 8  00 10 27 00 D6 43 00 91 
    197        89.736 DT     0292 Rx 8  4A 57 4D 75 D4 27 9E 01 
    198        89.970 DT     0262 Rx 8  0B 00 D2 0D 00 70 52 12 
    199        90.204 DT     0282 Rx 8  4D 05 00 81 21 01 7A 02 
    200        90.334 DT     02F2 Rx 2  12 01 
    201        90.575 DT     0224 Rx 8  04 08 00 40 19 01 10 08 
    202        90.757 DT     02B4 Rx 5  68 AD 25 C1 00 
    203        90.941 DT     039D Rx 5  7D 60 55 28 00 
    204        91.187 DT     03C3 Rx 8  00 00 00 00 00 45 00 00 
    205        91.431 DT     0677 Rx 8  F8 FF FF FF FF FF FF 3F 
    206        91.675 DT     07B8 Rx 8  06 00 00 00 00 00 90 38 
    207        92.495 DT     078A Rx 8  01 00 03 00 00 00 60 5D 
    208        93.416 DT     0359 Rx 8  0A 00 00 00 2A 0C 1D 04 
    209        93.826 DT     0553 Rx 8  00 00 00 00 00 00 A0 F8 
    210        94.028 DT     02D1 Rx 2  7F 01 
    211        95.518 DT     06E8 Rx 8  01 00 00 00 00 00 00 00 
    212        96.530 DT     0132 Rx 8  E1 89 F7 FF 26 40 FF 0F 
    213        96.928 DT     0552 Rx 8  00 00 00 00 00 00 A0 F7 
    214        97.168 DT     02C1 Rx 8  01 00 00 14 28 70 64 00 
    215        97.403 DT     02E1 Rx 8  29 0A A3 6A 17 00 00 00 
    216        97.997 DT     013D Rx 6  02 20 AA 1A FF 02 
    217        98.817 DT     0383 Rx 8  97 00 1E 80 00 00 A0 00 
    218        99.157 DT     03A1 Rx 8  2B A0 22 01 00 00 50 D4 
    219        99.397 DT     0129 Rx 8  7C 23 4F 20 00 20 FF 3F 
    220        99.645 DT     038A Rx 8  01 00 00 00 00 00 00 00 
    221        99.774 DT     03BB Rx 2  2F 0F 
    222       100.018 DT     0142 Rx 8  01 00 40 0A 00 00 00 00 
    223       100.202 DT     02F3 Rx 5  0C 0C 0B 00 00 
    224       100.432 DT     033A Rx 8  DE 00 DE 00 CD 00 54 54 
    225       100.858 DT     022A Rx 4  00 00 19 16 
    226       101.156 DT     0201 Rx 8  05 40 18 00 10 79 B5 C1 
    227       101.562 DT     02E8 Rx 8  C2 00 00 00 00 80 D0 FC 
    228       103.622 DT     023E Rx 8  28 C6 63 95 01 6E F6 8B 
    229       103.866 DT     0263 Rx 8  03 10 20 03 00 00 00 00 
    230       104.077 DT     0422 Rx 6  80 00 10 00 00 00 
    231       104.285 DT     0423 Rx 6  00 00 00 00 08 00 
    232       105.153 DT     0421 Rx 7  00 0A 00 10 00 00 00 
    233       105.397 DT     0545 Rx 8  01 00 00 00 00 10 00 5B 
    234       105.639 DT     042A Rx 8  01 90 00 48 00 24 00 02 
    235       105.889 DT     0677 Rx 8  01 FF FF FF FF FF FF 00 
    236       106.551 DT     0132 Rx 8  E8 89 F7 FF 27 40 FF 0F 
    237       106.790 DT     0372 Rx 8  05 01 06 00 27 43 08 00 
    238       107.524 DT     0448 Rx 6  00 00 10 10 00 00 
    239       107.998 DT     013D Rx 6  02 20 AA 1A FF 02 
    240       108.812 DT     02C3 Rx 8  55 1B A8 36 00 00 12 00 
    241       109.132 DT     02C1 Rx 8  02 74 C4 57 00 80 02 00 
    242       109.368 DT     0129 Rx 8  FA 24 4F 20 00 20 FF 3F 
    243       109.924 DT     03A2 Rx 8  C9 04 00 00 01 80 21 01 
    244       110.925 DT     02C2 Rx 8  00 00 00 97 01 00 C0 65 
    245       111.333 DT     0219 Rx 5  F3 1F FF FF 02 
    246       112.778 DT     0419 Rx 1  00 
    247       113.148 DT     02E1 Rx 8  02 00 00 00 00 00 01 00 
    248       113.386 DT     0789 Rx 8  54 09 00 00 00 00 A0 AC 
    249       113.624 DT     039A Rx 8  FC FD FD FD FD FD FD 01 
    250       115.144 DT     0201 Rx 8  3E 73 33 03 00 00 00 00 
    251       115.374 DT     0718 Rx 7  02 FF FF FF FF FF FF 
    252       115.530 DT     0399 Rx 3  00 00 00 
    253       116.128 DT     0441 Rx 8  7E C5 44 20 DB 0E 28 72 
    254       116.536 DT     0132 Rx 8  F0 89 F8 FF 28 40 FF 0F 
    255       117.454 DT     02F9 Rx 8  D0 FB 07 20 00 00 00 00 
    256       118.019 DT     013D Rx 6  02 20 AA 1A FF 02 
    257       118.803 DT     0243 Rx 8  01 FC 59 59 5E 5E 7A 7A 
    258       119.185 DT     0129 Rx 8  ED 25 4F 20 00 20 FF 3F 
    259       119.435 DT     03C8 Rx 8  04 00 00 00 00 00 00 00 
    260       119.603 DT     0249 Rx 4  E8 01 00 00 
    261       119.872 DT     0330 Rx 8  0B 00 03 01 00 00 00 00 
    262       120.114 DT     03C2 Rx 8  29 55 00 00 00 00 00 00 
    263       121.162 DT     02C1 Rx 8  03 00 40 66 00 00 35 00 
    264       121.402 DT     0381 Rx 8  0A 00 00 A8 FA AA 00 00 
    265       121.648 DT     0677 Rx 8  02 FF FF FF FF 00 00 00 
    266       122.132 DT     0261 Rx 8  31 48 14 00 11 4A 1A 43 
    267       123.436 DT     03F9 Rx 8  03 00 00 00 00 00 00 00 
    268       125.315 DT     0788 Rx 8  01 00 00 00 FF A1 08 00 
    269       126.531 DT     0132 Rx 8  DF 89 F8 FF 27 40 FF 0F 
    270       126.825 DT     01FA Rx 3  22 C0 01 
    271       127.997 DT     013D Rx 6  02 20 AA 1A FF 02 
    272       128.203 DT     02A1 Rx 6  00 00 98 3A 00 00 
    273       128.719 DT     0225 Rx 3  05 45 52 
    274       129.159 DT     0201 Rx 8  40 06 19 00 70 43 06 00 
    275       129.395 DT     0129 Rx 8  37 26 4F 20 00 20 FF 3F 
    276       129.632 DT     02E1 Rx 8  03 6C 00 02 2C 45 00 00 
    277       129.878 DT     0339 Rx 8  00 B1 00 00 00 01 40 0F 
    278       130.130 DT     01FB Rx 8  00 FF FF FF FF FF FF FF 
    279       130.312 DT     039D Rx 5  7E 61 55 28 00 
    280       130.514 DT     0420 Rx 6  28 01 40 4B 00 F0 
    281       131.382 DT     0288 Rx 8  03 16 54 88 50 00 B1 80 
    282       133.132 DT     02C1 Rx 8  04 CA 03 03 64 C1 39 53 
    283       133.372 DT     0221 Rx 8  41 01 55 00 00 00 40 FA 
    284       133.795 DT     0283 Rx 6  00 00 00 00 00 00 
    285       133.923 DT     0242 Rx 2  10 95 
    286       134.159 DT     0263 Rx 8  00 EE 0C F3 E4 3F A8 FA 
    287       135.395 DT     0719 Rx 8  00 94 52 00 00 00 00 00 
    288       136.529 DT     0132 Rx 8  FA 89 F7 FF 27 40 FF 0F 
    289       137.145 DT     0677 Rx 8  FB FF FF FF FF FF FF 27 
    290       137.386 DT     0798 Rx 8  80 42 09 00 00 00 A0 73 
    291       138.002 DT     013D Rx 6  02 20 AA 1A FF 02 
    292       138.242 DT     0545 Rx 8  02 00 0F 00 00 00 10 6B 
    293       138.838 DT     03C0 Rx 8  08 00 00 00 00 00 00 00 
    294       139.180 DT     0129 Rx 8  49 27 4F 20 FF 1F FF 3F 
    295       139.938 DT     0282 Rx 8  00 00 00 00 EC F3 F2 24 
    296       140.659 DT     0409 Rx 1  00 
    297       140.937 DT     0360 Rx 8  08 00 00 00 00 00 00 00 
    298       141.363 DT     01F9 Rx 6  00 00 00 00 00 00 
    299       143.127 DT     0201 Rx 8  01 64 64 EA 29 02 96 00 
    300       143.371 DT     06C8 Rx 8  CC 01 00 2C 00 00 00 00 
    301       143.611 DT     039A Rx 8  FD FD FD FD FD 01 00 00 
    302       143.849 DT     0103 Rx 8  11 30 00 00 96 14 11 02 
    303       144.081 DT     023E Rx 8  28 C6 63 95 01 6E 06 9B 
    304       145.141 DT     02C1 Rx 8  A5 00 00 00 E0 00 00 00 
    305       145.372 DT     02E1 Rx 8  FC 19 11 FA 9D 11 0A 00 
    306       145.672 DT     0400 Rx 7  60 60 E0 BF EF FB 00 
    307       146.540 DT     0132 Rx 8  F4 89 F8 FF 28 40 FF 0F 
    308       147.392 DT     0439 Rx 8  00 00 20 00 00 00 43 02 
    309       147.932 DT     0102 Rx 8  22 33 00 00 E8 38 11 08 
    310       148.130 DT     013D Rx 6  02 20 AA 1A FF 02 
    311       148.836 DT     0123 Rx 8  00 00 48 12 D2 00 00 80 
    312       149.073 DT     0243 Rx 8  7A 7D A1 0F 00 00 00 00 
    313       149.309 DT     0129 Rx 8  F7 28 4F 20 00 20 FF 3F 
    314       149.551 DT     02A8 Rx 8  C2 00 00 00 00 80 E0 CC 
    315       149.787 DT     0273 Rx 8  81 A0 30 00 19 02 30 11 
    316       150.031 DT     0142 Rx 8  28 02 02 00 00 00 00 00 
    317       150.281 DT     0340 Rx 8  00 00 00 00 00 00 00 00 
    318       150.509 DT     03A1 Rx 8  68 62 0D 98 00 34 62 9B 
    319       153.148 DT     0677 Rx 8  04 0F 00 00 00 00 00 00 
    320       153.306 DT     0119 Rx 2  00 00 
    321       153.778 DT     03A3 Rx 5  00 D0 00 00 08 
    322       154.878 DT     0122 Rx 6  00 00 12 12 12 00 
    323       155.130 DT     0261 Rx 8  5E FE 04 BA 8F 5C 25 6B 
    324       155.340 DT     0428 Rx 6  00 00 10 10 00 00 
    325       156.532 DT     0132 Rx 8  EA 89 F8 FF 29 40 FF 0F 
    326       156.767 DT     0372 Rx 8  06 00 44 FF 15 35 46 FF 
    327       157.151 DT     02C1 Rx 8  06 00 00 00 40 00 00 00 
    328       157.391 DT     0201 Rx 8  2A 0F 20 C0 09 60 15 01 
    329       158.093 DT     013D Rx 6  02 20 AA 1A FF 02 
    330       158.811 DT     0393 Rx 8  09 80 63 00 00 00 00 00 
    331       159.179 DT     0129 Rx 8  CB 29 4F 20 FF 1F FF 3F 
    332       159.921 DT     03A2 Rx 8  00 C0 F2 0B 05 00 C6 6C 
    333       160.158 DT     0381 Rx 8  0B F0 FC EE EE EF EE 00 
    334       161.116 DT     0241 Rx 7  32 64 9C 0C 19 57 00 
    335       161.364 DT     02E1 Rx 8  05 00 00 00 00 00 00 00 
    336       161.922 DT     0272 Rx 8  09 80 63 00 00 00 00 00 
    337       163.821 DT     020C Rx 8  00 80 4A 1E 00 B0 07 00 
    338       164.051 DT     0263 Rx 8  01 E9 12 F2 E4 3C A5 FA 
    339       164.285 DT     02B3 Rx 8  08 1F 1C 0F 0D 07 08 21 
    340       165.137 DT     0718 Rx 7  03 FF FF FF FF FF FF 
    341       165.522 DT     0797 Rx 8  14 09 00 00 00 00 A0 A9 
    342       166.532 DT     0132 Rx 8  DE 89 F7 FF 27 40 FF 0F 
    343       166.858 DT     025B Rx 8  D3 C0 02 00 00 00 90 80 
    344       167.794 DT     041D Rx 1  00 
    345       168.118 DT     021D Rx 8  2C 20 08 14 80 00 40 10 
    346       168.317 DT     043D Rx 6  02 20 AA 1A FF 02 
    347       168.515 DT     013D Rx 6  02 20 AA 1A FF 02 
    348       168.709 DT     03E3 Rx 2  00 00 
    349       168.881 DT     01F8 Rx 4  22 00 00 00 
    350       169.113 DT     025D Rx 8  DF 8C 01 C3 44 C1 0A E0 
    351       169.351 DT     0129 Rx 8  7D 2A 4F 20 00 20 FF 3F 
    352       169.586 DT     02C1 Rx 8  07 00 14 0D 0E 1D 22 47 
    353       169.734 DT     0229 Rx 3  8C 0B 00 
    354       169.964 DT     0379 Rx 8  03 00 46 82 9A A9 31 01 
    355       170.130 DT     0249 Rx 4  2A 02 00 00 
    356       170.312 DT     039D Rx 5  7F 62 55 28 00 
    357       170.544 DT     03C2 Rx 8  00 55 55 55 00 00 55 45 
    358       170.795 DT     054F Rx 8  00 00 00 00 00 00 00 00 
    359       171.039 DT     0677 Rx 8  05 02 00 28 00 00 00 00 
    360       171.275 DT     0201 Rx 8  03 40 18 00 10 89 F5 C1 
    361       171.507 DT     0545 Rx 8  80 01 31 60 A1 05 2A 2C 
    362       171.757 DT     03E8 Rx 8  04 00 00 00 00 00 00 00 
    363       171.911 DT     077D Rx 3  12 00 00 
    364       172.162 DT     027D Rx 8  00 00 00 00 00 00 00 00 
    365       172.332 DT     029D Rx 4  00 00 00 20 
    366       172.570 DT     02F1 Rx 8  05 10 17 81 34 00 01 00 
    367       172.726 DT     07DD Rx 3  FF 00 01 
    368       172.896 DT     02BD Rx 4  00 00 00 00 
    369       173.452 DT     039A Rx 8  FC FD FD FD FD FD FD 01 
    370       173.815 DT     04E3 Rx 8  A5 05 6A 71 04 05 00 00 
    371       175.267 DT     0139 Rx 1  00 
    372       175.939 DT     03E2 Rx 8  40 15 80 0A 00 00 04 04 
    373       176.535 DT     0132 Rx 8  EB 89 F8 FF 28 40 FF 0F 
    374       177.167 DT     02E1 Rx 8  10 21 04 00 00 00 26 08 
    375       177.409 DT     02A7 Rx 8  00 00 00 00 00 84 05 84 
    376       177.651 DT     07A8 Rx 8  01 00 00 00 FF A1 08 00 
    377       178.009 DT     013D Rx 6  02 20 AA 1A FF 02 
    378       178.800 DT     02E3 Rx 7  18 C8 20 00 00 00 00 
    379       179.038 DT     0243 Rx 8  FC 7F FF 5F A2 02 41 29 
    380       179.276 DT     0129 Rx 8  8C 2B 4F 20 00 20 FF 3F 
    381       179.520 DT     02A6 Rx 8  00 00 FF 1F 00 00 00 00 
    382       179.930 DT     01FB Rx 8  01 FE FF B7 6D 0B 00 00 
    383       181.142 DT     02C1 Rx 8  80 0C 32 0B 8B 1F 00 00 
    384       181.382 DT     02C7 Rx 8  00 00 00 00 00 47 48 FF 
    385       181.630 DT     03DA Rx 8  00 00 00 00 00 00 00 00 
    386       182.904 DT     04E2 Rx 8  65 02 86 41 00 20 00 00 
    387       183.152 DT     03F5 Rx 8  00 C8 19 09 00 00 00 00 
    388       183.386 DT     0221 Rx 8  40 41 05 05 00 50 51 4F 
    389       183.625 DT     0228 Rx 8  03 16 54 88 50 00 B1 20 
    390       183.855 DT     023E Rx 8  28 C6 63 95 01 6E 16 AB 
    391       184.089 DT     0343 Rx 8  00 90 5C AE A1 36 00 00 
    392       184.251 DT     0528 Rx 4  62 33 51 F5 
    393       184.369 DT     03ED Rx 1  00 
    394       184.619 DT     055A Rx 8  01 00 00 00 00 00 00 00 
    395       184.861 DT     0405 Rx 8  10 00 00 00 00 4C 52 57 
    396       185.013 DT     0113 Rx 3  01 97 01 
    397       185.261 DT     0201 Rx 8  04 00 00 00 00 00 00 00 
    398       185.506 DT     0677 Rx 8  F8 FF FF FF FF FF FF 3F 
    399       185.740 DT     07FF Rx 8  01 91 45 44 42 4C 7A 00 
    400       185.972 DT     0318 Rx 8  16 03 19 0F 11 15 19 9B 
    401       186.200 DT     0458 Rx 7  02 02 00 80 00 00 00 
    402       186.354 DT     0666 Rx 3  00 00 A0 
    403       186.596 DT     02C4 Rx 8  4D C0 80 01 00 00 00 00 
    404       186.833 DT     0132 Rx 8  E8 89 F7 FF 26 40 FF 0F 
    405       187.083 DT     0320 Rx 8  01 00 00 08 00 00 00 00 
    406       187.315 DT     0772 Rx 8  01 2A 46 0A 6E 0A EC 09 
    407       187.563 DT     0204 Rx 8  81 00 00 46 00 00 00 10 
    408       187.809 DT     037A Rx 8  02 00 00 00 00 00 00 00 
    409       188.018 DT     0264 Rx 6  3A 00 00 00 A0 00 
    410       188.216 DT     013D Rx 6  02 20 AA 1A FF 02 
    411       188.454 DT     0261 Rx 8  03 00 00 00 00 40 34 B8 
    412       188.686 DT     02D2 Rx 8  D9 29 8D 4E 00 00 A1 01 
    413       188.924 DT     0252 Rx 8  00 00 8C 06 00 00 A0 0F 
    414       189.161 DT     0212 Rx 8  98 24 D6 0F 02 FF 1F 02 
    415       189.395 DT     0129 Rx 8  EC 2C 4F 20 00 20 FF 3F 
    416       189.621 DT     0292 Rx 8  4A 57 4D 75 D4 27 9E 01 
    417       189.751 DT     02F2 Rx 2  12 01 
    418       189.985 DT     0262 Rx 8  0B 00 D2 0D 00 70 52 12 
    419       190.226 DT     0282 Rx 8  4D 05 00 01 08 01 7A 02 
    420       190.462 DT     03C3 Rx 8  55 55 55 01 00 00 00 00 
    421       190.698 DT     0401 Rx 8  02 2A 1C 82 1D 82 22 82 
    422       190.938 DT     0224 Rx 8  04 08 00 40 19 01 10 08 
    423       191.118 DT     02B4 Rx 5  68 AD 25 BC 00 
    424       191.358 DT     07B8 Rx 8  60 02 09 00 00 00 A0 AD 
    425       191.591 DT     07F1 Rx 7  02 00 00 00 00 00 00 
    426       192.093 DT     07AA Rx 8  F6 03 E0 86 80 DA AF 02 
    427       192.575 DT     078A Rx 8  01 00 04 00 00 00 75 06 
    428       193.139 DT     02C1 Rx 8  01 00 00 14 28 70 64 00 
    429       193.373 DT     02E1 Rx 8  29 0A A3 6A 17 00 00 00 
    430       193.619 DT     0359 Rx 8  0B 00 00 00 7F 00 00 00 
    431       193.859 DT     0263 Rx 8  02 00 00 00 EB 0F 00 00 
    432       194.104 DT     0553 Rx 8  00 00 00 00 00 00 B0 08 
    433       194.236 DT     02D1 Rx 2  7F 01 
    434       195.520 DT     06E8 Rx 8  CC 01 00 2C 00 00 00 00 
    435       196.530 DT     0132 Rx 8  EC 89 F8 FF 26 40 FF 0F 
    436       196.928 DT     0552 Rx 8  00 00 00 00 00 00 B0 07 
    437       198.162 DT     013D Rx 6  02 20 AA 1A FF 02 
    438       198.820 DT     0383 Rx 8  97 00 1E 80 00 00 A0 00 
    439       199.162 DT     0201 Rx 8  05 40 18 00 10 79 B5 C1 
    440       199.399 DT     0129 Rx 8  FE 2D 4F 20 00 20 FF 3F 
    441       199.647 DT     0381 Rx 8  0C 00 00 82 00 00 00 5D 
    442       199.893 DT     038A Rx 8  03 00 00 00 00 00 00 00 
    443       200.137 DT     0142 Rx 8  01 00 40 0A 00 00 00 00 
    444       200.371 DT     03A1 Rx 8  2B A0 22 01 00 00 70 F4 
    445       200.541 DT     022A Rx 4  00 00 19 16 
    446       200.713 DT     0453 Rx 4  00 00 00 00 
    447       200.908 DT     0284 Rx 5  10 00 00 00 00 
    448       201.158 DT     0677 Rx 8  01 FF FF FF FF FF FF 00 
    449       201.598 DT     02E8 Rx 8  C2 00 00 00 00 80 E0 0C 
    450       203.458 DT     039A Rx 8  FD FD FD FD FD 01 00 00 
    451       203.786 DT     0423 Rx 6  00 00 00 00 08 00 
    452       203.996 DT     0422 Rx 6  80 00 10 00 00 00 
    453       204.241 DT     0545 Rx 8  01 00 00 00 00 10 30 8B 
    454       205.155 DT     0421 Rx 7  00 0A 00 10 00 00 00 
    455       205.391 DT     02C1 Rx 8  02 74 C4 57 00 80 02 00 
    456       205.633 DT     042A Rx 8  01 90 00 48 00 24 00 02 
    457       206.535 DT     0132 Rx 8  E6 89 F8 FF 26 40 FF 0F 
    458       206.769 DT     0372 Rx 8  07 00 1C 00 0B 43 23 00 
    459       207.529 DT     0448 Rx 6  00 00 10 10 00 00 
    460       208.000 DT     013D Rx 6  02 20 AA 1A FF 02 
    461       208.820 DT     02C3 Rx 8  00 00 00 A6 01 00 80 69 
    462       209.048 DT     0243 Rx 8  01 FC 59 59 5E 5E 7A 7A 
    463       209.282 DT     0129 Rx 8  8C 2E 4F 20 01 20 FF 3F 
    464       209.526 DT     02E1 Rx 8  02 00 00 00 00 00 01 00 
    465       209.938 DT     03A2 Rx 8  C9 04 00 00 01 80 21 01 
    466       210.120 DT     039D Rx 5  80 63 55 28 00 
    467       210.927 DT     02C2 Rx 8  55 5B A9 06 00 00 12 00 
    468       211.347 DT     0219 Rx 5  04 74 74 00 00 
    469       212.779 DT     0419 Rx 1  00 
    470       213.145 DT     0201 Rx 8  3E 73 33 03 00 00 00 00 
    471       213.381 DT     0789 Rx 8  54 09 00 00 00 00 B0 BC 
    472       215.133 DT     0718 Rx 7  04 FF FF 00 00 00 00 
    473       215.791 DT     0744 Rx 1  00 
    474       216.126 DT     0441 Rx 8  7E C5 44 20 DB 0E 2C 76 
    475       216.537 DT     0132 Rx 8  E6 89 F7 FF 25 40 FF 0F 
    476       217.171 DT     0321 Rx 8  F8 D9 A7 7B 02 7A 60 F3 
    477       217.411 DT     02C1 Rx 8  03 00 40 66 00 00 35 00 
    478       217.653 DT     02F9 Rx 8  D0 FB 07 28 00 00 00 00 
    479       217.899 DT     0677 Rx 8  02 FF FF FF FF 00 00 00 
    480       218.097 DT     013D Rx 6  02 20 AA 1A FF 02 
    481       219.185 DT     0129 Rx 8  D0 2F 4F 20 00 20 FF 3F 
    482       219.437 DT     03C8 Rx 8  05 00 00 00 00 00 00 00 
    483       219.604 DT     0249 Rx 4  D3 03 00 00 
    484       219.938 DT     02E2 Rx 8  B6 15 00 70 0D 00 00 00 
    485       220.180 DT     03C2 Rx 8  29 55 00 00 00 00 00 00 
    486       221.158 DT     0261 Rx 8  00 10 27 00 D6 43 40 D1 
    487       223.440 DT     03F9 Rx 8  04 00 00 00 00 00 00 00 
    488       223.670 DT     023E Rx 8  28 C6 63 95 01 6E 26 BB 
    489       223.784 DT     0743 Rx 1  00 
    490       224.028 DT     0263 Rx 8  03 10 20 03 00 00 00 00 
    491       225.161 DT     02E1 Rx 8  03 6C 00 02 2C 45 00 00 
    492       225.409 DT     0788 Rx 8  FE 1E 00 00 00 00 00 00 
    493       226.531 DT     0132 Rx 8  EB 89 F8 FF 2B 40 FF 0F 
    494       226.829 DT     01FA Rx 3  22 C0 01 
    495       227.133 DT     0201 Rx 8  68 A6 19 00 70 43 06 00 
    496       228.001 DT     013D Rx 6  02 20 AA 1A FF 02 
    497       228.207 DT     02A1 Rx 6  00 00 98 3A 00 00 
    498       228.724 DT     0225 Rx 3  05 45 52 
    499       229.156 DT     02C1 Rx 8  04 CA 03 03 64 C1 39 53 
    500       229.394 DT     0129 Rx 8  35 20 4F 20 00 20 FF 3F 
    501       229.640 DT     0339 Rx 8  00 B1 00 00 00 01 40 0F 
    502       229.954 DT     01FB Rx 8  00 FF FF FF FF FF FF FF 
    503       230.158 DT     0420 Rx 6  28 01 40 4B 00 00 
    504       231.376 DT     0288 Rx 8  03 16 54 88 50 00 C1 90 
    505       233.143 DT     0677 Rx 8  FB FF FF FF FF FF FF 27 
    506       233.383 DT     0221 Rx 8  41 01 55 00 00 00 60 1A 
    507       233.621 DT     039A Rx 8  FC FD FD FD FD FD FD 01 
    508       233.833 DT     0283 Rx 6  00 00 00 00 00 00 
    509       233.961 DT     0242 Rx 2  10 95 
    510       235.397 DT     0719 Rx 8  01 00 00 00 00 00 00 00 
    511       236.531 DT     0132 Rx 8  E7 89 F7 FF 26 40 FF 0F 
    512       237.142 DT     0545 Rx 8  02 00 10 00 00 00 40 9C 
    513       237.376 DT     0798 Rx 8  19 D8 02 4E 38 01 B0 32 
    514       238.010 DT     013D Rx 6  02 20 AA 1A FF 02 
    515       238.250 DT     0381 Rx 8  0D 00 B8 B8 00 00 6C 80 
    516       238.832 DT     03C0 Rx 8  00 00 00 00 00 00 00 00 
    517       239.068 DT     0243 Rx 8  7A 7D A1 0F 00 00 00 00 
    518       239.305 DT     0129 Rx 8  22 21 4F 20 00 20 FF 3F 
    519       239.941 DT     0282 Rx 8  00 00 00 00 EC F3 F2 24 
    520       240.643 DT     0409 Rx 1  00 
    521       240.941 DT     0360 Rx 8  00 00 00 00 00 00 00 00 
    522       241.173 DT     0201 Rx 8  01 64 64 EA 29 02 96 00 
    523       241.385 DT     01F9 Rx 6  00 00 00 00 00 00 
    524       241.627 DT     02C1 Rx 8  A5 00 00 00 E0 00 00 00 
    525       241.863 DT     02E1 Rx 8  FC 19 11 FA 9D 12 0A 00 
    526       243.319 DT     06C8 Rx 8  01 00 00 00 00 00 00 00 
    527       243.832 DT     0103 Rx 8  11 30 00 00 96 14 11 02 
    528       245.810 DT     0400 Rx 7  40 60 E0 BF EF FB 00 
    529       246.544 DT     0132 Rx 8  E7 89 F8 FF 28 40 FF 0F 
    530       247.396 DT     0439 Rx 8  00 00 20 00 00 00 43 02 
    531       247.934 DT     0102 Rx 8  22 33 00 00 E8 38 11 08 
    532       248.132 DT     013D Rx 6  02 20 AA 1A FF 02 
    533       248.840 DT     0123 Rx 8  00 00 48 12 D2 00 00 80 
    534       249.159 DT     0677 Rx 8  04 0F 00 00 00 00 00 00 
    535       249.393 DT     0129 Rx 8  02 22 4F 20 FF 1F FF 3F 
    536       249.633 DT     02A8 Rx 8  C2 00 00 00 00 80 F0 DC 
    537       249.871 DT     0285 Rx 8  61 02 86 01 01 00 20 00 
    538       250.115 DT     0142 Rx 8  28 02 02 00 00 00 00 00 
    539       250.365 DT     0340 Rx 8  01 00 00 00 00 00 00 00 
    540       250.548 DT     039D Rx 5  81 64 55 28 00 
    541       250.778 DT     03A1 Rx 8  68 62 0D 98 00 30 82 B7 
    542       250.910 DT     03D8 Rx 2  72 01 
    543       251.148 DT     0353 Rx 8  7B 0F 39 80 02 0E F8 FB 
    544       253.148 DT     02C1 Rx 8  06 00 00 00 40 00 00 00 
    545       253.310 DT     0119 Rx 2  00 00 
    546       253.780 DT     03A3 Rx 5  00 D0 00 00 08 
    547       254.017 DT     0263 Rx 8  00 EE 0C F3 E4 3F A8 FA 
    548       254.247 DT     0261 Rx 8  31 48 23 00 11 4A 5A 92 
    549       254.479 DT     02B3 Rx 8  A9 4F 1F 00 00 64 7B 66 
    550       254.905 DT     0122 Rx 6  00 00 12 12 12 00 
    551       255.153 DT     0201 Rx 8  2A 0F 20 C0 09 60 15 01 
    552       255.363 DT     0428 Rx 6  00 00 10 10 00 00 
    553       256.537 DT     0132 Rx 8  E3 89 F8 FF 28 40 FF 0F 
    554       256.784 DT     0372 Rx 8  08 00 00 00 00 00 00 00 
    555       257.152 DT     02E1 Rx 8  05 00 00 00 00 00 00 00 
    556       257.408 DT     0319 Rx 8  0D 00 00 00 D4 52 81 40 
    557       258.098 DT     013D Rx 6  02 20 AA 1A FF 02 
    558       258.820 DT     0393 Rx 8  06 00 FB D8 07 C0 1E 20 
    559       259.178 DT     0129 Rx 8  D1 23 4F 20 01 20 FF 3F 
    560       259.924 DT     03A2 Rx 8  00 E0 72 0D 05 00 C6 6C 
    561       261.110 DT     0241 Rx 7  34 64 1C 0D 19 57 00 
    562       261.892 DT     0272 Rx 8  06 00 FC E0 07 C0 1E 20 
    563       263.408 DT     043B Rx 8  03 7F 00 FF 00 00 00 00 
    564       263.640 DT     023E Rx 8  28 C6 63 95 01 6E 36 CB 
    565       263.878 DT     020C Rx 8  00 80 4A 1E 00 B0 07 00 
    566       264.118 DT     039A Rx 8  FD FD FD FD FD 01 00 00 
    567       264.360 DT     03DB Rx 8  05 0E 00 0E 00 00 00 00 
    568       265.132 DT     02C1 Rx 8  07 00 14 0D 0E 1D 22 47 
    569       265.376 DT     0677 Rx 8  05 02 00 28 00 00 00 00 
    570       265.605 DT     0718 Rx 7  00 7F 7F 7F FF FF FF 
    571       265.843 DT     025B Rx 8  D3 C0 02 00 00 00 A0 90 
    572       266.081 DT     0797 Rx 8  14 09 00 00 00 00 B0 B9 
    573       266.503 DT     0132 Rx 8  E7 89 F8 FF 28 40 FF 0F 
    574       267.983 DT     075D Rx 8  D5 F3 10 BE 00 00 00 00 
    575       268.219 DT     021D Rx 8  2C 20 08 14 80 00 40 10 
    576       268.338 DT     041D Rx 1  00 
    577       268.536 DT     013D Rx 6  02 20 AA 1A FF 02 
    578       268.682 DT     03E3 Rx 2  00 00 
    579       268.854 DT     01F8 Rx 4  22 00 00 00 
    580       269.092 DT     0243 Rx 8  FC 7F FF 5F A2 02 41 29 
    581       269.324 DT     0129 Rx 8  57 24 4F 20 01 20 FF 3F 
    582       269.561 DT     0201 Rx 8  03 40 18 00 10 89 F5 C1 
    583       269.709 DT     0229 Rx 3  49 0C 00 
    584       269.941 DT     025D Rx 8  DF 8C 01 C3 44 C1 0A E0 
    585       270.107 DT     0249 Rx 4  D3 04 00 00 
    586       270.353 DT     0379 Rx 8  04 00 71 1E 00 00 00 00 
    587       270.585 DT     03C2 Rx 8  00 55 55 55 00 00 55 45 
    588       270.784 DT     043D Rx 6  02 20 AA 1A FF 02 
    589       271.034 DT     027D Rx 8  00 00 00 00 00 00 00 00 
    590       271.204 DT     029D Rx 4  00 00 00 20 
    591       271.432 DT     0545 Rx 8  40 01 31 80 A1 0B 5A 42 
    592       271.682 DT     03E8 Rx 8  05 00 00 00 00 00 00 00 
    593       271.933 DT     054F Rx 8  00 00 00 00 00 00 00 00 
    594       272.169 DT     02F1 Rx 8  06 90 19 01 08 00 01 00 
    595       272.323 DT     077D Rx 3  12 00 00 
    596       272.493 DT     02BD Rx 4  00 00 00 00 
    597       272.649 DT     07DD Rx 3  FF 00 01 
    598       273.122 DT     02E1 Rx 8  10 21 04 00 00 00 26 08 
    599       273.810 DT     04E3 Rx 8  00 8E 03 00 00 00 08 00 
    600       275.240 DT     0139 Rx 1  00 
    601       275.912 DT     03E2 Rx 8  40 15 80 0A 00 00 04 04 
    602       276.506 DT     0132 Rx 8  E6 89 F8 FF 26 40 FF 0F 
    603       277.136 DT     02C1 Rx 8  80 0C 32 0B 8B 1F 00 00 
    604       277.378 DT     02A7 Rx 8  00 00 00 00 00 84 05 84 
    605       277.618 DT     0381 Rx 8  0E 00 C8 C8 00 00 3C 12 
    606       277.865 DT     07A8 Rx 8  36 1F 00 70 00 00 00 00 
    607       278.063 DT     013D Rx 6  02 20 AA 1A FF 02 
    608       278.771 DT     02E3 Rx 7  20 00 00 CC 01 0B 00 
    609       279.153 DT     0129 Rx 8  ED 25 4F 20 00 20 FF 3F 
    610       279.397 DT     02A6 Rx 8  00 00 FF 1F 00 00 00 00 
    611       279.903 DT     01FB Rx 8  01 FE FF B7 6D 0B 00 00 
    612       281.115 DT     0677 Rx 8  F8 FF FF FF FF FF FF 3F 
    613       281.355 DT     02C7 Rx 8  00 00 00 00 00 47 48 FF 
    614       281.604 DT     03DA Rx 8  00 00 00 00 00 00 00 00 
    615       282.886 DT     04E2 Rx 8  00 80 01 00 00 00 08 00 
    616       283.128 DT     03F5 Rx 8  00 C8 19 09 00 00 00 00 
    617       283.278 DT     0113 Rx 3  01 97 01 
    618       283.526 DT     0201 Rx 8  04 00 00 00 00 00 00 00 
    619       283.760 DT     0221 Rx 8  40 41 05 05 00 50 71 6F 
    620       283.994 DT     0228 Rx 8  03 16 54 88 50 00 C1 30 
    621       284.224 DT     0263 Rx 8  01 E9 12 F2 E4 3C A5 FA 
    622       284.463 DT     0343 Rx 8  00 90 60 7E A1 51 00 00 
    623       284.695 DT     07FF Rx 8  02 5F 4E AC DE CD D6 30 
    624       284.925 DT     0318 Rx 8  16 03 19 0F 11 15 1B 9D 
    625       285.153 DT     0458 Rx 7  02 02 00 80 00 00 00 
    626       286.435 DT     078A Rx 8  01 00 05 00 00 00 74 06 
    627       286.671 DT     0132 Rx 8  EA 89 F7 FF 25 40 FF 0F 
    628       286.904 DT     02C4 Rx 8  12 B5 00 CE CD 11 15 00 
    629       287.130 DT     0261 Rx 8  5E FE 04 BA 8F 5C 65 AB 
    630       287.378 DT     0204 Rx 8  81 00 00 46 00 00 00 10 
    631       287.626 DT     037A Rx 8  00 00 00 00 00 00 00 00 
    632       287.862 DT     0264 Rx 6  3B 00 00 00 A0 00 
    633       288.126 DT     02D2 Rx 8  D9 29 8D 4E 00 00 A1 01 
    634       288.365 DT     0252 Rx 8  00 00 8C 06 00 00 A0 0F 
    635       288.601 DT     0212 Rx 8  98 24 D6 0F 02 FF 1F 02 
    636       288.827 DT     0292 Rx 8  4A 57 4D 75 D4 27 9E 01 
    637       288.957 DT     02F2 Rx 2  12 01 
    638       289.194 DT     0129 Rx 8  37 26 4F 20 00 20 FF 3F 
    639       289.392 DT     013D Rx 6  02 20 AA 1A FF 02 
    640       289.632 DT     0224 Rx 8  04 08 00 40 19 01 10 08 
    641       289.872 DT     02C1 Rx 8  01 00 00 14 28 70 64 00 
    642       290.106 DT     0262 Rx 8  0B 00 D2 0D 00 70 52 12 
    643       290.346 DT     0282 Rx 8  4D 05 00 81 03 01 7A 02 
    644       290.581 DT     02E1 Rx 8  29 0A A3 6A 17 00 00 00 
    645       290.761 DT     039D Rx 5  82 65 55 28 00 
    646       291.009 DT     03AA Rx 8  00 00 00 00 00 00 00 00 
    647       291.191 DT     02B4 Rx 5  68 AD 25 B9 00 
    648       291.443 DT     0310 Rx 8  11 00 00 00 00 00 00 00 
    649       291.689 DT     03C3 Rx 8  00 00 00 00 00 45 00 00 
    650       291.924 DT     03C4 Rx 8  1E 39 50 50 41 31 34 30 
    651       292.160 DT     07B8 Rx 8  D9 D7 02 01 04 00 B0 09 
    652       293.394 DT     0359 Rx 8  0C 00 00 00 03 00 00 18 
    653       293.632 DT     039A Rx 8  FC FD FD FD FD FD FD 01 
    654       293.880 DT     0553 Rx 8  00 00 00 00 00 00 C0 18 
    655       294.012 DT     02D1 Rx 2  7F 01 
    656       294.250 DT     07AA Rx 8  07 F9 FF F9 FF F4 FF 00 
    657       295.497 DT     06E8 Rx 8  01 00 00 00 00 00 00 00 
    658       296.505 DT     0132 Rx 8  E5 89 F8 FF 26 40 FF 0F 
    659       296.901 DT     0552 Rx 8  00 00 00 00 00 00 C0 17 
    660       297.141 DT     0201 Rx 8  05 40 18 00 10 79 B5 C1 
    661       297.391 DT     0677 Rx 8  01 FF FF FF FF FF FF 00 
    662       297.973 DT     013D Rx 6  02 20 AA 1A FF 02 
    663       298.793 DT     0383 Rx 8  97 00 1E 80 00 00 A0 00 
    664       299.022 DT     0243 Rx 8  01 FC 59 59 5E 5E 7A 7A 
    665       299.254 DT     0129 Rx 8  8D 27 4F 20 01 20 FF 3F 
    666       299.502 DT     038A Rx 8  00 00 00 00 00 00 00 00 
    667       299.736 DT     0313 Rx 8  02 64 64 01 00 00 90 71 
    668       299.980 DT     0142 Rx 8  01 00 40 0A 00 00 00 00 
    669       300.208 DT     02D3 Rx 8  F6 00 A3 02 12 F0 0B 54 
    670       300.444 DT     03A1 Rx 8  2B A0 22 01 00 00 90 14 
    671       300.615 DT     022A Rx 4  00 00 19 16 
    672       301.109 DT     02C1 Rx 8  02 74 C4 57 00 80 02 00 
    673       301.349 DT     0285 Rx 8  02 D3 00 00 00 00 0E 00 
    674       301.589 DT     02E8 Rx 8  C2 00 00 00 00 80 F0 1C 
    675       303.121 DT     0545 Rx 8  01 00 00 00 00 10 60 BB 
    676       303.773 DT     0423 Rx 6  00 00 00 00 08 00 
    677       304.003 DT     023E Rx 8  28 C6 63 95 01 6E 46 DB 
    678       304.213 DT     0422 Rx 6  80 00 10 00 00 00 
    679       305.125 DT     0421 Rx 7  00 0A 00 10 00 00 00 
    680       305.370 DT     02E1 Rx 8  02 00 00 00 00 00 01 00 
    681       305.612 DT     042A Rx 8  01 90 00 48 00 24 00 02 
    682       306.508 DT     0132 Rx 8  E7 89 F8 FF 25 40 FF 0F 
    683       306.754 DT     0372 Rx 8  09 00 00 00 00 00 00 00 
    684       307.502 DT     0448 Rx 6  00 00 10 10 00 00 
    685       307.972 DT     013D Rx 6  02 20 AA 1A FF 02 
    686       308.791 DT     02C3 Rx 8  55 1B A8 36 00 00 12 00 
    687       309.149 DT     0129 Rx 8  9E 28 4F 20 FF 1F FF 3F 
    688       309.903 DT     03A2 Rx 8  C7 04 00 00 01 80 21 01 
    689       310.901 DT     02C2 Rx 8  00 00 00 97 01 00 C0 65 
    690       311.143 DT     0201 Rx 8  3E 73 33 03 00 00 00 00 
    691       311.333 DT     0219 Rx 5  F0 1F FF FF 00 
    692       311.575 DT     07E8 Rx 8  0D 8B 8C 83 DC 00 00 00 
    693       312.817 DT     0419 Rx 1  00 
    694       313.134 DT     02C1 Rx 8  03 00 40 66 00 00 35 00 
    695       313.380 DT     0677 Rx 8  02 FF FF FF FF 00 00 00 
    696       313.618 DT     0789 Rx 8  54 09 00 00 00 00 C0 CC 
    697       313.858 DT     0263 Rx 8  02 00 00 00 EB 0F 00 00 
    698       315.109 DT     0718 Rx 7  01 FF FF FF FF FF 00 
    699       316.117 DT     0441 Rx 8  7E C5 44 20 DB 0E 30 7A 
    700       316.351 DT     0381 Rx 8  0F 00 00 32 64 36 01 0C 
    701       316.584 DT     0132 Rx 8  EB 89 F8 FF 29 40 FF 0F 
    702       317.430 DT     02F9 Rx 8  D0 FB 07 00 00 00 00 00 
    703       317.988 DT     013D Rx 6  02 20 AA 1A FF 02 
    704       319.148 DT     0129 Rx 8  CB 29 4F 20 FF 1F FF 3F 
    705       319.400 DT     03C8 Rx 8  00 00 00 00 00 00 00 00 
    706       319.568 DT     0249 Rx 4  83 05 00 00 
    707       319.915 DT     03C2 Rx 8  29 55 00 00 00 00 00 00 
    708       320.163 DT     0261 Rx 8  03 00 00 00 00 40 74 F8 
    709       321.135 DT     02E1 Rx 8  03 6C 00 02 2C 45 00 00 
    710       323.413 DT     03F9 Rx 8  05 00 00 00 00 00 00 00 
    711       323.653 DT     039A Rx 8  FD FD FD FD FD 01 00 00 
    712       325.123 DT     02C1 Rx 8  04 CA 03 03 64 C1 39 53 
    713       325.365 DT     0201 Rx 8  40 06 19 00 70 43 06 00 
    714       325.601 DT     0788 Rx 8  08 D5 A1 63 00 00 00 10 
    715       326.504 DT     0132 Rx 8  F4 89 F8 FF 26 40 FF 0F 
    716       326.802 DT     01FA Rx 3  22 C0 01 
    717       327.972 DT     013D Rx 6  02 20 AA 1A FF 02 
    718       328.178 DT     02A1 Rx 6  00 00 98 3A 00 00 
    719       328.699 DT     0225 Rx 3  05 45 52 
    720       328.935 DT     0243 Rx 8  7A 7D A1 0F 00 00 00 00 
    721       329.173 DT     0129 Rx 8  7D 2A 4F 20 00 20 FF 3F 
    722       329.417 DT     0677 Rx 8  FB FF FF FF FF FF FF 27 
    723       329.663 DT     0339 Rx 8  00 B1 00 00 00 01 40 0F 
    724       329.915 DT     01FB Rx 8  00 FF FF FF FF FF FF FF 
    725       330.095 DT     039D Rx 5  83 66 55 28 00 
    726       330.299 DT     0420 Rx 6  28 01 40 4B 00 10 
    727       331.359 DT     0288 Rx 8  03 16 54 88 50 00 D1 A0 
    728       333.108 DT     0221 Rx 8  41 01 55 00 00 00 80 3A 
    729       333.774 DT     0283 Rx 6  00 00 00 00 00 00 
    730       333.902 DT     0242 Rx 2  10 95 
    731       335.372 DT     0719 Rx 8  00 94 52 00 00 00 00 00 
    732       336.108 DT     0545 Rx 8  02 00 10 00 00 00 70 CC 
    733       336.512 DT     0132 Rx 8  DC 89 F7 FF 27 40 FF 0F 
    734       337.124 DT     02C1 Rx 8  A5 00 00 00 E0 00 00 00 
    735       337.357 DT     02E1 Rx 8  FC 19 11 0A 9E 0E 0A 00 
    736       337.593 DT     0798 Rx 8  02 60 76 1E 37 01 C0 F6 
    737       337.977 DT     013D Rx 6  02 20 AA 1A FF 02 
    738       338.807 DT     03C0 Rx 8  01 00 00 00 00 00 00 01 
    739       339.115 DT     0201 Rx 8  01 64 64 EA 29 02 96 00 
    740       339.353 DT     0129 Rx 8  8C 2B 4F 20 00 20 FF 3F 
    741       339.915 DT     0282 Rx 8  00 00 00 00 EC F3 F2 24 
    742       340.620 DT     0409 Rx 1  00 
    743       340.914 DT     0360 Rx 8  01 00 00 00 00 00 00 00 
    744       341.340 DT     01F9 Rx 6  00 00 00 00 00 00 
    745       343.288 DT     06C8 Rx 8  CC 01 00 2C 00 00 00 00 
    746       343.588 DT     023E Rx 8  28 C6 63 95 01 6E 56 EB 
    747       343.826 DT     0103 Rx 8  11 30 00 00 96 14 11 02 
    748       344.070 DT     0263 Rx 8  03 10 20 03 00 00 00 00 
    749       344.312 DT     02B3 Rx 8  0A 2B 00 78 00 00 00 00 
    750       345.124 DT     0677 Rx 8  04 0F 00 00 00 00 00 00 
    751       345.699 DT     0400 Rx 7  40 60 E0 BF EF FB 00 
    752       346.519 DT     0132 Rx 8  F0 89 F7 FF 27 40 FF 0F 
    753       346.857 DT     0410 Rx 2  45 00 
    754       347.369 DT     0439 Rx 8  00 00 20 00 00 00 43 02 
    755       347.909 DT     0102 Rx 8  22 33 00 00 E8 38 11 08 
    756       348.107 DT     013D Rx 6  02 20 AA 1A FF 02 
    757       348.813 DT     0123 Rx 8  00 00 48 12 D2 00 00 80 
    758       349.142 DT     02C1 Rx 8  06 00 00 00 40 00 00 00 
    759       349.376 DT     0129 Rx 8  EC 2C 4F 20 00 20 FF 3F 
    760       349.602 DT     0293 Rx 8  01 0C 55 91 55 15 54 46 
    761       349.844 DT     02A8 Rx 8  C2 00 00 00 00 80 00 EC 
    762       350.088 DT     0142 Rx 8  28 02 02 00 00 00 00 00 
    763       350.298 DT     0253 Rx 7  64 C8 A7 64 C8 47 07 
    764       350.546 DT     0340 Rx 8  02 00 00 00 00 00 00 00 
    765       350.777 DT     03A1 Rx 8  68 62 0D 98 00 30 A2 D7 
    766       352.237 DT     0285 Rx 8  03 75 9D 4B 8A 00 00 00 
    767       353.119 DT     0201 Rx 8  2A 0F 20 C0 09 60 15 01 
    768       353.355 DT     0261 Rx 8  00 10 27 00 D6 43 80 11 
    769       353.491 DT     0119 Rx 2  00 00 
    770       353.739 DT     02E1 Rx 8  05 00 00 00 00 00 00 00 
    771       353.977 DT     039A Rx 8  FC FD FD FD FD FD FD 01 
    772       354.166 DT     03A3 Rx 5  00 D0 00 00 08 
    773       354.866 DT     0122 Rx 6  00 00 12 12 12 00 
    774       355.120 DT     0381 Rx 8  70 B3 01 2B 04 20 3B 11 
    775       355.330 DT     0428 Rx 6  00 00 10 10 00 00 
    776       356.512 DT     0132 Rx 8  DD 89 F8 FF 27 40 FF 0F 
    777       356.740 DT     0372 Rx 8  0A C3 AA 56 B4 F0 FF 02 
    778       358.069 DT     013D Rx 6  02 20 AA 1A FF 02 
    779       358.789 DT     0393 Rx 8  09 80 63 00 00 00 00 00 
    780       359.027 DT     0243 Rx 8  FC 7F FF 5F A2 02 41 29 
    781       359.263 DT     0129 Rx 8  FE 2D 4F 20 00 20 FF 3F 
    782       359.901 DT     03A2 Rx 8  00 C0 72 0D 05 00 C6 6C 
    783       361.097 DT     0241 Rx 7  32 64 9C 0C 19 57 00 
    784       361.331 DT     02C1 Rx 8  07 00 14 0D 0E 1D 22 47 
    785       361.575 DT     0677 Rx 8  05 02 00 28 00 00 00 00 
    786       361.891 DT     0272 Rx 8  09 80 63 00 00 00 00 00 
    787       363.798 DT     020C Rx 8  00 80 4A 1E 00 B0 07 00 
    788       365.116 DT     0718 Rx 7  02 FF FF FF FF FF FF 
    789       365.500 DT     0797 Rx 8  14 09 00 00 00 00 C0 C9 
    790       366.506 DT     0132 Rx 8  E2 89 F7 FF 26 40 FF 0F 
    791       366.822 DT     025B Rx 8  D3 C0 02 00 00 00 B0 A0 
    792       367.122 DT     0201 Rx 8  03 40 18 00 10 89 F5 C1 
    793       367.769 DT     041D Rx 1  00 
    794       368.080 DT     021D Rx 8  2C 20 08 14 80 00 40 10 
    795       368.278 DT     043D Rx 6  02 20 AA 1A FF 02 
    796       368.476 DT     013D Rx 6  02 20 AA 1A FF 02 
    797       368.684 DT     03E3 Rx 2  00 00 
    798       368.856 DT     01F8 Rx 4  22 00 00 00 
    799       369.089 DT     025D Rx 8  DF 8C 01 C3 44 C1 0A E0 
    800       369.323 DT     0129 Rx 8  48 2E 4F 20 FF 1F FF 3F 
    801       369.565 DT     02E1 Rx 8  10 21 04 00 00 00 26 08 
    802       369.711 DT     0229 Rx 3  2F 0D 00 
    803       369.945 DT     0379 Rx 8  05 40 D1 0D 92 00 04 00 
    804       370.111 DT     0249 Rx 4  4C 06 00 00 
    805       370.290 DT     039D Rx 5  84 67 55 28 00 
    806       370.522 DT     03C2 Rx 8  00 55 55 55 00 00 55 45 
    807       370.750 DT     0545 Rx 8  40 01 31 80 A1 0B 8A 72 
    808       371.000 DT     054F Rx 8  00 00 00 00 00 00 00 00 
    809       371.154 DT     077D Rx 3  12 00 00 
    810       371.404 DT     027D Rx 8  00 00 00 00 00 00 00 00 
    811       371.575 DT     029D Rx 4  00 00 00 20 
    812       371.829 DT     03E8 Rx 8  00 00 00 00 00 00 00 00 
    813       371.985 DT     07DD Rx 3  FF 00 01 
    814       372.155 DT     02BD Rx 4  00 00 00 00 
    815       372.403 DT     02F1 Rx 8  07 00 00 00 00 00 00 00 
    816       373.125 DT     02C1 Rx 8  80 0C 32 0B 8B 1F 00 00 
    817       373.803 DT     04E3 Rx 8  01 DE 06 00 00 00 08 00 
    818       374.040 DT     0263 Rx 8  00 EE 0C F3 E4 3F A8 FA 
    819       375.246 DT     0139 Rx 1  00 
    820       375.916 DT     03E2 Rx 8  40 15 80 0A 00 00 04 04 
    821       376.510 DT     0132 Rx 8  E2 89 F7 FF 28 40 FF 0F 
    822       377.132 DT     0677 Rx 8  F8 FF FF FF FF FF FF 3F 
    823       377.374 DT     02A7 Rx 8  00 00 00 00 00 84 05 84 
    824       377.611 DT     07A8 Rx 8  08 D5 A1 63 00 00 40 10 
    825       377.947 DT     013D Rx 6  02 20 AA 1A FF 02 
    826       378.777 DT     02E3 Rx 7  03 00 00 C4 01 0B 00 
    827       379.153 DT     0129 Rx 8  D0 2F 4F 20 00 20 FF 3F 
    828       379.397 DT     02A6 Rx 8  00 00 FF 1F 00 00 00 00 
    829       379.907 DT     01FB Rx 8  01 FE FF B7 6D 0B 00 00 
    830       381.117 DT     0201 Rx 8  04 00 00 00 00 00 00 00 
    831       381.357 DT     02C7 Rx 8  00 00 00 00 00 47 48 FF 
    832       381.605 DT     03DA Rx 8  00 00 00 00 00 00 00 00 
    833       382.886 DT     04E2 Rx 8  01 6C 07 00 00 00 08 00 
    834       383.134 DT     03F5 Rx 8  00 C8 19 09 00 00 00 00 
    835       383.284 DT     0113 Rx 3  01 97 01 
    836       383.518 DT     0221 Rx 8  40 41 05 05 00 50 91 8F 
    837       383.750 DT     0228 Rx 8  03 16 54 88 50 00 D1 40 
    838       383.984 DT     023E Rx 8  28 C6 63 95 01 6E 66 FB 
    839       384.222 DT     0343 Rx 8  00 90 64 4E A1 36 00 00 
    840       384.462 DT     039A Rx 8  FD FD FD FD FD 01 00 00 
    841       384.696 DT     07FF Rx 8  03 31 08 A1 E0 42 16 41 
    842       384.929 DT     0318 Rx 8  16 03 19 0F 11 15 1D 9F 
    843       385.169 DT     02C1 Rx 8  01 00 00 14 28 70 64 00 
    844       385.403 DT     02E1 Rx 8  29 0A A3 6A 17 00 00 00 
    845       385.629 DT     0458 Rx 7  02 02 00 80 00 00 00 
    846       385.865 DT     0382 Rx 5  3B 16 24 00 00 
    847       386.137 DT     0261 Rx 8  31 48 20 00 0B 4A 9A C9 
    848       386.433 DT     076A Rx 8  00 63 CB D8 02 00 00 00 
    849       386.670 DT     0132 Rx 8  EF 89 F7 FF 27 40 FF 0F 
    850       386.902 DT     02C4 Rx 8  13 A0 00 CA 8D 11 11 00 
    851       387.150 DT     0204 Rx 8  81 00 00 46 00 00 00 10 
    852       387.398 DT     037A Rx 8  01 00 00 00 00 00 00 00 
    853       387.606 DT     0264 Rx 6  3B 00 00 00 A0 00 
    854       388.003 DT     0224 Rx 8  04 08 00 40 19 01 10 08 
    855       388.235 DT     02D2 Rx 8  D9 29 8D 4E 00 00 A1 01 
    856       388.473 DT     0252 Rx 8  00 00 8C 06 00 00 A0 0F 
    857       388.710 DT     0212 Rx 8  98 24 D6 0F 02 FF 1F 02 
    858       388.938 DT     0243 Rx 8  01 FC 59 59 5E 5E 7A 7A 
    859       389.176 DT     0129 Rx 8  35 20 4F 20 00 20 FF 3F 
    860       389.402 DT     0292 Rx 8  4A 57 4D 75 D4 27 9E 01 
    861       389.532 DT     02F2 Rx 2  12 01 
    862       389.731 DT     013D Rx 6  02 20 AA 1A FF 02 
    863       389.965 DT     0262 Rx 8  0B 00 D2 0D 00 70 52 12 
    864       390.203 DT     0282 Rx 8  4D 05 00 01 3B 01 7A 02 
    865       390.391 DT     02B4 Rx 5  68 AD 25 BE 00 
    866       390.619 DT     02A4 Rx 8  59 CF 7A D7 BD 5E F8 30 
    867       390.753 DT     0364 Rx 2  00 78 
    868       391.006 DT     03A4 Rx 8  00 00 00 00 00 00 00 00 
    869       391.242 DT     03C3 Rx 8  55 55 55 01 00 00 00 00 
    870       391.476 DT     07B8 Rx 8  82 1D 00 33 50 04 C0 88 
    871       392.978 DT     077A Rx 8  00 5B 19 00 0F 0D 00 00 
    872       393.228 DT     0677 Rx 8  01 FF FF FF FF FF FF 00 
    873       393.476 DT     0359 Rx 8  0D 00 00 00 00 00 00 00 
    874       393.714 DT     07AA Rx 8  C0 EB CE F4 00 00 00 00 
    875       393.960 DT     0553 Rx 8  00 00 00 00 00 00 D0 28 
    876       394.092 DT     02D1 Rx 2  7F 01 
    877       394.327 DT     0381 Rx 8  F1 EF 7B 07 1A 00 16 00 
    878       394.573 DT     078A Rx 8  01 00 06 00 00 00 05 00 
    879       395.131 DT     0201 Rx 8  05 40 18 00 10 79 B5 C1 
    880       395.497 DT     06E8 Rx 8  CC 01 00 2C 00 00 00 00 
    881       396.507 DT     0132 Rx 8  E9 89 F8 FF 29 40 FF 0F 
    882       396.904 DT     0552 Rx 8  00 00 00 00 00 00 D0 27 
    883       397.140 DT     02C1 Rx 8  02 74 C4 57 00 80 02 00 
    884       397.974 DT     013D Rx 6  02 20 AA 1A FF 02 
    885       398.798 DT     0383 Rx 8  97 00 1E 80 00 00 A0 00 
    886       399.136 DT     03A1 Rx 8  2B A0 22 01 00 00 B0 34 
    887       399.368 DT     0129 Rx 8  4B 21 4F 20 FF 1F FF 3F 
    888       399.499 DT     0213 Rx 2  20 35 
    889       399.747 DT     038A Rx 8  01 00 00 00 00 00 00 00 
    890       399.991 DT     0142 Rx 8  01 00 40 0A 00 00 00 00 
    891       400.835 DT     022A Rx 4  00 00 19 16 
    892       401.117 DT     02E1 Rx 8  02 00 00 00 00 00 01 00 
    893       401.561 DT     02E8 Rx 8  C2 00 00 00 00 80 00 2C 
    894       402.135 DT     0545 Rx 8  01 00 00 00 00 10 90 EB 
    895       403.763 DT     0423 Rx 6  00 00 00 00 08 00 
    896       403.993 DT     0263 Rx 8  01 E9 12 F2 E4 3C A5 FA 
    897       404.204 DT     0422 Rx 6  80 00 10 00 00 00 
    898       405.130 DT     0421 Rx 7  00 0A 00 10 00 00 00 
    899       405.390 DT     042A Rx 8  01 90 00 48 00 24 00 02 
    900       405.636 DT     03C9 Rx 8  06 00 00 00 00 00 00 00 
    901       406.512 DT     0132 Rx 8  E7 89 F8 FF 2B 40 FF 0F 
    902       406.756 DT     0372 Rx 8  0B FF FF 3F FF FF 3F 80 
    903       407.509 DT     0448 Rx 6  00 00 10 10 00 00 
    904       407.975 DT     013D Rx 6  02 20 AA 1A FF 02 
    905       408.799 DT     02C3 Rx 8  00 00 00 A6 01 00 80 69 
    906       409.131 DT     02C1 Rx 8  03 00 40 66 00 00 35 00 
    907       409.365 DT     0129 Rx 8  6B 22 4F 20 00 20 FF 3F 
    908       409.607 DT     0201 Rx 8  3E 73 33 03 00 00 00 00 
    909       409.788 DT     039D Rx 5  85 68 55 28 00 
    910       410.028 DT     03A2 Rx 8  C7 04 00 00 01 80 21 01 
    911       410.274 DT     0677 Rx 8  02 FF FF FF FF 00 00 00 
    912       410.910 DT     02C2 Rx 8  55 5B A9 06 00 00 12 00 
    913       411.316 DT     0219 Rx 5  F1 1F FF FF 03 
    914       412.752 DT     0419 Rx 1  00 
    915       413.290 DT     0789 Rx 8  54 09 00 00 00 00 D0 DC 
    916       413.528 DT     039A Rx 8  FC FD FD FD FD FD FD 01 
    917       415.109 DT     0718 Rx 7  03 FF FF FF FF FF FF 
    918       416.105 DT     0441 Rx 8  7E C5 44 20 DB 0E 34 7E 
    919       416.511 DT     0132 Rx 8  E0 89 F8 FF 27 40 FF 0F 
    920       417.063 DT     0361 Rx 5  2E 0A 1C 05 01 
    921       417.299 DT     02E1 Rx 8  03 6C 00 02 2C 45 00 00 
    922       417.545 DT     02F9 Rx 8  D0 FB 07 08 00 00 00 00 
    923       417.985 DT     013D Rx 6  02 20 AA 1A FF 02 
    924       418.790 DT     0243 Rx 8  7A 7D A1 0F 00 00 00 00 
    925       419.128 DT     0261 Rx 8  5E FE 04 BA 8F 5C A5 EB 
    926       419.360 DT     0129 Rx 8  D1 23 4F 20 01 20 FF 3F 
    927       419.610 DT     03C8 Rx 8  01 00 00 00 00 00 00 00 
    928       419.778 DT     0249 Rx 4  5E 07 00 00 
    929       420.004 DT     02E2 Rx 8  F7 D3 4F 3F 69 46 93 55 
    930       420.246 DT     03C2 Rx 8  29 55 00 00 00 00 00 00 
    931       421.138 DT     02C1 Rx 8  04 CA 03 03 64 C1 39 53 
    932       423.124 DT     0201 Rx 8  40 06 19 00 70 43 06 00 
    933       423.420 DT     03F9 Rx 8  00 00 00 00 00 00 00 00 
    934       423.652 DT     023E Rx 8  28 C6 63 95 01 6E 76 0B 
    935       423.832 DT     0323 Rx 5  36 16 1E 00 00 
    936       425.128 DT     0677 Rx 8  FB FF FF FF FF FF FF 27 
    937       425.372 DT     0788 Rx 8  01 00 00 00 FF A1 08 00 
    938       426.504 DT     0132 Rx 8  E7 89 F8 FF 27 40 FF 0F 
    939       426.806 DT     01FA Rx 3  22 C0 01 
    940       427.975 DT     013D Rx 6  02 20 AA 1A FF 02 
    941       428.181 DT     02A1 Rx 6  00 00 98 3A 00 00 
    942       428.701 DT     0225 Rx 3  05 45 52 
    943       429.151 DT     0129 Rx 8  FA 24 4F 20 00 20 FF 3F 
    944       429.515 DT     0339 Rx 8  00 B1 00 00 00 01 40 0F 
    945       429.803 DT     0420 Rx 6  28 01 40 4B 00 20 
    946       430.055 DT     01FB Rx 8  00 FF FF FF FF FF FF FF 
    947       430.614 DT     03E9 Rx 8  F1 20 00 00 00 00 20 1D 
    948       431.354 DT     0288 Rx 8  03 16 54 88 50 00 E1 B0 
    949       433.124 DT     02C1 Rx 8  A5 00 00 00 E0 00 00 00 
    950       433.360 DT     0221 Rx 8  41 01 55 00 00 00 A0 5A 
    951       433.592 DT     02E1 Rx 8  FC 19 0F 1A 9E 13 0A 00 
    952       433.804 DT     0283 Rx 6  00 00 00 00 00 00 
    953       433.932 DT     0242 Rx 2  10 95 
    954       434.173 DT     0263 Rx 8  02 00 00 00 EB 0F 00 00 
    955       434.413 DT     02B3 Rx 8  00 82 81 82 82 7D 67 00 
    956       434.661 DT     0381 Rx 8  12 01 00 00 00 00 07 00 
    957       434.909 DT     055A Rx 8  01 00 00 00 00 00 00 00 
    958       435.151 DT     0545 Rx 8  02 00 10 00 00 00 A0 FC 
    959       435.381 DT     0405 Rx 8  11 33 45 37 46 41 30 4D 
    960       435.631 DT     0719 Rx 8  01 00 00 00 00 00 00 00 
    961       436.522 DT     0132 Rx 8  E5 89 F8 FF 27 40 FF 0F 
    962       437.120 DT     0201 Rx 8  01 64 64 EA 29 02 96 00 
    963       437.346 DT     0798 Rx 8  6B D6 59 CE 3A 0B D0 85 
    964       437.980 DT     013D Rx 6  02 20 AA 1A FF 02 
    965       438.810 DT     03C0 Rx 8  02 00 00 04 00 00 00 00 
    966       439.150 DT     0129 Rx 8  ED 25 4F 20 00 20 FF 3F 
    967       439.918 DT     0282 Rx 8  00 00 00 00 EC F3 F2 24 
    968       440.620 DT     0409 Rx 1  00 
    969       440.914 DT     0360 Rx 8  02 00 00 04 00 00 00 00 
    970       441.163 DT     0677 Rx 8  04 0F 00 00 00 00 00 00 
    971       441.375 DT     01F9 Rx 6  00 00 00 00 00 00 
    972       443.297 DT     06C8 Rx 8  01 00 00 00 00 00 00 00 
    973       443.537 DT     039A Rx 8  FD FD FD FD FD 01 00 00 
    974       443.809 DT     0103 Rx 8  11 30 00 00 96 14 11 02 
    975       445.139 DT     02C1 Rx 8  06 00 00 00 40 00 00 00 
    976       445.741 DT     0400 Rx 7  40 60 E0 BF EF FB 00 
    977       446.521 DT     0132 Rx 8  E6 89 F7 FF 27 40 FF 0F 
    978       447.372 DT     0439 Rx 8  00 00 20 00 00 00 43 02 
    979       447.910 DT     0102 Rx 8  22 33 00 00 E8 38 11 08 
    980       448.172 DT     013D Rx 6  02 20 AA 1A FF 02 
    981       448.818 DT     0123 Rx 8  00 00 48 12 D2 00 00 80 
    982       449.056 DT     0243 Rx 8  FC 7F FF 5F A2 02 41 29 
    983       449.292 DT     0129 Rx 8  37 26 4F 20 00 20 FF 3F 
    984       449.535 DT     02A8 Rx 8  C2 00 00 00 00 80 10 FC 
    985       449.783 DT     02E1 Rx 8  05 00 00 00 00 00 00 00 
    986       450.027 DT     0142 Rx 8  28 02 02 00 00 00 00 00 
    987       450.275 DT     0340 Rx 8  03 00 00 00 00 00 00 00 
    988       450.453 DT     039D Rx 5  86 69 55 28 00 
    989       450.681 DT     03A1 Rx 8  68 62 0D 98 00 30 C2 F7 
    990       451.115 DT     0201 Rx 8  2A 0F 20 C0 09 60 15 01 
    991       452.109 DT     0261 Rx 8  03 00 00 00 00 40 B4 38 
    992       453.287 DT     0119 Rx 2  00 00 
    993       453.758 DT     03A3 Rx 5  00 D0 00 00 08 
    994       454.860 DT     0122 Rx 6  00 00 12 12 12 00 
    995       455.260 DT     0428 Rx 6  00 00 10 10 00 00 
    996       456.516 DT     0132 Rx 8  E6 89 F8 FF 26 40 FF 0F 
    997       456.762 DT     0372 Rx 8  0C 00 00 00 00 00 00 00 
    998       457.121 DT     02C1 Rx 8  07 00 14 0D 0E 1D 22 47 
    999       457.365 DT     0677 Rx 8  05 02 00 28 00 00 00 00 
   1000       458.073 DT     013D Rx 6  02 20 AA 1A FF 02 
   1001       458.797 DT     0393 Rx 8  06 00 FC D8 07 C0 1E 20 
   1002       459.147 DT     0129 Rx 8  8D 27 4F 20 01 20 FF 3F 
   1003       459.901 DT     03A2 Rx 8  00 C0 F2 0B 05 00 C6 6C 
   1004       461.099 DT     0241 Rx 7  32 64 9C 0C 19 57 00 
   1005       461.898 DT     0272 Rx 8  06 00 FC E0 07 C0 1E 20 
   1006       463.606 DT     023E Rx 8  28 C6 63 95 01 6E 86 1B 
   1007       463.844 DT     020C Rx 8  00 80 4A 1E 00 B0 07 00 
   1008       464.088 DT     0263 Rx 8  03 10 20 03 00 00 00 00 
   1009       465.130 DT     0201 Rx 8  03 40 18 00 10 89 F5 C1 
   1010       465.372 DT     02E1 Rx 8  10 21 04 00 00 00 26 08 
   1011       465.602 DT     0718 Rx 7  04 FF FF 00 00 00 00 
   1012       465.840 DT     025B Rx 8  D3 C0 02 00 00 00 C0 B0 
   1013       466.078 DT     0797 Rx 8  14 09 00 00 00 00 D0 D9 
   1014       466.509 DT     0132 Rx 8  E8 89 F7 FF 26 40 FF 0F 
   1015       467.981 DT     075D Rx 8  16 00 00 27 00 00 00 00 
   1016       468.217 DT     021D Rx 8  2C 20 08 14 80 00 40 10 
   1017       468.335 DT     041D Rx 1  00 
   1018       468.534 DT     013D Rx 6  02 20 AA 1A FF 02 
   1019       468.760 DT     0545 Rx 8  80 01 31 90 A1 0C BA F3 
   1020       468.932 DT     01F8 Rx 4  22 00 00 00 
   1021       469.164 DT     0129 Rx 8  5A 28 4F 20 01 20 FF 3F 
   1022       469.396 DT     025D Rx 8  DF 8C 01 C3 44 C1 0A E0 
   1023       469.546 DT     0229 Rx 3  31 0E 00 
   1024       469.787 DT     02C1 Rx 8  80 0C 32 0B 8B 1F 00 00 
   1025       469.953 DT     0249 Rx 4  3F 08 00 00 
   1026       470.187 DT     0379 Rx 8  06 00 EE AD 3B 00 04 00 
   1027       470.419 DT     03C2 Rx 8  00 55 55 55 00 00 55 45 
   1028       470.555 DT     03E3 Rx 2  00 00 
   1029       470.753 DT     043D Rx 6  02 20 AA 1A FF 02 
   1030       471.003 DT     027D Rx 8  00 00 00 00 00 00 00 00 
   1031       471.174 DT     029D Rx 4  00 00 00 20 
   1032       471.344 DT     02BD Rx 4  00 00 00 00 
   1033       471.598 DT     03E8 Rx 8  01 00 00 00 00 00 00 00 
   1034       471.848 DT     054F Rx 8  00 00 00 00 00 00 00 00 
   1035       472.002 DT     077D Rx 3  12 00 00 
   1036       472.242 DT     02F1 Rx 8  08 01 00 60 04 48 01 00 
   1037       472.474 DT     0381 Rx 8  33 64 3C 30 0C 20 36 00 
   1038       472.631 DT     07DD Rx 3  FF 00 01 
   1039       473.119 DT     0677 Rx 8  F8 FF FF FF FF FF FF 3F 
   1040       473.433 DT     039A Rx 8  FC FD FD FD FD FD FD 01 
   1041       473.802 DT     04E3 Rx 8  02 13 07 00 00 00 08 00 
   1042       475.248 DT     0139 Rx 1  00 
   1043       475.920 DT     03E2 Rx 8  40 15 80 0A 00 00 04 04 
   1044       476.513 DT     0132 Rx 8  EB 89 F8 FF 28 40 FF 0F 
   1045       477.193 DT     02A7 Rx 8  00 00 00 00 00 84 05 84 
   1046       477.545 DT     07A8 Rx 8  01 00 00 00 FF A1 08 00 
   1047       477.943 DT     013D Rx 6  02 20 AA 1A FF 02 
   1048       478.779 DT     02E3 Rx 7  94 12 61 00 10 06 00 
   1049       479.007 DT     0243 Rx 8  01 FC 59 59 5E 5E 7A 7A 
   1050       479.243 DT     0129 Rx 8  0F 29 4F 20 01 20 FF 3F 
   1051       479.491 DT     0201 Rx 8  04 00 00 00 00 00 00 00 
   1052       479.736 DT     02A6 Rx 8  00 00 FF 1F 00 00 00 00 
   1053       479.976 DT     01FB Rx 8  01 FE FF B7 6D 0B 00 00 
   1054       481.130 DT     02C1 Rx 8  01 00 00 14 28 70 64 00 
   1055       481.370 DT     02C7 Rx 8  00 00 00 00 00 47 48 FF 
   1056       481.604 DT     02E1 Rx 8  29 0A A3 6A 17 00 00 00 
   1057       481.852 DT     03DA Rx 8  00 00 00 00 00 00 00 00 
   1058       482.892 DT     04E2 Rx 8  02 69 00 00 00 00 08 00 
   1059       483.136 DT     03F5 Rx 8  00 C8 19 09 00 00 00 00 
   1060       483.286 DT     0113 Rx 3  01 97 01 
   1061       483.522 DT     0221 Rx 8  40 41 05 05 00 50 B1 AF 
   1062       483.753 DT     0228 Rx 8  03 16 54 88 50 00 E1 50 
   1063       483.993 DT     0343 Rx 8  00 90 60 7E A1 36 00 00 
   1064       484.223 DT     07FF Rx 8  04 CC 16 54 61 12 B4 2A 
   1065       484.455 DT     0318 Rx 8  16 03 19 0F 11 15 1F A1 
   1066       484.683 DT     0458 Rx 7  02 02 00 80 00 00 00 
   1067       485.159 DT     0261 Rx 8  00 10 27 00 D6 43 C0 51 
   1068       486.433 DT     078A Rx 8  01 00 07 00 00 00 B2 04 
   1069       486.670 DT     0132 Rx 8  E7 89 F7 FF 25 40 FF 0F 
   1070       486.944 DT     02C4 Rx 8  14 00 00 00 00 00 00 00 
   1071       487.394 DT     037A Rx 8  02 00 00 00 00 00 00 00 
   1072       487.642 DT     0204 Rx 8  81 00 00 46 00 00 00 10 
   1073       487.874 DT     02D2 Rx 8  D9 29 8D 4E 00 00 A1 01 
   1074       488.113 DT     0252 Rx 8  00 00 8C 06 00 00 A0 0F 
   1075       488.349 DT     0212 Rx 8  98 24 D6 0F 02 FF 1F 02 
   1076       488.575 DT     0292 Rx 8  4A 57 4D 75 D4 27 9E 01 
   1077       488.705 DT     02F2 Rx 2  12 01 
   1078       488.946 DT     0392 Rx 8  01 05 A9 16 01 00 00 00 
   1079       489.184 DT     0129 Rx 8  7D 2A 4F 20 00 20 FF 3F 
   1080       489.392 DT     0264 Rx 6  3B 00 00 00 A0 00 
   1081       489.590 DT     013D Rx 6  02 20 AA 1A FF 02 
   1082       489.830 DT     0224 Rx 8  04 08 00 40 19 01 10 08 
   1083       490.064 DT     0262 Rx 8  0B 00 D2 0D 00 70 52 12 
   1084       490.299 DT     0282 Rx 8  4D 05 00 81 21 01 7A 02 
   1085       490.479 DT     02B4 Rx 5  68 AD 25 BC 00 
   1086       490.657 DT     039D Rx 5  87 6A 55 28 00 
   1087       490.903 DT     03C3 Rx 8  00 00 00 00 00 45 00 00 
   1088       491.153 DT     0677 Rx 8  01 FF FF FF FF FF FF 00 
   1089       491.383 DT     07B8 Rx 8  DB EF 3F FD 6D 08 D0 ED 
   1090       492.466 DT     07AA Rx 8  01 CA 0D C9 0D 02 00 00 
   1091       493.122 DT     02C1 Rx 8  02 74 C4 57 00 80 02 00 
   1092       493.362 DT     0201 Rx 8  05 40 18 00 10 79 B5 C1 
   1093       493.600 DT     0359 Rx 8  0E 00 00 00 66 49 B9 82 
   1094       493.836 DT     0263 Rx 8  00 EE 0C F3 E4 3F A8 FA 
   1095       494.082 DT     0553 Rx 8  00 00 00 00 00 00 E0 38 
   1096       494.214 DT     02D1 Rx 2  7F 01 
   1097       495.506 DT     06E8 Rx 8  01 00 00 00 00 00 00 00 
   1098       496.511 DT     0132 Rx 8  EB 89 F8 FF 26 40 FF 0F 
   1099       496.909 DT     0552 Rx 8  00 00 00 00 00 00 E0 37 
   1100       497.153 DT     02E1 Rx 8  02 00 00 00 00 00 01 00 
   1101       497.939 DT     013D Rx 6  02 20 AA 1A FF 02 
   1102       498.801 DT     0383 Rx 8  97 00 1E 80 00 00 A0 00 
   1103       499.141 DT     03A1 Rx 8  2B A0 22 01 00 00 D0 54 
   1104       499.379 DT     0129 Rx 8  8C 2B 4F 20 00 20 FF 3F 
   1105       499.626 DT     038A Rx 8  03 00 00 00 00 00 00 00 
   1106       499.862 DT     0473 Rx 8  30 00 00 00 82 A1 34 62 
   1107       500.106 DT     0142 Rx 8  01 00 40 0A 00 00 00 00 
   1108       500.350 DT     03B3 Rx 8  88 80 05 00 00 00 60 00 
   1109       500.520 DT     022A Rx 4  00 00 19 16 
   1110       501.138 DT     0545 Rx 8  01 00 00 00 00 10 C0 1B 
   1111       501.586 DT     02E8 Rx 8  C2 00 00 00 00 80 10 3C 
   1112       503.441 DT     039A Rx 8  FD FD FD FD FD 01 00 00 
   1113       503.673 DT     023E Rx 8  28 C6 63 95 01 6E 96 2B 
   1114       503.883 DT     0422 Rx 6  80 00 10 00 00 00 
   1115       504.091 DT     0423 Rx 6  00 00 00 00 08 00 
   1116       505.141 DT     0421 Rx 7  00 0A 00 10 00 00 00 
   1117       505.381 DT     02C1 Rx 8  03 00 40 66 00 00 35 00 
   1118       505.623 DT     042A Rx 8  01 90 00 48 00 24 00 02 
   1119       505.870 DT     0677 Rx 8  02 FF FF FF FF 00 00 00 
   1120       506.510 DT     0132 Rx 8  E7 89 F8 FF 27 40 FF 0F 
   1121       506.754 DT     0372 Rx 8  0D 41 1F 00 00 00 00 00 
   1122       507.128 DT     0201 Rx 8  3E 73 33 03 00 00 00 00 
   1123       507.512 DT     0448 Rx 6  00 00 10 10 00 00 
   1124       507.976 DT     013D Rx 6  02 20 AA 1A FF 02 
   1125       508.798 DT     02C3 Rx 8  55 1B A8 36 00 00 12 00 
   1126       509.035 DT     0243 Rx 8  7A 7D A1 0F 00 00 00 00 
   1127       509.269 DT     0129 Rx 8  EC 2C 4F 20 00 20 FF 3F 
   1128       509.909 DT     03A2 Rx 8  C9 04 00 00 01 80 21 01 
   1129       510.915 DT     02C2 Rx 8  00 00 00 97 01 00 C0 65 
   1130       511.149 DT     0381 Rx 8  14 39 4B 00 32 C0 07 96 
   1131       511.335 DT     0219 Rx 5  F2 1F FF FF 01 
   1132       512.751 DT     0419 Rx 1  00 
   1133       513.129 DT     02E1 Rx 8  03 6C 00 02 2C 45 00 00 
   1134       513.367 DT     0789 Rx 8  54 09 00 00 00 00 E0 EC 
   1135       513.609 DT     034A Rx 8  00 C7 04 20 00 00 00 60 
   1136       513.856 DT     043B Rx 8  00 7F 00 FF 00 00 00 00 
   1137       515.114 DT     0718 Rx 7  00 7F 7F 7F FF FF FF 
   1138       516.114 DT     0441 Rx 8  81 C5 44 20 DB 0E 38 85 
   1139       516.514 DT     0132 Rx 8  E7 89 F8 FF 29 40 FF 0F 
   1140       516.764 DT     0320 Rx 8  02 00 00 00 00 00 00 00 
   1141       517.003 DT     0772 Rx 8  02 0A 00 0A 9C 09 00 00 
   1142       517.239 DT     02C1 Rx 8  04 CA 03 03 64 C1 39 53 
   1143       517.481 DT     02F9 Rx 8  D0 FB 07 10 00 00 00 00 
   1144       517.991 DT     013D Rx 6  02 20 AA 1A FF 02 
   1145       518.225 DT     0261 Rx 8  31 48 31 00 11 4A DA 20 
   1146       519.149 DT     0129 Rx 8  FE 2D 4F 20 00 20 FF 3F 
   1147       519.398 DT     03C8 Rx 8  02 00 00 00 00 00 00 00 
   1148       519.564 DT     0249 Rx 4  5E 09 00 00 
   1149       519.928 DT     03C2 Rx 8  29 55 00 00 00 00 00 00 
   1150       521.134 DT     0201 Rx 8  40 06 19 00 74 43 06 00 
   1151       521.378 DT     0677 Rx 8  FB FF FF FF FF FF FF 27 
   1152       523.426 DT     03F9 Rx 8  01 00 00 00 00 00 00 00 
   1153       523.832 DT     0263 Rx 8  01 E9 12 F2 E4 3C A5 FA 
   1154       524.070 DT     02B3 Rx 8  01 7E 7E 80 69 7E 7E 82 
   1155       525.304 DT     0788 Rx 8  FA 1E 00 00 00 00 00 00 
   1156       526.508 DT     0132 Rx 8  EC 89 F8 FF 29 40 FF 0F 
   1157       526.810 DT     01FA Rx 3  22 C0 01 
   1158       527.978 DT     013D Rx 6  02 20 AA 1A FF 02 
   1159       528.184 DT     02A1 Rx 6  00 00 98 3A 00 00 
   1160       528.706 DT     0225 Rx 3  05 45 52 
   1161       529.140 DT     02C1 Rx 8  A5 00 00 00 E0 00 00 00 
   1162       529.374 DT     0129 Rx 8  8C 2E 4F 20 01 20 FF 3F 
   1163       529.608 DT     02E1 Rx 8  FC 19 13 1A 9E 0E 0A 00 
   1164       529.855 DT     0339 Rx 8  00 B1 00 00 00 01 40 0F 
   1165       530.107 DT     01FB Rx 8  00 FF FF FF FF FF FF FF 
   1166       530.285 DT     039D Rx 5  88 6B 55 28 00 
   1167       530.489 DT     0420 Rx 6  28 01 40 4B 00 30 
   1168       531.369 DT     0288 Rx 8  03 16 54 88 50 00 F1 C0 
   1169       533.123 DT     0221 Rx 8  41 01 55 00 00 00 C0 7A 
   1170       533.467 DT     039A Rx 8  FC FD FD FD FD FD FD 01 
   1171       533.779 DT     0283 Rx 6  00 00 00 00 00 00 
   1172       533.907 DT     0242 Rx 2  10 95 
   1173       534.152 DT     0545 Rx 8  02 00 13 00 00 00 D0 2F 
   1174       535.136 DT     0201 Rx 8  01 64 64 EA 29 02 96 00 
   1175       535.380 DT     0719 Rx 8  00 94 52 00 00 00 00 00 
   1176       536.506 DT     0132 Rx 8  E3 89 F7 FF 26 40 FF 0F 
   1177       537.126 DT     0677 Rx 8  04 0F 00 00 00 00 00 00 
   1178       537.356 DT     0798 Rx 8  5C 29 64 19 6B 0C E0 61 
   1179       537.939 DT     013D Rx 6  02 20 AA 1A FF 02 
   1180       538.812 DT     03C0 Rx 8  03 00 80 00 00 00 00 20 
   1181       539.051 DT     0243 Rx 8  FC 7F FF 5F A2 02 41 29 
   1182       539.287 DT     0129 Rx 8  7D 2F 4F 20 01 20 FF 3F 
   1183       539.923 DT     0282 Rx 8  00 00 00 00 EC F3 F2 24 
   1184       540.619 DT     0409 Rx 1  00 
   1185       540.919 DT     0360 Rx 8  03 00 00 00 00 00 00 00 
   1186       541.169 DT     02C1 Rx 8  06 00 00 00 40 00 00 00 
   1187       541.381 DT     01F9 Rx 6  00 00 00 00 00 00 
   1188       543.296 DT     06C8 Rx 8  CC 01 00 2C 00 00 00 00 
   1189       543.592 DT     023E Rx 8  28 C6 63 95 05 6E A6 3F 
   1190       543.830 DT     0103 Rx 8  11 30 00 00 96 14 11 02 
   1191       545.132 DT     02E1 Rx 8  05 00 00 00 00 00 00 00 
   1192       545.648 DT     0400 Rx 7  40 60 E0 BF EF FB 00 
   1193       546.536 DT     0132 Rx 8  DF 89 F7 FF 25 40 FF 0F 
   1194       547.376 DT     0439 Rx 8  00 00 20 00 00 00 43 02 
   1195       547.560 DT     0739 Rx 5  24 06 1B 01 00 
   1196       547.913 DT     0102 Rx 8  22 33 00 00 E8 38 11 08 
   1197       548.111 DT     013D Rx 6  02 20 AA 1A FF 02 
   1198       548.823 DT     0123 Rx 8  00 00 48 12 D2 00 00 80 
   1199       549.143 DT     0201 Rx 8  2A 0F 20 C0 09 60 15 01 
   1200       549.381 DT     0129 Rx 8  35 20 4F 20 00 20 FF 3F 
   1201       549.623 DT     02A8 Rx 8  C2 00 00 00 00 80 20 0C 
   1202       549.808 DT     0333 Rx 5  84 0A 5A 07 02 
   1203       550.052 DT     0142 Rx 8  28 02 02 00 00 00 00 00 
   1204       550.288 DT     0334 Rx 8  3F 3F C8 00 E2 3F 10 AE 
   1205       550.536 DT     0340 Rx 8  04 00 00 00 00 00 00 00 
   1206       550.770 DT     0381 Rx 8  35 2E 1F AE 46 1E 80 02 
   1207       550.998 DT     03A1 Rx 8  68 62 0D 98 00 30 E2 17 
   1208       551.224 DT     0261 Rx 8  5E FE 04 BA 8F 5C E5 2B 
   1209       551.826 DT     0362 Rx 3  00 00 00 
   1210       553.118 DT     02C1 Rx 8  07 00 14 0D 0E 1D 22 47 
   1211       553.362 DT     0677 Rx 8  05 02 00 28 00 00 00 00 
   1212       553.499 DT     0119 Rx 2  00 00 
   1213       553.763 DT     03A3 Rx 5  00 D0 00 00 08 
   1214       554.003 DT     0263 Rx 8  02 00 00 00 EB 0F 00 00 
   1215       554.863 DT     0122 Rx 6  00 00 12 12 12 00 
   1216       555.265 DT     0428 Rx 6  00 00 10 10 00 00 
   1217       556.517 DT     0132 Rx 8  EA 89 F7 FF 27 40 FF 0F 
   1218       556.753 DT     0372 Rx 8  0E 00 00 40 35 82 06 2E 
   1219       557.262 DT     0708 Rx 5  2B 21 09 00 00 
   1220       558.078 DT     013D Rx 6  02 20 AA 1A FF 02 
   1221       558.796 DT     0393 Rx 8  09 80 63 00 00 00 00 00 
   1222       559.146 DT     0129 Rx 8  4B 21 4F 20 FF 1F FF 3F 
   1223       559.906 DT     03A2 Rx 8  00 C0 72 0D 05 00 C6 6C 
   1224       561.092 DT     0241 Rx 7  32 64 9C 0C 19 57 00 
   1225       561.335 DT     02E1 Rx 8  10 21 04 00 00 00 26 08 
   1226       561.907 DT     0272 Rx 8  09 80 63 00 00 00 00 00 
   1227       563.133 DT     0201 Rx 8  03 40 18 00 10 89 F5 C1 
   1228       563.451 DT     039A Rx 8  FD FD FD FD FD 01 00 00 
   1229       563.807 DT     020C Rx 8  00 80 4A 1E 00 B0 07 00 
   1230       565.141 DT     02C1 Rx 8  80 0C 32 0B 8B 1F 00 00 
   1231       565.369 DT     0718 Rx 7  01 FF FF FF FF FF 00 
   1232       565.610 DT     0797 Rx 8  14 09 00 00 00 00 E0 E9 
   1233       566.510 DT     0132 Rx 8  EC 89 F8 FF 2B 40 FF 0F 
   1234       566.828 DT     025B Rx 8  D3 C0 02 00 00 00 D0 C0 
   1235       567.116 DT     0545 Rx 8  80 01 31 B0 A1 0E EA 45 
   1236       568.126 DT     033D Rx 8  1A 29 0A BE 87 4A FA 98 
   1237       568.244 DT     041D Rx 1  00 
   1238       568.489 DT     037D Rx 8  62 FF 60 60 FE F3 EF 3F 
   1239       568.693 DT     03E3 Rx 2  00 00 
   1240       568.865 DT     01F8 Rx 4  22 00 00 00 
   1241       569.093 DT     0243 Rx 8  01 FC 59 59 5E 5E 7A 7A 
   1242       569.327 DT     0129 Rx 8  6B 22 4F 20 00 20 FF 3F 
   1243       569.561 DT     0379 Rx 8  07 20 D8 AD C5 00 04 00 
   1244       569.711 DT     0229 Rx 3  3B 0F 00 
   1245       569.890 DT     039D Rx 5  89 6C 55 28 00 
   1246       570.056 DT     0249 Rx 4  E2 0A 00 00 
   1247       570.288 DT     03C2 Rx 8  00 55 55 55 00 00 55 45 
   1248       570.486 DT     043D Rx 6  02 20 AA 1A FF 02 
   1249       570.684 DT     013D Rx 6  02 20 AA 1A FF 02 
   1250       570.888 DT     03DD Rx 6  00 12 00 13 00 05 
   1251       571.125 DT     021D Rx 8  2C 20 08 14 80 00 40 10 
   1252       571.375 DT     054F Rx 8  00 00 00 00 00 00 00 00 
   1253       571.625 DT     03E8 Rx 8  02 00 00 00 00 00 00 00 
   1254       571.869 DT     0677 Rx 8  F8 FF FF FF FF FF FF 3F 
   1255       572.023 DT     077D Rx 3  12 00 00 
   1256       572.256 DT     025D Rx 8  DF 8C 01 C3 44 C1 0A E0 
   1257       572.506 DT     027D Rx 8  00 00 00 00 00 00 00 00 
   1258       572.676 DT     029D Rx 4  00 00 00 20 
   1259       572.916 DT     02F1 Rx 8  09 01 00 60 04 50 01 00 
   1260       573.072 DT     07DD Rx 3  FF 00 01 
   1261       573.243 DT     02BD Rx 4  00 00 00 00 
   1262       573.809 DT     04E3 Rx 8  03 2F 00 00 00 00 08 00 
   1263       575.251 DT     0139 Rx 1  00 
   1264       575.923 DT     03E2 Rx 8  40 15 80 0A 00 00 04 04 
   1265       576.511 DT     0132 Rx 8  E6 89 F7 FF 26 40 FF 0F 
   1266       577.147 DT     02C1 Rx 8  01 00 00 14 28 70 64 00 
   1267       577.395 DT     0201 Rx 8  04 00 00 00 00 00 00 00 
   1268       577.637 DT     02A7 Rx 8  00 00 00 00 00 84 05 84 
   1269       577.872 DT     02E1 Rx 8  29 0A A3 6A 17 00 00 00 
   1270       578.070 DT     013D Rx 6  02 20 AA 1A FF 02 
   1271       578.318 DT     07A8 Rx 8  1A 1F 00 70 00 00 00 00 
   1272       578.790 DT     02E3 Rx 7  86 0C 00 00 00 00 00 
   1273       579.152 DT     0129 Rx 8  7C 23 4F 20 00 20 FF 3F 
   1274       579.396 DT     02A6 Rx 8  00 00 FF 1F 00 00 00 00 
   1275       579.919 DT     01FB Rx 8  01 FE FF B7 6D 0B 00 00 
   1276       581.179 DT     02C7 Rx 8  00 00 00 00 00 47 48 FF 
   1277       581.427 DT     03DA Rx 8  00 00 00 00 00 00 00 00 
   1278       582.894 DT     04E2 Rx 8  03 20 01 00 00 00 08 00 
   1279       583.136 DT     03F5 Rx 8  00 C8 19 09 00 00 00 00 
   1280       583.368 DT     0221 Rx 8  40 41 05 05 00 50 D1 CF 
   1281       583.518 DT     0113 Rx 3  01 97 01 
   1282       583.752 DT     0228 Rx 8  03 16 54 C8 50 00 F1 A0 
   1283       583.982 DT     023E Rx 8  28 C6 63 95 05 6E B6 4F 
   1284       584.220 DT     0261 Rx 8  03 00 00 00 00 40 F4 78 
   1285       584.464 DT     0263 Rx 8  03 10 20 03 00 00 00 00 
   1286       584.701 DT     0343 Rx 8  00 90 60 1E A2 51 00 00 
   1287       584.945 DT     07FF Rx 8  05 08 A0 40 00 00 00 00 
   1288       585.195 DT     0677 Rx 8  01 FF FF FF FF FF FF 00 
   1289       585.429 DT     0318 Rx 8  16 03 19 0F 11 15 01 83 
   1290       585.657 DT     0458 Rx 7  02 02 00 80 00 00 00 
   1291       586.447 DT     078A Rx 8  01 00 08 00 00 00 51 00 
   1292       586.685 DT     0132 Rx 8  E6 89 F7 FF 28 40 FF 0F 
   1293       586.943 DT     02C4 Rx 8  55 00 02 04 10 80 FF 00 
   1294       587.347 DT     02D2 Rx 8  D9 29 8D 4E 00 00 A1 01 
   1295       587.586 DT     0252 Rx 8  00 00 8C 06 00 00 A0 0F 
   1296       587.822 DT     0212 Rx 8  98 24 D6 0F 02 FF 1F 02 
   1297       588.048 DT     0292 Rx 8  4A 57 4D 75 D4 27 9E 01 
   1298       588.178 DT     02F2 Rx 2  12 01 
   1299       588.427 DT     0204 Rx 8  81 00 00 46 00 00 00 10 
   1300       588.635 DT     0264 Rx 6  3B 00 00 00 A0 00 
   1301       588.833 DT     013D Rx 6  02 20 AA 1A FF 02 
   1302       589.073 DT     0224 Rx 8  04 08 00 40 19 01 10 08 
   1303       589.306 DT     0129 Rx 8  93 24 4F 20 FF 1F FF 3F 
   1304       589.486 DT     02B4 Rx 5  69 AD 25 C7 00 
   1305       589.722 DT     02C1 Rx 8  02 74 C4 57 00 80 02 00 
   1306       589.956 DT     0262 Rx 8  0B 00 D2 0D 00 70 52 12 
   1307       590.196 DT     0282 Rx 8  4D 05 00 01 08 01 7A 02 
   1308       590.444 DT     037A Rx 8  00 00 00 00 00 00 00 00 
   1309       590.684 DT     0381 Rx 8  16 03 00 19 03 12 00 00 
   1310       590.921 DT     03C3 Rx 8  55 55 55 01 00 00 00 00 
   1311       591.161 DT     0201 Rx 8  05 40 18 00 10 79 B5 C1 
   1312       591.395 DT     07B8 Rx 8  F4 B8 63 00 00 00 E0 91 
   1313       592.943 DT     07AA Rx 8  92 08 29 F7 F4 04 21 00 
   1314       593.187 DT     02E1 Rx 8  02 00 00 00 00 00 01 00 
   1315       593.431 DT     0359 Rx 8  0F 00 00 00 1E 00 00 00 
   1316       593.669 DT     039A Rx 8  FC FD FD FD FD FD FD 01 
   1317       593.913 DT     0553 Rx 8  00 00 00 00 00 00 F0 48 
   1318       594.045 DT     02D1 Rx 2  7F 01 
   1319       595.508 DT     06E8 Rx 8  CC 01 00 2C 00 00 00 00 
   1320       596.526 DT     0132 Rx 8  ED 89 F7 FF 28 40 FF 0F 
   1321       596.912 DT     0552 Rx 8  00 00 00 00 00 00 F0 47 
   1322       597.940 DT     013D Rx 6  02 20 AA 1A FF 02 
   1323       598.806 DT     0383 Rx 8  97 00 1E 80 00 00 A0 00 
   1324       599.043 DT     0243 Rx 8  7A 7D A1 0F 00 00 00 00 
   1325       599.279 DT     0129 Rx 8  ED 25 4F 20 00 20 FF 3F 
   1326       599.527 DT     038A Rx 8  00 00 00 00 00 00 00 00 
   1327       599.711 DT     02F3 Rx 5  0C 0C 0B 00 00 
   1328       599.955 DT     0142 Rx 8  01 00 40 0A 00 00 00 00 
   1329       600.193 DT     03A1 Rx 8  2B A0 22 01 00 00 F0 74 
   1330       600.435 DT     0545 Rx 8  01 00 00 00 00 10 F0 4B 
   1331       600.606 DT     022A Rx 4  00 00 19 16 
   1332       601.134 DT     02C1 Rx 8  03 00 40 66 00 00 35 00 
   1333       601.380 DT     0677 Rx 8  02 FF FF FF FF 00 00 00 
   1334       601.622 DT     02E8 Rx 8  C2 00 00 00 00 80 20 4C 
   1335       603.772 DT     0423 Rx 6  00 00 00 00 08 00 
   1336       603.982 DT     0422 Rx 6  80 00 10 00 00 00 
   1337       605.134 DT     0421 Rx 7  00 0A 00 10 00 00 00 
   1338       605.376 DT     0201 Rx 8  3E 73 33 03 00 00 00 00 
   1339       605.618 DT     042A Rx 8  01 90 00 48 00 24 00 02 
   1340       606.515 DT     0132 Rx 8  E2 89 F8 FF 27 40 FF 0F 
   1341       606.757 DT     0372 Rx 8  0F 54 03 00 00 00 00 00 
   1342       607.517 DT     0448 Rx 6  00 00 10 10 00 00 
   1343       607.939 DT     013D Rx 6  02 20 AA 1A FF 02 
   1344       608.807 DT     02C3 Rx 8  00 00 00 A6 01 00 80 69 
   1345       609.127 DT     02E1 Rx 8  03 6C 00 02 2C 45 00 00 
   1346       609.362 DT     0129 Rx 8  9A 26 4F 20 01 20 FF 3F 
   1347       609.726 DT     039D Rx 5  8A 6D 55 28 00 
   1348       609.964 DT     03A2 Rx 8  C9 04 00 00 01 80 21 01 
   1349       610.910 DT     02C2 Rx 8  55 5B A9 06 00 00 12 00 
   1350       611.320 DT     0219 Rx 5  F3 1F FF FF 02 
   1351       612.756 DT     0419 Rx 1  00 
   1352       613.132 DT     02C1 Rx 8  04 CA 03 03 64 C1 39 53 
   1353       613.370 DT     0789 Rx 8  54 09 00 00 00 00 F0 FC 
   1354       613.821 DT     0263 Rx 8  00 EE 0C F3 E4 3F A8 FA 
   1355       614.065 DT     02B3 Rx 8  A2 24 00 00 00 00 00 00 
   1356       615.121 DT     0718 Rx 7  02 FF FF FF FF FF FF 
   1357       616.109 DT     0441 Rx 8  7E C5 44 20 DB 0E 3C 86 
   1358       616.515 DT     0132 Rx 8  E8 89 F8 FF 27 40 FF 0F 
   1359       617.116 DT     0737 Rx 7  02 00 00 00 00 00 00 
   1360       617.350 DT     0261 Rx 8  00 10 28 00 D6 43 00 92 
   1361       617.592 DT     02F9 Rx 8  D0 FB 07 18 00 00 00 00 
   1362       617.836 DT     0677 Rx 8  FB FF FF FF FF FF FF 27 
   1363       618.034 DT     013D Rx 6  02 20 AA 1A FF 02 
   1364       619.134 DT     0201 Rx 8  40 06 19 00 74 43 06 00 
   1365       619.372 DT     0129 Rx 8  20 27 4F 20 00 20 FF 3F 
   1366       619.622 DT     03C8 Rx 8  03 00 00 00 00 00 00 00 
   1367       619.789 DT     0249 Rx 4  28 0B 00 00 
   1368       620.033 DT     02E2 Rx 8  B8 16 00 00 00 00 00 00 
   1369       620.275 DT     03C2 Rx 8  29 55 00 00 00 00 00 00 
   1370       623.423 DT     03F9 Rx 8  02 00 00 00 00 00 00 00 
   1371       623.653 DT     023E Rx 8  28 C6 63 95 01 6E C6 5B 
   1372       623.893 DT     039A Rx 8  FD FD FD FD FD 01 00 00 
   1373       624.048 DT     03D3 Rx 3  00 00 00 
   1374       625.140 DT     02C1 Rx 8  A5 00 00 00 E0 00 00 00 
   1375       625.370 DT     02E1 Rx 8  FC 19 12 4A 9E 16 0A 00 
   1376       625.606 DT     0788 Rx 8  08 D5 A1 63 00 00 00 10 
   1377       626.510 DT     0132 Rx 8  E8 89 F8 FF 27 40 FF 0F 
   1378       626.812 DT     01FA Rx 3  22 C0 01 
   1379       627.936 DT     013D Rx 6  02 20 AA 1A FF 02 
   1380       628.143 DT     02A1 Rx 6  00 00 98 3A 00 00 
   1381       628.393 DT     0381 Rx 8  17 00 00 00 00 00 00 00 
   1382       628.709 DT     0225 Rx 3  05 45 52 
   1383       628.947 DT     0243 Rx 8  FC 7F FF 5F A2 02 41 29 
   1384       629.183 DT     0129 Rx 8  F7 28 4F 20 00 20 FF 3F 
   1385       629.521 DT     0339 Rx 8  00 B1 00 00 00 01 40 0F 
   1386       629.827 DT     0420 Rx 6  28 01 40 4B 00 40 
   1387       630.079 DT     01FB Rx 8  00 FF FF FF FF FF FF FF 
   1388       631.362 DT     0288 Rx 8  03 16 54 88 50 00 01 D0 
   1389       633.119 DT     0201 Rx 8  01 64 64 EA 29 02 96 00 
   1390       633.355 DT     0221 Rx 8  41 01 55 00 00 00 E0 9A 
   1391       633.597 DT     0545 Rx 8  02 00 19 00 00 00 00 65 
   1392       633.809 DT     0283 Rx 6  00 00 00 00 00 00 
   1393       633.937 DT     0242 Rx 2  10 95 
   1394       634.185 DT     0677 Rx 8  04 0F 00 00 00 00 00 00 
   1395       635.381 DT     0719 Rx 8  01 00 00 00 00 00 00 00 
   1396       636.506 DT     0132 Rx 8  E8 89 F8 FF 28 40 FF 0F 
   1397       637.142 DT     02C1 Rx 8  06 00 00 00 40 00 00 00 
   1398       637.390 DT     0798 Rx 8  05 00 00 00 00 00 F0 FD 
   1399       637.940 DT     013D Rx 6  02 20 AA 1A FF 02 
   1400       638.818 DT     03C0 Rx 8  04 00 00 00 00 00 00 00 
   1401       639.144 DT     0129 Rx 8  CB 29 4F 20 FF 1F FF 3F 
   1402       639.925 DT     0282 Rx 8  00 00 00 00 EC F3 F2 24 
   1403       640.627 DT     0409 Rx 1  00 
   1404       640.923 DT     0360 Rx 8  04 00 00 00 00 00 00 00 
   1405       641.171 DT     02E1 Rx 8  05 00 00 00 00 00 00 00 
   1406       641.383 DT     01F9 Rx 6  00 00 00 00 00 00 
   1407       643.307 DT     06C8 Rx 8  01 00 00 00 00 00 00 00 
   1408       643.815 DT     0103 Rx 8  11 30 00 00 96 14 11 02 
   1409       644.046 DT     0263 Rx 8  01 E9 12 F2 E4 3C A5 FA 
   1410       645.758 DT     0400 Rx 7  40 60 E0 BF EF FB 00 
   1411       646.520 DT     0132 Rx 8  EE 89 F8 FF 28 40 FF 0F 
   1412       647.136 DT     0201 Rx 8  2A 0F 20 C0 09 60 15 01 
   1413       647.382 DT     0439 Rx 8  00 00 20 00 00 00 43 02 
   1414       647.916 DT     0102 Rx 8  22 33 00 00 E8 38 11 08 
   1415       648.115 DT     013D Rx 6  02 20 AA 1A FF 02 
   1416       648.827 DT     0123 Rx 8  00 00 48 12 D2 00 00 80 
   1417       649.131 DT     0273 Rx 8  81 A0 30 00 19 02 30 11 
   1418       649.369 DT     0129 Rx 8  7D 2A 4F 20 00 20 FF 3F 
   1419       649.609 DT     02A8 Rx 8  C2 00 00 00 00 80 30 1C 
   1420       649.843 DT     02C1 Rx 8  07 00 14 0D 0E 1D 22 47 
   1421       650.087 DT     0142 Rx 8  28 02 02 00 00 00 00 00 
   1422       650.315 DT     0261 Rx 8  31 48 4D 00 19 4A 1A 84 
   1423       650.565 DT     0340 Rx 8  05 00 00 00 00 00 00 00 
   1424       650.746 DT     039D Rx 5  8B 6E 55 28 00 
   1425       650.976 DT     03A1 Rx 8  68 62 0D 98 00 34 02 3B 
   1426       651.220 DT     0677 Rx 8  05 02 00 28 00 00 00 00 
   1427       653.294 DT     0119 Rx 2  00 00 
   1428       653.532 DT     039A Rx 8  FC FD FD FD FD FD FD 01 
   1429       653.766 DT     03A3 Rx 5  00 D0 00 00 08 
   1430       654.866 DT     0122 Rx 6  00 00 12 12 12 00 
   1431       655.269 DT     0428 Rx 6  00 00 10 10 00 00 
   1432       656.519 DT     0132 Rx 8  EC 89 F8 FF 2B 40 FF 0F 
   1433       656.757 DT     0372 Rx 8  10 00 00 00 00 9A E2 2E 
   1434       657.141 DT     02E1 Rx 8  10 21 04 00 00 00 26 08 
   1435       658.073 DT     013D Rx 6  02 20 AA 1A FF 02 
   1436       658.803 DT     0393 Rx 8  06 00 FC D8 07 C0 1E 20 
   1437       659.032 DT     0243 Rx 8  01 FC 59 59 5E 5E 7A 7A 
   1438       659.270 DT     0129 Rx 8  8C 2B 4F 20 00 20 FF 3F 
   1439       659.910 DT     03A2 Rx 8  00 E0 72 0D 05 80 C6 6C 
   1440       661.100 DT     0241 Rx 7  33 64 DC 0C 19 57 00 
   1441       661.336 DT     0201 Rx 8  03 40 18 00 10 89 F5 C1 
   1442       661.576 DT     02C1 Rx 8  80 0C 32 0B 8B 1F 00 00 
   1443       661.906 DT     0272 Rx 8  06 00 FC E0 07 C0 1E 20 
   1444       663.602 DT     023E Rx 8  28 C6 63 95 01 6E D6 6B 
   1445       663.841 DT     020C Rx 8  00 80 4A 1E 00 B0 07 00 
   1446       665.133 DT     0677 Rx 8  F8 FF FF FF FF FF FF 3F 
   1447       665.365 DT     0718 Rx 7  03 FF FF FF FF FF FF 
   1448       665.605 DT     0797 Rx 8  14 09 00 00 00 00 F0 F9 
   1449       665.899 DT     025B Rx 8  D3 C0 02 00 00 00 E0 D0 
   1450       666.129 DT     0545 Rx 8  40 01 31 D0 A1 10 1A 57 
   1451       666.521 DT     0132 Rx 8  E9 89 F8 FF 2C 40 FF 0F 
   1452       667.133 DT     0381 Rx 8  18 00 00 00 00 00 00 00 
   1453       668.106 DT     031E Rx 8  00 00 00 00 00 00 00 00 
   1454       668.224 DT     041D Rx 1  00 
   1455       668.460 DT     021D Rx 8  2C 20 08 14 80 00 40 10 
   1456       668.696 DT     03E3 Rx 2  00 00 
   1457       668.894 DT     013D Rx 6  02 20 AA 1A FF 02 
   1458       669.066 DT     01F8 Rx 4  22 00 00 00 
   1459       669.299 DT     0129 Rx 8  85 2C 4F 20 FF 1F FF 3F 
   1460       669.531 DT     025D Rx 8  DF 8C 01 C3 44 C1 0A E0 
   1461       669.681 DT     0229 Rx 3  46 00 00 
   1462       669.915 DT     0379 Rx 8  00 00 48 80 9A 19 1A 01 
   1463       670.083 DT     0249 Rx 4  3A 0C 00 00 
   1464       670.315 DT     03C2 Rx 8  00 55 55 55 00 00 55 45 
   1465       670.514 DT     043D Rx 6  02 20 AA 1A FF 02 
   1466       670.764 DT     027D Rx 8  00 00 00 00 00 00 00 00 
   1467       670.934 DT     029D Rx 4  00 00 00 20 
   1468       671.184 DT     054F Rx 8  00 00 00 00 00 00 00 00 
   1469       671.431 DT     075D Rx 8  07 00 FE A8 00 00 00 00 
   1470       671.601 DT     02BD Rx 4  00 00 00 00 
   1471       671.851 DT     03E8 Rx 8  03 00 00 00 00 00 00 00 
   1472       672.005 DT     077D Rx 3  12 00 00 
   1473       672.247 DT     02F1 Rx 8  0A B1 01 00 00 00 00 00 
   1474       672.404 DT     07DD Rx 3  FF 00 01 
   1475       673.136 DT     02C1 Rx 8  01 00 00 14 28 70 64 00 
   1476       673.370 DT     02E1 Rx 8  29 0A A3 6A 17 00 00 00 
   1477       673.826 DT     04E3 Rx 8  04 00 00 00 00 00 00 00 
   1478       674.066 DT     0263 Rx 8  02 00 00 00 EB 0F 00 00 
   1479       675.136 DT     0201 Rx 8  04 00 00 00 00 00 00 00 
   1480       675.254 DT     0139 Rx 1  00 
   1481       675.924 DT     03E2 Rx 8  40 15 80 0A 00 00 04 04 
   1482       676.515 DT     0132 Rx 8  E5 89 F8 FF 27 40 FF 0F 
   1483       677.175 DT     02A7 Rx 8  00 00 00 00 00 84 05 84 
   1484       677.547 DT     07A8 Rx 8  0C D5 A1 63 00 00 40 10 
   1485       677.939 DT     013D Rx 6  02 20 AA 1A FF 02 
   1486       678.783 DT     02E3 Rx 7  F7 D3 4F 3E 25 D3 0F 
   1487       679.143 DT     0129 Rx 8  97 2D 4F 20 FF 1F FF 3F 
   1488       679.387 DT     02A6 Rx 8  00 00 FF 1F 00 00 00 00 
   1489       679.917 DT     01FB Rx 8  01 FE FF B7 6D 0B 00 00 
   1490       681.134 DT     0677 Rx 8  01 FF FF FF FF FF FF 00 
   1491       681.374 DT     02C7 Rx 8  00 00 00 00 00 47 48 FF 
   1492       681.622 DT     03DA Rx 8  00 00 00 00 00 00 00 00 
   1493       682.896 DT     04E2 Rx 8  04 00 12 00 0A 00 00 00 
   1494       683.140 DT     03F5 Rx 8  00 C8 19 09 00 00 00 00 
   1495       683.372 DT     0221 Rx 8  40 41 05 05 00 50 F1 EF 
   1496       683.606 DT     0228 Rx 8  03 16 54 88 50 00 01 70 
   1497       683.832 DT     0261 Rx 8  5E FE 04 BA 8F 5C 25 6B 
   1498       684.066 DT     0343 Rx 8  00 90 5C AE A1 51 00 00 
   1499       684.307 DT     039A Rx 8  FD FD FD FD FD 01 00 00 
   1500       684.555 DT     055A Rx 8  01 00 00 00 00 00 00 00 
   1501       684.783 DT     0405 Rx 8  12 43 33 37 39 34 34 35 
   1502       684.935 DT     0113 Rx 3  01 97 01 
   1503       685.171 DT     02C1 Rx 8  02 74 C4 57 00 80 02 00 
   1504       685.405 DT     07FF Rx 8  01 91 45 44 42 4C 7A 00 
   1505       685.637 DT     0318 Rx 8  16 03 19 0F 11 15 03 85 
   1506       685.865 DT     0458 Rx 7  02 02 00 80 00 00 00 
   1507       686.515 DT     02C4 Rx 8  16 FB 0C 00 00 00 00 01 
   1508       686.745 DT     0132 Rx 8  EA 89 F8 FF 29 40 FF 0F 
   1509       686.997 DT     0204 Rx 8  81 00 00 46 00 00 00 10 
   1510       687.403 DT     037A Rx 8  01 00 00 00 00 00 00 00 
   1511       687.872 DT     0264 Rx 6  3B 00 00 00 A0 00 
   1512       688.070 DT     013D Rx 6  02 20 AA 1A FF 02 
   1513       688.302 DT     02D2 Rx 8  D9 29 8D 4E 00 00 A1 01 
   1514       688.540 DT     0252 Rx 8  00 00 8C 06 00 00 A0 0F 
   1515       688.777 DT     0212 Rx 8  98 24 D6 0F 02 FF 1F 02 
   1516       689.013 DT     0243 Rx 8  7A 7D A1 0F 00 00 00 00 
   1517       689.247 DT     0129 Rx 8  8C 2E 4F 20 01 20 FF 3F 
   1518       689.487 DT     0201 Rx 8  05 40 18 00 10 79 B5 C1 
   1519       689.699 DT     025A Rx 6  00 00 00 00 00 00 
   1520       689.933 DT     0262 Rx 8  0B 00 D2 0D 00 70 52 12 
   1521       690.169 DT     0282 Rx 8  4D 05 00 81 43 01 7A 02 
   1522       690.396 DT     0292 Rx 8  4A 57 4D 75 D4 27 9E 01 
   1523       690.640 DT     02E1 Rx 8  02 00 00 00 00 00 01 00 
   1524       690.770 DT     02F2 Rx 2  12 01 
   1525       690.948 DT     039D Rx 5  8C 6F 55 28 00 
   1526       691.182 DT     03B2 Rx 8  05 0C 1D 00 B1 18 00 00 
   1527       691.422 DT     0224 Rx 8  04 08 00 40 19 01 10 08 
   1528       691.604 DT     02B4 Rx 5  68 AD 25 B3 00 
   1529       691.851 DT     03C3 Rx 8  00 00 00 00 00 45 00 00 
   1530       692.089 DT     076A Rx 8  00 61 4B D8 02 00 00 00 
   1531       692.321 DT     07B8 Rx 8  05 60 59 CE B9 00 F0 D7 
   1532       692.565 DT     078A Rx 8  01 00 00 00 00 00 22 13 
   1533       693.463 DT     0359 Rx 8  00 00 00 00 00 00 00 00 
   1534       693.815 DT     0553 Rx 8  00 00 00 00 00 00 00 58 
   1535       694.023 DT     02D1 Rx 2  7F 01 
   1536       695.516 DT     06E8 Rx 8  01 00 00 00 00 00 00 00 
   1537       696.514 DT     0132 Rx 8  E5 89 F8 FF 26 40 FF 0F 
   1538       696.918 DT     0552 Rx 8  00 00 00 00 00 00 00 57 
   1539       697.158 DT     02C1 Rx 8  03 00 40 66 00 00 35 00 
   1540       697.404 DT     0677 Rx 8  02 FF FF FF FF 00 00 00 
   1541       697.940 DT     013D Rx 6  02 20 AA 1A FF 02 
   1542       698.810 DT     0383 Rx 8  97 00 1E 80 00 00 A0 00 
   1543       699.142 DT     0545 Rx 8  01 00 00 00 00 10 20 7B 
   1544       699.380 DT     0129 Rx 8  D0 2F 4F 20 00 20 FF 3F 
   1545       699.573 DT     0284 Rx 5  10 00 00 00 00 
   1546       699.821 DT     038A Rx 8  01 00 00 00 00 00 00 00 
   1547       700.065 DT     0142 Rx 8  01 00 40 0A 00 00 00 00 
   1548       700.299 DT     03A1 Rx 8  2B A0 22 01 00 00 10 94 
   1549       700.853 DT     022A Rx 4  00 00 19 16 
   1550       701.575 DT     02E8 Rx 8  C2 00 00 00 00 80 30 5C 
   1551       703.121 DT     0201 Rx 8  3E 73 33 03 00 00 00 00 
   1552       703.580 DT     023E Rx 8  28 C6 63 95 01 6E E6 7B 
   1553       703.788 DT     0423 Rx 6  00 00 00 00 08 00 
   1554       704.032 DT     0263 Rx 8  03 10 20 03 00 00 00 00 
   1555       704.268 DT     02B3 Rx 8  03 3C 3C 31 01 00 00 00 
   1556       704.478 DT     0422 Rx 6  80 00 10 00 00 00 
   1557       705.134 DT     0421 Rx 7  00 0A 00 10 00 00 00 
   1558       705.370 DT     02E1 Rx 8  03 6C 00 02 2C 45 00 00 
   1559       705.612 DT     042A Rx 8  01 90 00 48 00 24 00 02 
   1560       706.121 DT     0381 Rx 8  00 1E 56 46 2E 32 A1 40 
   1561       706.519 DT     0132 Rx 8  E9 89 F7 FF 26 40 FF 0F 
   1562       706.767 DT     0372 Rx 8  11 00 00 00 00 00 00 00 
   1563       707.521 DT     0448 Rx 6  00 00 10 10 00 00 
   1564       707.939 DT     013D Rx 6  02 20 AA 1A FF 02 
   1565       708.806 DT     02C3 Rx 8  55 1B A8 36 00 00 12 00 
   1566       709.130 DT     02C1 Rx 8  04 CA 03 03 64 C1 39 53 
   1567       709.368 DT     0129 Rx 8  35 20 4F 20 00 20 FF 3F 
