;$FILEVERSION=2.0
;$STARTTIME=44637.6812808912
;$COLUMNS=N,O,T,I,d,l,D
;
;   C:\Users\bayerld\Documents\Tesla\20220317-vehiclecan-licht-app.trc
;   Start time: 17.03.2022 16:21:02.669.0
;   Generated by PCAN-View v4.2.5.569
;-------------------------------------------------------------------------------
;   Connection                 Bit rate
;   PCANLight_USB_16@pcan_usb  500 kBit/s
;-------------------------------------------------------------------------------
;   Message   Time    Type ID     Rx/Tx
;   Number    Offset  |    [hex]  |  Data Length
;   |         [ms]    |    |      |  |  Data [hex] ...
;   |         |       |    |      |  |  |
;---+-- ------+------ +- --+----- +- +- +- +- -- -- -- -- -- -- --
      1         0.527 DT     01FB Rx 8  01 FE FF B7 6D 0B 00 00 
      2         0.769 DT     02A7 Rx 8  00 00 00 00 00 84 05 84 
      3         1.009 DT     0129 Rx 8  7C 23 4F 20 00 20 FF 3F 
      4         2.023 DT     03DA Rx 8  00 00 00 00 00 00 00 00 
      5         2.349 DT     0623 Rx 8  22 98 F1 7B 37 00 1B 3C 
      6         2.670 DT     02A6 Rx 8  00 00 FF 1F 00 00 00 00 
      7         3.516 DT     04E2 Rx 8  01 6C 07 00 00 00 08 00 
      8         3.792 DT     03F5 Rx 8  00 C8 19 09 00 00 00 00 
      9         4.024 DT     0221 Rx 8  40 41 05 05 00 50 D1 CF 
     10         4.256 DT     0228 Rx 8  03 16 54 88 50 00 F1 60 
     11         4.490 DT     0343 Rx 8  00 90 5C AE A1 36 00 00 
     12         4.730 DT     02C7 Rx 8  00 00 00 00 00 47 48 FF 
     13         4.970 DT     039A Rx 8  FD FD FD FD FD 01 00 00 
     14         5.133 DT     0528 Rx 4  62 33 51 DF 
     15         5.251 DT     03ED Rx 1  00 
     16         5.501 DT     055A Rx 8  01 00 00 00 00 00 00 00 
     17         5.729 DT     0405 Rx 8  12 43 33 37 39 34 34 35 
     18         5.959 DT     023E Rx 8  28 C6 63 95 01 6E B6 4B 
     19         6.109 DT     0113 Rx 3  01 97 01 
     20         6.343 DT     02C1 Rx 8  07 00 14 0D 0E 1D 22 47 
     21         6.587 DT     0677 Rx 8  05 02 00 28 00 00 00 00 
     22         6.822 DT     07FF Rx 8  01 91 45 44 42 4C 7A 00 
     23         7.056 DT     0318 Rx 8  16 03 03 0F 11 15 01 6D 
     24         7.284 DT     0458 Rx 7  02 02 00 80 00 00 00 
     25         7.516 DT     0132 Rx 8  E5 89 F8 FF 27 40 FF 0F 
     26         7.766 DT     0320 Rx 8  01 00 00 08 00 00 00 00 
     27         7.918 DT     0666 Rx 3  00 00 A0 
     28         8.166 DT     037A Rx 8  01 00 00 00 00 00 00 00 
     29         8.399 DT     0772 Rx 8  01 2A 6E 0A B0 09 E8 08 
     30         8.629 DT     07F1 Rx 7  01 00 00 00 00 00 00 
     31         8.827 DT     013D Rx 6  02 20 AA 1A FF 02 
     32         9.059 DT     02D2 Rx 8  D9 29 8D 4E 00 00 A1 01 
     33         9.297 DT     0252 Rx 8  00 00 8C 06 00 00 A0 0F 
     34         9.534 DT     0212 Rx 8  98 24 DE 0F 02 FF 1F 02 
     35         9.770 DT     0243 Rx 8  7A 7D A1 0F 00 00 00 00 
     36         9.996 DT     0292 Rx 8  4A 57 4D 75 D4 27 9E 01 
     37        10.126 DT     02F2 Rx 2  12 01 
     38        10.362 DT     03C3 Rx 8  55 55 55 01 00 00 00 00 
     39        10.596 DT     0262 Rx 8  0B 00 D2 0D 00 70 52 12 
     40        10.828 DT     0129 Rx 8  93 24 4F 20 FF 1F FF 3F 
     41        11.067 DT     0282 Rx 8  4D 05 00 01 3B 01 7A 02 
     42        11.301 DT     07B8 Rx 8  EC 98 63 00 00 00 E0 69 
     43        11.539 DT     076A Rx 8  00 61 4B D8 02 00 00 00 
     44        11.781 DT     0201 Rx 8  01 64 64 EA 29 02 96 00 
     45        12.019 DT     02C4 Rx 8  03 01 14 E0 00 0C 40 00 
     46        12.808 DT     0204 Rx 8  81 00 00 46 00 00 00 10 
     47        13.024 DT     0264 Rx 6  3B 00 00 00 A0 00 
     48        13.526 DT     0224 Rx 8  04 08 00 40 19 01 10 08 
     49        13.762 DT     0623 Rx 8  23 F9 07 00 0A FE 98 F2 
     50        14.004 DT     02E1 Rx 8  10 21 04 00 00 00 26 08 
     51        14.248 DT     0359 Rx 8  0F 00 00 00 1E 00 00 00 
     52        14.478 DT     0545 Rx 8  80 01 31 80 A1 0B 8A B2 
     53        14.722 DT     0553 Rx 8  00 00 00 00 00 00 F0 48 
     54        14.855 DT     02D1 Rx 2  7F 01 
     55        15.087 DT     07AA Rx 8  16 04 D0 86 80 DA AF 02 
     56        15.265 DT     02B4 Rx 5  69 AD 25 C3 00 
     57        15.511 DT     078A Rx 8  01 00 00 00 00 00 28 13 
     58        15.953 DT     06E8 Rx 8  CC 01 00 2C 00 00 00 00 
     59        17.410 DT     0132 Rx 8  E7 89 F7 FF 26 40 FF 0F 
     60        17.654 DT     0552 Rx 8  00 00 00 00 00 00 F0 47 
     61        17.894 DT     02C1 Rx 8  80 0C 32 0B 8B 1F 00 00 
     62        18.752 DT     013D Rx 6  02 20 AA 1A FF 02 
     63        19.368 DT     0383 Rx 8  97 00 1E 80 00 00 A0 00 
     64        19.792 DT     03A1 Rx 8  2B A0 22 01 00 00 F0 74 
     65        20.040 DT     038A Rx 8  01 00 00 00 00 00 00 00 
     66        20.530 DT     0142 Rx 8  01 00 40 0A 00 00 00 00 
     67        20.809 DT     0129 Rx 8  84 25 4F 20 FF 1F FF 3F 
     68        21.787 DT     0677 Rx 8  F8 FF FF FF FF FF FF 3F 
     69        22.029 DT     02E8 Rx 8  C2 00 00 00 00 80 20 4C 
     70        22.201 DT     0453 Rx 4  00 00 00 00 
     71        22.371 DT     022A Rx 4  00 00 19 16 
     72        22.563 DT     0284 Rx 5  10 00 00 00 00 
     73        23.793 DT     0381 Rx 8  17 00 00 00 00 00 00 00 
     74        24.334 DT     0423 Rx 6  00 00 00 00 08 00 
     75        24.564 DT     0263 Rx 8  01 E9 12 F2 E4 3C A5 FA 
     76        24.790 DT     02B3 Rx 8  06 D2 29 E3 D6 40 A2 D3 
     77        25.000 DT     0422 Rx 6  80 00 10 00 00 00 
     78        25.230 DT     0623 Rx 8  24 B1 36 EE 1B 35 F8 F2 
     79        25.790 DT     0421 Rx 7  00 0A 00 10 00 00 00 
     80        26.030 DT     0201 Rx 8  2A 0F 20 C0 09 60 11 01 
     81        26.272 DT     042A Rx 8  01 90 00 48 00 24 00 02 
     82        27.404 DT     0132 Rx 8  E5 89 F8 FF 28 40 FF 0F 
     83        27.645 DT     0372 Rx 8  07 00 08 00 7E 48 11 00 
     84        27.925 DT     0448 Rx 6  00 00 10 10 00 00 
     85        28.749 DT     013D Rx 6  02 20 AA 1A FF 02 
     86        29.369 DT     02C3 Rx 8  00 00 00 A6 01 00 80 69 
     87        29.787 DT     02C1 Rx 8  01 00 00 14 28 70 64 00 
     88        30.021 DT     02E1 Rx 8  29 0A A3 6A 17 00 00 00 
     89        30.531 DT     03A2 Rx 8  C5 04 00 00 02 80 21 01 
     90        30.774 DT     0261 Rx 8  31 48 49 00 16 4A 9A FD 
     91        31.010 DT     0129 Rx 8  37 26 4F 20 00 20 FF 3F 
     92        31.534 DT     02C2 Rx 8  55 5B A9 06 00 00 12 00 
     93        31.714 DT     039D Rx 5  8A 6D 55 28 00 
     94        31.976 DT     0219 Rx 5  04 74 74 00 00 
     95        33.762 DT     0789 Rx 8  54 09 00 00 00 00 F0 FC 
     96        33.878 DT     0419 Rx 1  00 
     97        34.116 DT     039A Rx 8  FC FD FD FD FD FD FD 01 
     98        35.716 DT     0623 Rx 8  25 00 08 FE 99 F1 7B 37 
     99        35.947 DT     0718 Rx 7  04 FF FF 00 00 00 00 
    100        36.399 DT     0744 Rx 1  00 
    101        36.763 DT     0441 Rx 8  7F C5 44 20 DB 0E 3C 87 
    102        37.413 DT     0132 Rx 8  E6 89 F8 FF 28 40 FF 0F 
    103        37.791 DT     0321 Rx 8  F8 D9 A7 7B 02 7A 00 93 
    104        38.041 DT     0677 Rx 8  01 FF FF FF FF FF FF 00 
    105        38.287 DT     02F9 Rx 8  D0 FB 07 08 00 00 00 00 
    106        38.750 DT     013D Rx 6  02 20 AA 1A FF 02 
    107        39.362 DT     0243 Rx 8  FC 7F FF 5F A2 02 41 29 
    108        39.792 DT     03C8 Rx 8  01 00 00 00 00 00 00 00 
    109        40.028 DT     0201 Rx 8  03 40 18 00 10 89 F5 C1 
    110        40.534 DT     02E2 Rx 8  C8 16 00 00 00 00 00 00 
    111        40.776 DT     03C2 Rx 8  29 55 00 00 00 00 00 00 
    112        41.014 DT     0129 Rx 8  20 27 4F 20 00 20 FF 3F 
    113        41.193 DT     0249 Rx 4  28 0B 00 00 
    114        41.811 DT     02C1 Rx 8  02 74 C4 57 00 80 02 00 
    115        44.062 DT     03F9 Rx 8  00 00 00 00 00 00 00 00 
    116        44.262 DT     0743 Rx 1  00 
    117        45.126 DT     023E Rx 8  28 C6 63 95 05 6E C6 5F 
    118        45.786 DT     02E1 Rx 8  02 00 00 00 00 00 01 00 
    119        46.030 DT     0788 Rx 8  01 00 00 00 FF A1 08 00 
    120        46.744 DT     0623 Rx 8  26 00 1B 2E F8 DC 00 06 
    121        46.986 DT     0545 Rx 8  01 00 00 00 00 10 90 EB 
    122        47.415 DT     0132 Rx 8  EB 89 F7 FF 27 40 FF 0F 
    123        47.565 DT     01FA Rx 3  22 C0 01 
    124        48.733 DT     02A1 Rx 6  00 00 98 3A 00 00 
    125        48.931 DT     013D Rx 6  02 20 AA 1A FF 02 
    126        49.271 DT     0225 Rx 3  05 45 52 
    127        50.165 DT     0339 Rx 8  00 B1 00 00 00 01 40 0F 
    128        50.541 DT     01FB Rx 8  00 FF FF FF FF FF FF FF 
    129        50.812 DT     0129 Rx 8  F7 28 4F 20 00 20 FF 3F 
    130        51.014 DT     0420 Rx 6  28 01 40 4B 00 40 
    131        51.836 DT     0288 Rx 8  03 16 54 88 50 00 01 D0 
    132        53.786 DT     02C1 Rx 8  03 00 40 66 00 00 35 00 
    133        54.034 DT     0201 Rx 8  04 00 00 00 00 00 00 00 
    134        54.270 DT     0221 Rx 8  41 01 55 00 00 00 E0 9A 
    135        54.515 DT     0263 Rx 8  02 00 00 00 6B 10 00 00 
    136        54.643 DT     0242 Rx 2  10 95 
    137        54.855 DT     0283 Rx 6  00 00 00 00 00 00 
    138        55.101 DT     0677 Rx 8  02 FF FF FF FF 00 00 00 
    139        56.025 DT     0719 Rx 8  01 00 00 00 00 00 00 00 
    140        57.405 DT     0132 Rx 8  D9 89 F8 FF 26 40 FF 0F 
    141        57.791 DT     0798 Rx 8  05 00 00 00 00 00 F0 FD 
    142        58.071 DT     0623 Rx 8  27 FE 99 F0 FF 37 00 1B 
    143        58.742 DT     013D Rx 6  02 20 AA 1A FF 02 
    144        59.378 DT     03C0 Rx 8  05 00 00 00 00 00 00 00 
    145        60.532 DT     0282 Rx 8  00 00 00 00 EC F3 F2 24 
    146        60.812 DT     0129 Rx 8  A2 29 4F 20 00 20 FF 3F 
    147        61.540 DT     0360 Rx 8  05 00 00 00 00 00 00 00 
    148        61.662 DT     0409 Rx 1  00 
    149        61.900 DT     02E1 Rx 8  03 6C 00 02 2C 44 00 00 
    150        62.112 DT     01F9 Rx 6  00 00 00 00 00 00 
    151        62.803 DT     0381 Rx 8  18 00 00 00 00 00 00 00 
    152        63.769 DT     06C8 Rx 8  01 00 00 00 00 00 00 00 
    153        63.997 DT     0261 Rx 8  5E FE 04 BA 8F 5C A5 EB 
    154        64.237 DT     039A Rx 8  FD FD FD FD FD 01 00 00 
    155        64.473 DT     0103 Rx 8  11 30 00 00 96 12 11 02 
    156        65.783 DT     02C1 Rx 8  04 CA 03 03 64 C1 39 53 
    157        66.785 DT     0400 Rx 7  40 60 E0 BF EF FB 00 
    158        67.418 DT     0132 Rx 8  DD 89 F7 FF 26 40 FF 0F 
    159        67.794 DT     0201 Rx 8  05 40 18 00 10 79 B5 C1 
    160        68.038 DT     0439 Rx 8  00 00 20 00 00 00 43 02 
    161        68.536 DT     0102 Rx 8  22 33 00 00 E8 38 11 08 
    162        68.744 DT     013D Rx 6  02 20 AA 1A FF 02 
    163        69.386 DT     0123 Rx 8  00 00 48 12 D2 00 00 80 
    164        69.614 DT     0243 Rx 8  01 FC 59 59 5E 5E 7A 7A 
    165        69.854 DT     02A8 Rx 8  C2 00 00 00 00 80 30 1C 
    166        70.085 DT     03A1 Rx 8  68 62 0D 98 00 34 02 3B 
    167        70.329 DT     0677 Rx 8  FB FF FF FF FF FF FF 27 
    168        70.573 DT     0142 Rx 8  28 02 02 00 00 00 00 00 
    169        70.811 DT     0285 Rx 8  61 02 86 01 01 00 20 00 
    170        71.047 DT     0129 Rx 8  D0 2A 4F 20 01 20 FF 3F 
    171        71.295 DT     0340 Rx 8  06 00 00 00 00 00 00 00 
    172        71.427 DT     03D8 Rx 2  72 01 
    173        71.665 DT     0353 Rx 8  7B 0F 39 80 02 0E F8 FB 
    174        72.114 DT     039D Rx 5  8B 6E 55 28 00 
    175        72.376 DT     0623 Rx 8  28 27 F8 C5 00 04 FE 9A 
    176        73.930 DT     0119 Rx 2  00 00 
    177        74.328 DT     03A3 Rx 5  00 D0 00 00 08 
    178        75.484 DT     0122 Rx 6  00 00 12 12 12 00 
    179        75.730 DT     0428 Rx 6  00 00 10 10 00 00 
    180        77.406 DT     0132 Rx 8  EA 89 F8 FF 26 40 FF 0F 
    181        77.653 DT     0372 Rx 8  08 00 00 00 00 00 00 00 
    182        77.895 DT     02C1 Rx 8  A5 00 00 00 E0 00 00 00 
    183        78.125 DT     02E1 Rx 8  FC 19 12 2A 9E 0D 0A 00 
    184        78.369 DT     0319 Rx 8  0B 03 01 00 01 00 00 00 
    185        78.753 DT     013D Rx 6  02 20 AA 1A FF 02 
    186        79.365 DT     0393 Rx 8  06 00 FC D8 07 C0 1E 20 
    187        79.783 DT     0545 Rx 8  02 00 24 00 00 00 A0 10 
    188        80.529 DT     03A2 Rx 8  00 C0 72 0F 05 00 C6 6C 
    189        80.814 DT     0129 Rx 8  8C 2B 4F 20 00 20 FF 3F 
    190        81.770 DT     0241 Rx 7  32 64 9C 0C 19 57 00 
    191        82.012 DT     0201 Rx 8  3E 73 33 03 00 00 00 00 
    192        82.630 DT     0272 Rx 8  06 00 FD E8 07 C0 1E 20 
    193        83.818 DT     0623 Rx 8  29 F3 2C 37 00 1B 20 F8 
    194        84.152 DT     043B Rx 8  03 7F 00 FF 00 00 00 00 
    195        84.394 DT     03DB Rx 8  05 0E 00 0E 00 00 00 00 
    196        84.632 DT     020C Rx 8  00 80 4A 1E 00 B0 07 00 
    197        84.877 DT     0263 Rx 8  03 10 20 03 00 00 00 00 
    198        85.235 DT     023E Rx 8  28 C6 63 95 01 6E D6 6B 
    199        85.901 DT     0677 Rx 8  04 0F 00 00 00 00 00 00 
    200        86.129 DT     0718 Rx 7  00 7F 7F 7F FF FF FF 
    201        86.369 DT     0797 Rx 8  14 09 00 00 00 00 F0 F9 
    202        87.115 DT     025B Rx 8  D3 C0 02 00 00 00 E0 D0 
    203        87.507 DT     0132 Rx 8  E1 89 F7 FF 27 40 FF 0F 
    204        88.893 DT     075D Rx 8  07 00 FE A8 00 00 00 00 
    205        89.130 DT     021D Rx 8  2C 20 08 14 80 00 40 10 
    206        89.328 DT     013D Rx 6  02 20 AA 1A FF 02 
    207        89.464 DT     03E3 Rx 2  00 00 
    208        89.636 DT     01F8 Rx 4  22 00 00 00 
    209        89.869 DT     025D Rx 8  DF 8C 01 C3 44 C1 0A E0 
    210        90.119 DT     02C1 Rx 8  06 00 00 00 40 00 00 00 
    211        90.353 DT     0379 Rx 8  00 00 48 80 9A 19 1A 01 
    212        90.471 DT     041D Rx 1  00 
    213        90.721 DT     027D Rx 8  00 00 00 00 00 00 00 00 
    214        90.955 DT     0129 Rx 8  EC 2C 4F 20 00 20 FF 3F 
    215        91.188 DT     03C2 Rx 8  00 55 55 55 00 00 55 45 
    216        91.338 DT     0229 Rx 3  46 00 00 
    217        91.536 DT     043D Rx 6  02 20 AA 1A FF 02 
    218        91.704 DT     0249 Rx 4  3A 0C 00 00 
    219        91.874 DT     029D Rx 4  00 00 00 20 
    220        92.044 DT     02BD Rx 4  00 00 00 00 
    221        92.299 DT     03E8 Rx 8  01 00 00 00 00 00 00 00 
    222        92.549 DT     054F Rx 8  00 00 00 00 00 00 00 00 
    223        92.703 DT     077D Rx 3  12 00 00 
    224        92.933 DT     02F1 Rx 8  02 11 17 81 46 00 AC 7F 
    225        93.089 DT     07DD Rx 3  FF 00 01 
    226        93.884 DT     02E1 Rx 8  05 00 00 00 00 00 00 00 
    227        94.204 DT     039A Rx 8  FC FD FD FD FD FD FD 01 
    228        94.478 DT     04E3 Rx 8  02 13 07 00 00 00 08 00 
    229        94.836 DT     0623 Rx 8  2A AC 00 02 FE 9A F3 A8 
    230        95.882 DT     0201 Rx 8  40 06 19 00 70 43 06 00 
    231        96.000 DT     0139 Rx 1  00 
    232        96.645 DT     03E2 Rx 8  40 15 80 0A 00 00 04 04 
    233        96.883 DT     0261 Rx 8  03 00 00 00 00 40 B4 38 
    234        97.510 DT     0132 Rx 8  E3 89 F7 FF 26 40 FF 0F 
    235        98.074 DT     07A8 Rx 8  01 00 00 00 FF A1 08 00 
    236        98.846 DT     013D Rx 6  02 20 AA 1A FF 02 
    237        99.448 DT     02E3 Rx 7  94 D2 60 00 10 06 00 
    238        99.684 DT     0243 Rx 8  7A 7D A1 0F 00 00 00 00 
    239       100.632 DT     01FB Rx 8  01 FE FF B7 6D 0B 00 00 
    240       100.874 DT     02A7 Rx 8  00 00 00 00 00 84 05 84 
    241       101.111 DT     0129 Rx 8  FE 2D 4F 20 00 20 FF 3F 
    242       101.897 DT     02C1 Rx 8  07 00 14 0D 0E 1D 22 47 
    243       102.129 DT     0381 Rx 8  00 1E 56 46 2E 32 A1 40 
    244       102.377 DT     03DA Rx 8  00 00 00 00 00 00 00 00 
    245       102.621 DT     0677 Rx 8  05 02 00 28 00 00 00 00 
    246       102.865 DT     02A6 Rx 8  00 00 FF 1F 00 00 00 00 
    247       103.617 DT     04E2 Rx 8  02 69 00 01 00 00 08 00 
    248       103.897 DT     03F5 Rx 8  00 C8 19 09 00 00 00 00 
    249       104.047 DT     0113 Rx 3  01 97 01 
    250       104.279 DT     0221 Rx 8  40 41 05 05 00 50 F1 EF 
    251       104.514 DT     0228 Rx 8  03 16 54 88 50 00 01 70 
    252       104.750 DT     0343 Rx 8  00 90 64 7E A1 51 00 00 
    253       104.990 DT     02C7 Rx 8  00 00 00 00 00 47 48 FF 
    254       105.222 DT     07FF Rx 8  02 5F 4E AC DE CD D6 30 
    255       105.460 DT     0318 Rx 8  16 03 03 0F 11 15 03 6F 
    256       105.688 DT     0458 Rx 7  02 02 00 80 00 00 00 
    257       105.920 DT     0623 Rx 8  2B 37 00 1B 19 F8 92 00 
    258       107.513 DT     0132 Rx 8  E2 89 F8 FF 28 40 FF 0F 
    259       108.145 DT     037A Rx 8  02 00 00 00 00 00 00 00 
    260       108.847 DT     013D Rx 6  02 20 AA 1A FF 02 
    261       109.079 DT     02D2 Rx 8  D9 29 8D 4E 00 00 A1 01 
    262       109.317 DT     0252 Rx 8  00 00 8C 06 00 00 A0 0F 
    263       109.554 DT     0212 Rx 8  98 24 DE 0F 02 FF 1F 02 
    264       109.780 DT     0292 Rx 8  4A 57 4D 75 D4 27 9E 01 
    265       110.012 DT     0201 Rx 8  01 64 64 EA 29 02 96 00 
    266       110.254 DT     02E1 Rx 8  10 21 04 00 00 00 26 08 
    267       110.384 DT     02F2 Rx 2  12 01 
    268       110.630 DT     03C3 Rx 8  00 00 00 00 00 45 00 00 
    269       110.864 DT     0262 Rx 8  0B 00 D2 0D 00 70 52 12 
    270       111.103 DT     0129 Rx 8  21 2E 4F 20 00 20 FF 3F 
    271       111.339 DT     0282 Rx 8  4D 05 00 81 31 01 7A 02 
    272       111.587 DT     03AA Rx 8  00 00 00 00 00 00 00 00 
    273       111.823 DT     0310 Rx 8  0D 03 00 00 CE 5B 98 36 
    274       112.001 DT     039D Rx 5  8C 6F 55 28 00 
    275       112.231 DT     07B8 Rx 8  05 40 59 CE 8D 00 F0 8B 
    276       112.632 DT     02C4 Rx 8  04 00 00 00 00 24 59 4B 
    277       112.870 DT     0545 Rx 8  40 01 31 90 A1 0D BA B4 
    278       113.118 DT     0204 Rx 8  81 00 00 46 00 00 00 10 
    279       113.450 DT     0264 Rx 6  3B 00 00 00 A0 00 
    280       113.886 DT     02C1 Rx 8  80 0C 32 0B 8B 1F 00 00 
    281       114.127 DT     0224 Rx 8  04 08 00 40 19 01 10 08 
    282       114.377 DT     0359 Rx 8  00 00 00 00 00 00 00 00 
    283       114.613 DT     0263 Rx 8  00 EE 0C F3 E4 3F A8 FA 
    284       114.847 DT     02B3 Rx 8  07 DF DC EA E9 F3 F0 D3 
    285       115.027 DT     02B4 Rx 5  69 AD 25 C6 00 
    286       115.159 DT     02D1 Rx 2  7F 01 
    287       115.390 DT     03C4 Rx 8  19 31 31 33 35 35 35 38 
    288       115.636 DT     0553 Rx 8  00 00 00 00 00 00 00 58 
    289       115.876 DT     07AA Rx 8  07 F6 FF F6 FF F0 FF 00 
    290       116.126 DT     06E8 Rx 8  01 00 00 00 00 00 00 00 
    291       116.372 DT     078A Rx 8  01 00 01 00 00 00 03 0D 
    292       116.846 DT     0623 Rx 8  2C 00 FE 99 F0 C1 37 00 
    293       117.514 DT     0132 Rx 8  E6 89 F8 FF 27 40 FF 0F 
    294       117.761 DT     0552 Rx 8  00 00 00 00 00 00 00 57 
    295       118.005 DT     0677 Rx 8  F8 FF FF FF FF FF FF 3F 
    296       118.853 DT     013D Rx 6  02 20 AA 1A FF 02 
    297       119.471 DT     0383 Rx 8  97 00 1E 80 00 00 A0 00 
    298       119.887 DT     03A1 Rx 8  2B A0 22 01 00 00 10 94 
    299       120.133 DT     038A Rx 8  03 00 00 00 00 00 00 00 
    300       120.635 DT     0142 Rx 8  01 00 40 0A 00 00 00 00 
    301       120.870 DT     0313 Rx 8  02 64 64 01 00 00 D0 B1 
    302       121.108 DT     0129 Rx 8  D0 2F 4F 20 00 20 FF 3F 
    303       121.338 DT     02D3 Rx 8  F5 00 A3 02 13 F0 0C 54 
    304       121.580 DT     0285 Rx 8  02 D3 00 00 00 00 0E 00 
    305       122.066 DT     02E8 Rx 8  C2 00 00 00 00 80 30 5C 
    306       122.388 DT     022A Rx 4  00 00 19 16 
    307       123.890 DT     0201 Rx 8  2A 0F 20 C0 09 60 11 01 
    308       124.182 DT     039A Rx 8  FD FD FD FD FD 01 00 00 
    309       124.439 DT     0423 Rx 6  00 00 00 00 08 00 
    310       124.649 DT     0422 Rx 6  80 00 10 00 00 00 
    311       125.229 DT     023E Rx 8  28 C6 63 95 01 6E E6 7B 
    312       125.889 DT     0421 Rx 7  00 0A 00 10 00 00 00 
    313       126.129 DT     02C1 Rx 8  01 00 00 14 28 70 64 00 
    314       126.363 DT     02E1 Rx 8  29 0A A3 6A 17 00 00 00 
    315       126.605 DT     042A Rx 8  01 90 00 48 00 24 00 02 
    316       127.508 DT     0132 Rx 8  E7 89 F8 FF 28 40 FF 0F 
    317       127.754 DT     0372 Rx 8  09 00 00 00 00 00 00 00 
    318       128.030 DT     0448 Rx 6  00 00 10 10 00 00 
    319       128.266 DT     0623 Rx 8  2D 1B 13 F8 78 FF FE FE 
    320       128.848 DT     013D Rx 6  02 20 AA 1A FF 02 
    321       129.468 DT     02C3 Rx 8  55 1B A8 36 00 00 12 00 
    322       129.706 DT     0243 Rx 8  FC 7F FF 5F A2 02 41 29 
    323       129.938 DT     0261 Rx 8  00 10 2B 00 D6 43 C0 55 
    324       130.641 DT     03A2 Rx 8  C7 04 00 00 01 80 21 01 
    325       130.913 DT     0129 Rx 8  35 20 4F 20 00 20 FF 3F 
    326       131.635 DT     02C2 Rx 8  00 00 00 97 01 00 C0 65 
    327       132.067 DT     07E8 Rx 8  0B 2D 01 01 00 01 00 00 
    328       132.257 DT     0219 Rx 5  F0 1F FF FF 00 
    329       133.871 DT     0789 Rx 8  54 09 00 00 00 00 00 0C 
    330       133.987 DT     0419 Rx 1  00 
    331       134.237 DT     0677 Rx 8  01 FF FF FF FF FF FF 00 
    332       135.869 DT     0718 Rx 7  01 FF FF FF FF FF 00 
    333       136.874 DT     0441 Rx 8  7D C5 44 20 DB 0E 00 49 
    334       137.516 DT     0132 Rx 8  E2 89 F8 FF 26 40 FF 0F 
    335       137.900 DT     02C1 Rx 8  02 74 C4 57 00 80 02 00 
    336       138.136 DT     0201 Rx 8  03 40 18 00 10 89 F5 C1 
    337       138.378 DT     02F9 Rx 8  D0 FB 07 10 00 00 00 00 
    338       138.849 DT     013D Rx 6  02 20 AA 1A FF 02 
    339       139.895 DT     03C8 Rx 8  02 00 00 00 00 00 00 00 
    340       140.641 DT     03C2 Rx 8  29 55 00 00 00 00 00 00 
    341       140.899 DT     0381 Rx 8  01 00 00 70 47 44 44 04 
    342       141.135 DT     0129 Rx 8  22 21 4F 20 00 20 FF 3F 
    343       141.313 DT     0249 Rx 4  13 0D 00 00 
    344       141.927 DT     02E1 Rx 8  02 00 00 00 00 00 01 00 
    345       142.367 DT     0623 Rx 8  2E 99 F3 6A 36 EE 1B 0C 
    346       144.168 DT     03F9 Rx 8  01 00 00 00 00 00 00 00 
    347       144.502 DT     0263 Rx 8  01 E9 12 F2 E4 3C A5 FA 
    348       145.874 DT     0788 Rx 8  02 1F 00 00 00 00 00 00 
    349       146.116 DT     0545 Rx 8  01 00 00 00 00 10 C0 1B 
    350       147.512 DT     0132 Rx 8  E3 89 F7 FF 27 40 FF 0F 
    351       147.662 DT     01FA Rx 3  22 C0 01 
    352       148.845 DT     02A1 Rx 6  00 00 98 3A 00 00 
    353       149.043 DT     013D Rx 6  02 20 AA 1A FF 02 
    354       149.374 DT     0225 Rx 3  05 45 52 
    355       149.904 DT     02C1 Rx 8  03 00 40 66 00 00 35 00 
    356       150.150 DT     0677 Rx 8  02 FF FF FF FF 00 00 00 
    357       150.396 DT     0339 Rx 8  00 B1 00 00 00 01 40 0F 
    358       150.648 DT     01FB Rx 8  00 FF FF FF FF FF FF FF 
    359       150.909 DT     0129 Rx 8  6B 22 4F 20 00 20 FF 3F 
    360       151.111 DT     0420 Rx 6  28 01 40 4B 00 50 
    361       151.909 DT     0201 Rx 8  04 00 00 00 00 00 00 00 
    362       152.143 DT     0288 Rx 8  03 16 54 88 50 00 11 E0 
    363       152.327 DT     039D Rx 5  7D 60 55 28 00 
    364       153.817 DT     0623 Rx 8  2F F8 5C FF FB FE 98 F2 
    365       154.055 DT     0221 Rx 8  41 01 55 00 00 00 00 BA 
    366       154.293 DT     039A Rx 8  FC FD FD FD FD FD FD 01 
    367       154.505 DT     0283 Rx 6  00 00 00 00 00 00 
    368       154.634 DT     0242 Rx 2  10 95 
    369       156.130 DT     0719 Rx 8  00 94 52 00 00 00 00 00 
    370       157.508 DT     0132 Rx 8  E1 89 F8 FF 29 40 FF 0F 
    371       157.886 DT     02E1 Rx 8  03 6C 00 02 2C 44 00 00 
    372       158.128 DT     0798 Rx 8  9E 01 00 00 00 00 00 A7 
    373       158.844 DT     013D Rx 6  02 20 AA 1A FF 02 
    374       159.484 DT     03C0 Rx 8  06 00 00 00 00 00 00 00 
    375       159.713 DT     0243 Rx 8  01 FC 59 59 5E 5E 7A 7A 
    376       160.637 DT     0282 Rx 8  00 00 00 00 EC F3 F2 24 
    377       160.915 DT     0129 Rx 8  7C 23 4F 20 00 20 FF 3F 
    378       161.645 DT     0360 Rx 8  06 00 00 00 00 00 00 00 
    379       161.773 DT     0409 Rx 1  00 
    380       162.009 DT     02C1 Rx 8  04 CA 03 03 64 C1 39 53 
    381       162.221 DT     01F9 Rx 6  00 00 00 00 00 00 
    382       162.891 DT     0261 Rx 8  31 48 27 00 12 4A DA 17 
    383       163.885 DT     06C8 Rx 8  CC 01 00 2C 00 00 00 00 
    384       164.483 DT     0103 Rx 8  11 30 00 00 96 14 11 02 
    385       164.842 DT     0623 Rx 8  20 73 36 EE 1B 01 F8 64 
    386       165.218 DT     023E Rx 8  28 C6 63 95 01 6E F6 8B 
    387       165.892 DT     0201 Rx 8  05 40 18 00 10 79 B5 C1 
    388       166.136 DT     0677 Rx 8  FB FF FF FF FF FF FF 27 
    389       166.834 DT     0400 Rx 7  40 60 E0 BF EF FB 00 
    390       167.522 DT     0132 Rx 8  E0 89 F8 FF 28 40 FF 0F 
    391       167.992 DT     0410 Rx 2  45 00 
    392       168.237 DT     0439 Rx 8  00 00 20 00 00 00 43 02 
    393       168.639 DT     0102 Rx 8  22 33 00 00 E8 38 11 08 
    394       168.847 DT     013D Rx 6  02 20 AA 1A FF 02 
    395       169.491 DT     0123 Rx 8  00 00 48 12 D2 00 00 80 
    396       169.907 DT     03A1 Rx 8  68 62 0D 98 00 30 22 57 
    397       170.149 DT     02A8 Rx 8  C2 00 00 00 00 80 40 2C 
    398       170.645 DT     0142 Rx 8  28 02 02 00 00 00 00 00 
    399       170.911 DT     0340 Rx 8  07 00 00 00 00 00 00 00 
    400       171.144 DT     0129 Rx 8  93 24 4F 20 FF 1F FF 3F 
    401       171.372 DT     0293 Rx 8  01 0C 55 91 55 15 94 86 
    402       171.584 DT     0253 Rx 7  64 C8 A7 64 C8 47 07 
    403       171.844 DT     0285 Rx 8  03 75 9D 4B 8A 00 00 00 
    404       173.884 DT     02C1 Rx 8  A5 00 00 00 E0 00 00 00 
    405       174.114 DT     02E1 Rx 8  FC 19 12 2A 9E 13 0A 00 
    406       174.250 DT     0119 Rx 2  00 00 
    407       174.439 DT     03A3 Rx 5  00 D0 00 00 08 
    408       174.683 DT     0263 Rx 8  02 00 00 00 6B 10 00 00 
    409       175.593 DT     0122 Rx 6  00 00 12 12 12 00 
    410       175.857 DT     0623 Rx 8  21 FF FC FE 9B F3 A8 37 
    411       176.067 DT     0428 Rx 6  00 00 10 10 00 00 
    412       177.507 DT     0132 Rx 8  EC 89 F8 FF 26 40 FF 0F 
    413       177.735 DT     0372 Rx 8  0A C3 AA 56 B4 F0 FF 02 
    414       178.877 DT     0545 Rx 8  02 00 22 00 00 00 D0 3E 
    415       179.076 DT     013D Rx 6  02 20 AA 1A FF 02 
    416       179.478 DT     0393 Rx 8  09 80 63 00 00 00 00 00 
    417       179.878 DT     0201 Rx 8  3E 73 33 03 00 00 00 00 
    418       180.110 DT     0381 Rx 8  22 59 F6 77 00 F0 3C 64 
    419       180.622 DT     03A2 Rx 8  00 C0 72 0D 05 00 C6 6C 
    420       180.910 DT     0129 Rx 8  ED 25 4F 20 00 20 FF 3F 
    421       181.870 DT     0241 Rx 7  32 64 9C 0C 19 57 00 
    422       182.119 DT     0677 Rx 8  04 0F 00 00 00 00 00 00 
    423       182.632 DT     0272 Rx 8  09 80 63 00 00 00 00 00 
    424       184.193 DT     039A Rx 8  FD FD FD FD FD 01 00 00 
    425       184.475 DT     020C Rx 8  00 80 4A 1E 00 B0 07 00 
    426       185.903 DT     02C1 Rx 8  06 00 00 00 40 00 00 00 
    427       186.133 DT     0718 Rx 7  02 FF FF FF FF FF FF 
    428       186.377 DT     0797 Rx 8  14 09 00 00 00 00 00 09 
    429       186.843 DT     0623 Rx 8  22 11 1A FA F8 46 FF F9 
    430       187.510 DT     0132 Rx 8  E5 89 F8 FF 26 40 FF 0F 
    431       187.984 DT     025B Rx 8  D3 C0 02 00 00 00 F0 E0 
    432       188.446 DT     041D Rx 1  00 
    433       188.890 DT     021D Rx 8  2C 20 08 14 80 00 40 10 
    434       189.088 DT     043D Rx 6  02 20 AA 1A FF 02 
    435       189.393 DT     013D Rx 6  02 20 AA 1A FF 02 
    436       189.565 DT     01F8 Rx 4  22 00 00 00 
    437       189.801 DT     0243 Rx 8  7A 7D A1 0F 00 00 00 00 
    438       190.033 DT     025D Rx 8  DF 8C 01 C3 44 C1 0A E0 
    439       190.283 DT     027D Rx 8  00 00 00 00 00 00 00 00 
    440       190.531 DT     02E1 Rx 8  05 00 00 00 00 00 00 00 
    441       190.702 DT     029D Rx 4  00 00 00 20 
    442       190.938 DT     0129 Rx 8  37 26 4F 20 00 20 FF 3F 
    443       191.172 DT     0379 Rx 8  01 00 48 80 9A 19 16 01 
    444       191.322 DT     0229 Rx 3  44 01 00 
    445       191.554 DT     03C2 Rx 8  00 55 55 55 00 00 55 45 
    446       191.718 DT     0249 Rx 4  AF 0E 00 00 
    447       191.901 DT     039D Rx 5  7E 61 55 28 00 
    448       192.037 DT     03E3 Rx 2  00 00 
    449       192.287 DT     03E8 Rx 8  02 00 00 00 00 00 00 00 
    450       192.537 DT     054F Rx 8  00 00 00 00 00 00 00 00 
    451       192.691 DT     077D Rx 3  12 00 00 
    452       192.862 DT     02BD Rx 4  00 00 00 00 
    453       193.096 DT     02F1 Rx 8  03 91 1A 01 46 00 02 00 
    454       193.252 DT     07DD Rx 3  FF 00 01 
    455       193.880 DT     0201 Rx 8  40 06 19 00 70 43 06 00 
    456       194.476 DT     04E3 Rx 8  03 2F 00 00 00 00 08 00 
    457       195.882 DT     0261 Rx 8  5E FE 04 BA 8F 5C E5 2B 
    458       196.002 DT     0139 Rx 1  00 
    459       196.658 DT     03E2 Rx 8  40 15 80 0A 00 00 04 04 
    460       197.511 DT     0132 Rx 8  E9 89 F8 FF 29 40 FF 0F 
    461       197.891 DT     02C1 Rx 8  07 00 14 0D 0E 1D 22 47 
    462       198.135 DT     0677 Rx 8  05 02 00 28 00 00 00 00 
    463       198.363 DT     0623 Rx 8  23 FE 9D F3 2C 36 EE 1A 
    464       198.611 DT     07A8 Rx 8  26 1F 00 70 00 00 00 00 
    465       198.851 DT     013D Rx 6  02 20 AA 1A FF 02 
    466       199.452 DT     02E3 Rx 7  86 0C 00 00 00 00 00 
    467       200.634 DT     01FB Rx 8  01 FE FF B7 6D 0B 00 00 
    468       200.876 DT     02A7 Rx 8  00 00 00 00 00 84 05 84 
    469       201.114 DT     0129 Rx 8  20 27 4F 20 00 20 FF 3F 
    470       202.129 DT     03DA Rx 8  00 00 00 00 00 00 00 00 
    471       202.751 DT     02A6 Rx 8  00 00 FF 1F 00 00 00 00 
    472       203.619 DT     04E2 Rx 8  03 20 01 00 00 00 08 00 
    473       203.889 DT     03F5 Rx 8  00 C8 19 09 00 00 00 00 
    474       204.040 DT     0113 Rx 3  01 97 01 
    475       204.278 DT     0221 Rx 8  40 41 05 05 00 50 11 0F 
    476       204.514 DT     0228 Rx 8  03 16 54 88 50 00 11 80 
    477       204.758 DT     0263 Rx 8  03 10 20 03 00 00 00 00 
    478       204.992 DT     02B3 Rx 8  08 1F 1C 0F 0D 07 08 21 
    479       205.232 DT     02C7 Rx 8  00 00 00 00 00 47 48 FF 
    480       205.470 DT     0343 Rx 8  00 90 60 7E A1 51 00 00 
    481       205.704 DT     07FF Rx 8  03 31 08 A1 E0 42 16 41 
    482       205.939 DT     023E Rx 8  28 C6 63 95 05 6E 06 9F 
    483       206.181 DT     02E1 Rx 8  10 21 04 00 00 00 26 08 
    484       206.415 DT     0318 Rx 8  16 03 03 0F 11 15 05 71 
    485       206.599 DT     0382 Rx 5  3B 16 24 00 00 
    486       206.825 DT     0458 Rx 7  02 02 00 80 00 00 00 
    487       207.525 DT     0132 Rx 8  DD 89 F8 FF 27 40 FF 0F 
    488       207.887 DT     0201 Rx 8  01 64 64 EA 29 02 96 00 
    489       208.149 DT     037A Rx 8  00 00 00 00 00 00 00 00 
    490       208.850 DT     013D Rx 6  02 20 AA 1A FF 02 
    491       209.512 DT     03C3 Rx 8  55 55 55 01 00 00 00 00 
    492       209.744 DT     02D2 Rx 8  D9 29 8D 4E 00 00 A1 01 
    493       209.982 DT     0252 Rx 8  00 00 8C 06 00 00 A0 0F 
    494       210.218 DT     0212 Rx 8  98 24 DE 0F 02 FF 1F 02 
    495       210.445 DT     0292 Rx 8  4A 57 4D 75 D4 27 9E 01 
    496       210.679 DT     0262 Rx 8  0B 00 D2 0D 00 70 52 12 
    497       210.915 DT     0129 Rx 8  F7 28 4F 20 00 20 FF 3F 
    498       211.155 DT     0282 Rx 8  4D 05 00 01 19 01 7A 02 
    499       211.395 DT     02C1 Rx 8  80 0C 32 0B 8B 1F 00 00 
    500       211.525 DT     02F2 Rx 2  12 01 
    501       211.764 DT     03B2 Rx 8  50 E7 7F 03 F9 1F 01 00 
    502       212.006 DT     02C4 Rx 8  25 22 42 08 00 00 00 20 
    503       212.234 DT     0545 Rx 8  40 01 31 10 A2 10 EA 68 
    504       212.472 DT     077A Rx 8  00 5B 19 00 0F 0D 00 00 
    505       212.720 DT     0204 Rx 8  81 00 00 46 00 00 00 10 
    506       212.956 DT     0623 Rx 8  24 F4 F8 27 FF F6 FE 9E 
    507       213.165 DT     0264 Rx 6  3A 00 00 00 A0 00 
    508       213.393 DT     02A4 Rx 8  59 CF 7A D7 BF 5E 78 31 
    509       213.633 DT     0224 Rx 8  04 08 00 40 19 01 10 08 
    510       213.767 DT     0364 Rx 2  00 78 
    511       213.948 DT     02B4 Rx 5  68 AD 25 BB 00 
    512       214.198 DT     0359 Rx 8  01 00 00 00 00 00 00 00 
    513       214.436 DT     039A Rx 8  FC FD FD FD FD FD FD 01 
    514       214.688 DT     03A4 Rx 8  00 00 00 00 00 00 00 00 
    515       214.932 DT     0553 Rx 8  00 00 00 00 00 00 10 68 
    516       215.064 DT     02D1 Rx 2  7F 01 
    517       215.308 DT     0677 Rx 8  F8 FF FF FF FF FF FF 3F 
    518       215.547 DT     07AA Rx 8  C0 EB CE F4 00 00 00 00 
    519       215.787 DT     078A Rx 8  01 00 02 00 00 00 48 5D 
    520       216.031 DT     07B8 Rx 8  06 00 00 00 00 00 00 A8 
    521       216.277 DT     06E8 Rx 8  CC 01 00 2C 00 00 00 00 
    522       217.511 DT     0132 Rx 8  EC 89 F8 FF 28 40 FF 0F 
    523       217.758 DT     0552 Rx 8  00 00 00 00 00 00 10 67 
    524       218.874 DT     0381 Rx 8  03 80 80 80 80 80 00 00 
    525       219.072 DT     013D Rx 6  02 20 AA 1A FF 02 
    526       219.476 DT     0383 Rx 8  97 00 1E 80 00 00 A0 00 
    527       219.714 DT     0243 Rx 8  FC 7F FF 5F A2 02 41 29 
    528       219.948 DT     03A1 Rx 8  2B A0 22 01 00 00 30 B4 
    529       220.196 DT     038A Rx 8  00 00 00 00 00 00 00 00 
    530       220.638 DT     0142 Rx 8  01 00 40 0A 00 00 00 00 
    531       220.910 DT     0129 Rx 8  A2 29 4F 20 00 20 FF 3F 
    532       221.041 DT     0213 Rx 2  60 75 
    533       221.903 DT     02C1 Rx 8  01 00 00 14 28 70 64 00 
    534       222.143 DT     0201 Rx 8  2A 0F 20 C0 09 60 11 01 
    535       222.377 DT     02E1 Rx 8  29 0A A3 6A 17 00 00 00 
    536       222.619 DT     02E8 Rx 8  C2 00 00 00 00 80 40 6C 
    537       222.837 DT     022A Rx 4  00 00 19 16 
    538       223.845 DT     0623 Rx 8  25 F3 A8 36 EE 1A EA F8 
    539       224.441 DT     0423 Rx 6  00 00 00 00 08 00 
    540       224.651 DT     0422 Rx 6  80 00 10 00 00 00 
    541       225.894 DT     0421 Rx 7  00 0A 00 10 00 00 00 
    542       226.148 DT     042A Rx 8  01 90 00 48 00 24 00 02 
    543       226.384 DT     03C9 Rx 8  00 8C BE DC CF 98 00 05 
    544       227.510 DT     0132 Rx 8  DF 89 F8 FF 28 40 FF 0F 
    545       227.754 DT     0372 Rx 8  0B FF FF 3F FF FF 3F 80 
    546       228.036 DT     0448 Rx 6  00 00 10 10 00 00 
    547       228.881 DT     0261 Rx 8  03 00 00 00 00 40 F4 78 
    548       229.079 DT     013D Rx 6  02 20 AA 1A FF 02 
    549       229.487 DT     02C3 Rx 8  00 00 00 A6 01 00 80 69 
    550       229.887 DT     0677 Rx 8  01 FF FF FF FF FF FF 00 
    551       230.633 DT     03A2 Rx 8  C7 04 00 00 01 80 21 01 
    552       230.911 DT     0129 Rx 8  7D 2A 4F 20 00 20 FF 3F 
    553       231.631 DT     02C2 Rx 8  55 5B A9 06 00 00 12 00 
    554       231.822 DT     039D Rx 5  7F 62 55 28 00 
    555       232.074 DT     0219 Rx 5  F1 1F FF FF 03 
    556       233.876 DT     0789 Rx 8  54 09 00 00 00 00 10 1C 
    557       234.112 DT     02C1 Rx 8  02 74 C4 57 00 80 02 00 
    558       234.228 DT     0419 Rx 1  00 
    559       234.490 DT     0263 Rx 8  00 EE 0C F3 E4 3F A8 FA 
    560       234.826 DT     0623 Rx 8  26 28 FF F7 FE A1 F2 B1 
    561       235.892 DT     0201 Rx 8  03 40 18 00 10 89 F5 C1 
    562       236.125 DT     0718 Rx 7  03 FF FF FF FF FF FF 
    563       236.873 DT     0441 Rx 8  7F C5 44 20 DB 0E 04 4F 
    564       237.521 DT     0132 Rx 8  EB 89 F7 FF 27 40 FF 0F 
    565       237.827 DT     0361 Rx 5  2E 0A 1C 05 01 
    566       238.071 DT     02E1 Rx 8  02 00 00 00 00 00 01 00 
    567       238.313 DT     02F9 Rx 8  D0 FB 07 18 00 00 00 00 
    568       238.849 DT     013D Rx 6  02 20 AA 1A FF 02 
    569       239.901 DT     03C8 Rx 8  03 00 00 00 00 00 00 00 
    570       240.637 DT     02E2 Rx 8  00 00 00 C4 01 0B 00 00 
    571       240.880 DT     03C2 Rx 8  29 55 00 00 00 00 00 00 
    572       241.118 DT     0129 Rx 8  8C 2B 4F 20 00 20 FF 3F 
    573       241.298 DT     0249 Rx 4  CE 0F 00 00 
    574       244.166 DT     03F9 Rx 8  02 00 00 00 00 00 00 00 
    575       244.406 DT     039A Rx 8  FD FD FD FD FD 01 00 00 
    576       244.587 DT     0323 Rx 5  36 16 1E 00 00 
    577       244.895 DT     0545 Rx 8  01 00 00 00 00 10 F0 4B 
    578       245.213 DT     023E Rx 8  28 C6 63 95 01 6E 16 AB 
    579       245.863 DT     0623 Rx 8  27 37 00 1A E3 F8 04 FF 
    580       246.103 DT     02C1 Rx 8  03 00 40 66 00 00 35 00 
    581       246.349 DT     0677 Rx 8  02 FF FF FF FF 00 00 00 
    582       246.585 DT     0788 Rx 8  04 D5 A1 63 00 00 00 10 
    583       247.509 DT     0132 Rx 8  E7 89 F7 FF 29 40 FF 0F 
    584       247.660 DT     01FA Rx 3  22 C0 01 
    585       248.846 DT     02A1 Rx 6  00 00 98 3A 00 00 
    586       249.044 DT     013D Rx 6  02 20 AA 1A FF 02 
    587       249.378 DT     0225 Rx 3  05 45 52 
    588       249.606 DT     0243 Rx 8  01 FC 59 59 5E 5E 7A 7A 
    589       249.918 DT     0201 Rx 8  04 00 00 00 00 00 00 00 
    590       250.272 DT     0339 Rx 8  00 B1 00 00 00 01 40 0F 
    591       250.646 DT     01FB Rx 8  00 FF FF FF FF FF FF FF 
    592       250.906 DT     0129 Rx 8  EC 2C 4F 20 00 20 FF 3F 
    593       251.109 DT     0420 Rx 6  28 01 40 4B 00 60 
    594       251.777 DT     03E9 Rx 8  F1 20 00 00 00 00 60 5D 
    595       252.011 DT     0288 Rx 8  03 16 54 88 50 00 21 F0 
    596       253.883 DT     02E1 Rx 8  03 6C 00 02 2C 44 00 00 
    597       254.123 DT     0221 Rx 8  41 01 55 00 00 00 20 DA 
    598       254.371 DT     055A Rx 8  01 00 00 00 00 00 00 00 
    599       254.583 DT     0283 Rx 6  00 00 00 00 00 00 
    600       254.712 DT     0242 Rx 2  10 95 
    601       254.952 DT     0405 Rx 8  10 00 00 00 00 4C 52 57 
    602       256.133 DT     0719 Rx 8  01 00 00 00 00 00 00 00 
    603       256.845 DT     0623 Rx 8  28 F3 FE A2 F3 A8 37 00 
    604       257.509 DT     0132 Rx 8  E4 89 F8 FF 2B 40 FF 0F 
    605       257.889 DT     02C1 Rx 8  04 CA 03 03 64 C1 39 53 
    606       258.133 DT     0381 Rx 8  04 80 80 80 80 80 00 00 
    607       258.373 DT     0798 Rx 8  80 42 09 00 00 00 10 E3 
    608       258.848 DT     013D Rx 6  02 20 AA 1A FF 02 
    609       259.486 DT     03C0 Rx 8  07 00 00 00 00 00 00 00 
    610       260.640 DT     0282 Rx 8  00 00 00 00 EC F3 F2 24 
    611       260.908 DT     0129 Rx 8  53 2D 4F 20 01 20 FF 3F 
    612       261.646 DT     0360 Rx 8  07 00 00 00 00 00 00 00 
    613       261.768 DT     0409 Rx 1  00 
    614       262.000 DT     0261 Rx 8  00 10 2B 00 D6 43 00 95 
    615       262.212 DT     01F9 Rx 6  00 00 00 00 00 00 
    616       262.456 DT     0677 Rx 8  FB FF FF FF FF FF FF 27 
    617       263.877 DT     06C8 Rx 8  01 00 00 00 00 00 00 00 
    618       264.117 DT     0201 Rx 8  05 40 18 00 10 79 B5 C1 
    619       264.485 DT     0103 Rx 8  11 30 00 00 96 12 11 02 
    620       264.715 DT     0263 Rx 8  01 E9 12 F2 E4 3C A5 FA 
    621       266.879 DT     0400 Rx 7  40 60 E0 BF EF FB 00 
    622       267.523 DT     0132 Rx 8  E4 89 F7 FF 27 40 FF 0F 
    623       268.129 DT     0439 Rx 8  00 00 20 00 00 00 43 02 
    624       268.363 DT     0623 Rx 8  29 1A D9 F8 03 FF F3 FE 
    625       268.646 DT     0102 Rx 8  22 33 00 00 E8 38 11 08 
    626       268.850 DT     013D Rx 6  02 20 AA 1A FF 02 
    627       269.496 DT     0123 Rx 8  00 00 48 12 D2 00 00 80 
    628       269.892 DT     02C1 Rx 8  A5 00 00 00 E0 00 00 00 
    629       270.132 DT     02A8 Rx 8  C2 00 00 00 00 80 50 3C 
    630       270.366 DT     02E1 Rx 8  FC 19 11 FA 9D 17 0A 00 
    631       270.596 DT     03A1 Rx 8  68 62 0D 98 00 30 42 77 
    632       270.840 DT     0142 Rx 8  28 02 02 00 00 00 00 00 
    633       271.075 DT     0129 Rx 8  8C 2E 4F 20 01 20 FF 3F 
    634       271.327 DT     0340 Rx 8  08 00 00 00 00 00 00 00 
    635       271.851 DT     039D Rx 5  80 63 55 28 00 
    636       274.037 DT     0119 Rx 2  00 00 
    637       274.275 DT     039A Rx 8  FC FD FD FD FD FD FD 01 
    638       274.463 DT     03A3 Rx 5  00 D0 00 00 08 
    639       275.591 DT     0122 Rx 6  00 00 12 12 12 00 
    640       275.840 DT     0428 Rx 6  00 00 10 10 00 00 
    641       277.512 DT     0132 Rx 8  E5 89 F7 FF 26 40 FF 0F 
    642       277.758 DT     0372 Rx 8  0C 00 00 00 00 00 00 00 
    643       278.000 DT     0201 Rx 8  3E 73 33 03 00 00 00 00 
    644       278.244 DT     0545 Rx 8  02 00 1F 00 00 00 00 6B 
    645       278.492 DT     0677 Rx 8  04 0F 00 00 00 00 00 00 
    646       278.859 DT     013D Rx 6  02 20 AA 1A FF 02 
    647       279.483 DT     0393 Rx 8  06 00 FC D8 07 C0 1E 20 
    648       279.719 DT     0243 Rx 8  7A 7D A1 0F 00 00 00 00 
    649       280.623 DT     03A2 Rx 8  00 E0 72 0D 05 00 C6 6C 
    650       280.911 DT     0129 Rx 8  D0 2F 4F 20 00 20 FF 3F 
    651       281.869 DT     0241 Rx 7  34 64 1C 0D 19 57 00 
    652       282.119 DT     02C1 Rx 8  06 00 00 00 40 00 00 00 
    653       282.376 DT     0623 Rx 8  2A A6 F2 EF 37 00 1A D2 
    654       282.644 DT     0272 Rx 8  06 00 FD E8 07 C0 1E 20 
    655       284.480 DT     020C Rx 8  00 80 4A 1E 00 B0 07 00 
    656       285.230 DT     023E Rx 8  28 C6 63 95 01 6E 26 BB 
    657       285.894 DT     02E1 Rx 8  05 00 00 00 00 00 00 00 
    658       286.124 DT     0718 Rx 7  04 FF FF 00 00 00 00 
    659       286.366 DT     0797 Rx 8  14 09 00 00 00 00 10 19 
    660       287.122 DT     025B Rx 8  D3 C0 02 00 00 00 00 F0 
    661       287.529 DT     0132 Rx 8  DE 89 F7 FF 26 40 FF 0F 
    662       288.469 DT     041D Rx 1  00 
    663       288.887 DT     075D Rx 8  08 65 77 40 77 72 77 02 
    664       289.283 DT     021D Rx 8  2C 20 08 14 80 00 40 10 
    665       289.482 DT     013D Rx 6  02 20 AA 1A FF 02 
    666       289.654 DT     01F8 Rx 4  22 00 00 00 
    667       289.790 DT     03E3 Rx 2  00 00 
    668       290.022 DT     025D Rx 8  DF 8C 01 C3 44 C1 0A E0 
    669       290.256 DT     0379 Rx 8  02 00 48 80 9A 19 16 01 
    670       290.454 DT     043D Rx 6  02 20 AA 1A FF 02 
    671       290.705 DT     027D Rx 8  00 00 00 00 00 00 00 00 
    672       290.943 DT     0129 Rx 8  35 20 4F 20 00 20 FF 3F 
    673       291.113 DT     029D Rx 4  00 00 00 20 
    674       291.261 DT     0229 Rx 3  52 02 00 
    675       291.431 DT     02BD Rx 4  00 00 00 00 
    676       291.598 DT     0249 Rx 4  9B 00 00 00 
    677       291.830 DT     03C2 Rx 8  00 55 55 55 00 00 55 45 
    678       292.062 DT     0201 Rx 8  68 A6 19 00 70 43 06 00 
    679       292.312 DT     03E8 Rx 8  03 00 00 00 00 00 00 00 
    680       292.562 DT     054F Rx 8  00 00 00 00 00 00 00 00 
    681       292.716 DT     077D Rx 3  12 00 00 
    682       292.956 DT     02F1 Rx 8  04 90 17 81 34 00 01 00 
    683       293.113 DT     07DD Rx 3  FF 00 01 
    684       293.843 DT     0623 Rx 8  2B F7 DD FF F0 FE A7 F3 
    685       294.077 DT     02C1 Rx 8  07 00 14 0D 0E 1D 22 47 
    686       294.321 DT     0677 Rx 8  05 02 00 28 00 00 00 00 
    687       294.565 DT     0263 Rx 8  02 00 00 00 6B 10 00 00 
    688       294.797 DT     02B3 Rx 8  A9 4F 1F 00 00 64 7B 66 
    689       295.029 DT     0261 Rx 8  31 48 1E 00 11 4A 1A 4D 
    690       295.278 DT     04E3 Rx 8  04 00 00 00 00 00 00 00 
    691       296.006 DT     0139 Rx 1  00 
    692       296.652 DT     03E2 Rx 8  40 15 80 0A 00 00 04 04 
    693       296.900 DT     0381 Rx 8  05 00 00 00 00 00 00 00 
    694       297.518 DT     0132 Rx 8  DA 89 F8 FF 27 40 FF 0F 
    695       298.064 DT     07A8 Rx 8  0C D5 A1 63 00 00 40 10 
    696       298.850 DT     013D Rx 6  02 20 AA 1A FF 02 
    697       299.453 DT     02E3 Rx 7  F7 D3 4F 3F A5 30 08 
    698       300.637 DT     01FB Rx 8  01 FE FF B7 6D 0B 00 00 
    699       300.879 DT     02A7 Rx 8  00 00 00 00 00 84 05 84 
    700       301.115 DT     0129 Rx 8  22 21 4F 20 00 20 FF 3F 
    701       301.917 DT     02E1 Rx 8  10 21 04 00 00 00 26 08 
    702       302.165 DT     03DA Rx 8  00 00 00 00 00 00 00 00 
    703       302.741 DT     02A6 Rx 8  00 00 FF 1F 00 00 00 00 
    704       303.621 DT     04E2 Rx 8  04 00 13 00 0A 00 00 00 
    705       303.897 DT     03F5 Rx 8  00 C8 19 09 00 00 00 00 
    706       304.048 DT     0113 Rx 3  01 97 01 
    707       304.286 DT     0221 Rx 8  40 41 05 05 00 50 31 2F 
    708       304.518 DT     0228 Rx 8  03 16 54 88 50 00 21 90 
    709       304.758 DT     02C7 Rx 8  00 00 00 00 00 47 48 FF 
    710       304.996 DT     0343 Rx 8  00 90 60 AE A1 51 00 00 
    711       305.236 DT     039A Rx 8  FD FD FD FD FD 01 00 00 
    712       305.462 DT     0623 Rx 8  2C 2C 36 EE 1A C8 F7 D9 
    713       305.692 DT     07FF Rx 8  04 CC 16 54 61 12 B4 2A 
    714       305.932 DT     02C1 Rx 8  80 0C 32 0B 8B 1F 00 00 
    715       306.165 DT     0201 Rx 8  01 64 64 EA 29 02 96 00 
    716       306.399 DT     0318 Rx 8  16 03 03 0F 11 15 07 73 
    717       306.627 DT     0458 Rx 7  02 02 00 80 00 00 00 
    718       307.546 DT     0132 Rx 8  DB 89 F7 FF 27 40 FF 0F 
    719       308.154 DT     037A Rx 8  01 00 00 00 00 00 00 00 
    720       309.068 DT     02D2 Rx 8  D9 29 8D 4E 00 00 A1 01 
    721       309.306 DT     0252 Rx 8  00 00 8C 06 00 00 A0 0F 
    722       309.543 DT     0212 Rx 8  98 24 DE 0F 02 FF 1F 02 
    723       309.781 DT     0243 Rx 8  FC 7F FF 5F A2 02 41 29 
    724       310.007 DT     0292 Rx 8  4A 57 4D 75 D4 27 9E 01 
    725       310.137 DT     02F2 Rx 2  12 01 
    726       310.377 DT     0392 Rx 8  01 05 A9 16 01 00 00 00 
    727       310.576 DT     013D Rx 6  02 20 AA 1A FF 02 
    728       310.810 DT     0262 Rx 8  0B 00 D2 0D 00 70 52 12 
    729       311.044 DT     0129 Rx 8  6B 22 4F 20 00 20 FF 3F 
    730       311.280 DT     0282 Rx 8  4D 05 00 81 04 01 7A 02 
    731       311.526 DT     03C3 Rx 8  00 00 00 00 00 45 00 00 
    732       311.754 DT     0545 Rx 8  80 01 31 C0 A1 0F 1A 86 
    733       311.936 DT     039D Rx 5  81 64 55 28 00 
    734       312.181 DT     0677 Rx 8  F8 FF FF FF FF FF FF 3F 
    735       312.419 DT     076A Rx 8  00 61 4B D8 02 00 00 00 
    736       312.657 DT     02C4 Rx 8  06 83 A1 8C CA 28 0C 00 
    737       312.901 DT     07B8 Rx 8  60 02 09 00 00 00 10 1D 
    738       313.149 DT     0204 Rx 8  81 00 00 46 00 00 00 10 
    739       313.358 DT     0264 Rx 6  3B 00 00 00 A0 00 
    740       313.598 DT     0224 Rx 8  04 08 00 40 19 01 10 08 
    741       313.872 DT     02B4 Rx 5  69 AD 25 C7 00 
    742       314.144 DT     0359 Rx 8  02 00 00 00 64 82 86 24 
    743       314.384 DT     07AA Rx 8  01 CB 0D CA 0D 02 00 00 
    744       314.628 DT     0553 Rx 8  00 00 00 00 00 00 20 78 
    745       314.790 DT     02D1 Rx 2  7F 01 
    746       315.033 DT     078A Rx 8  01 00 03 00 00 00 60 5D 
    747       316.071 DT     06E8 Rx 8  01 00 00 00 00 00 00 00 
    748       316.843 DT     0623 Rx 8  2D FF EF FE AA F2 35 37 
    749       317.513 DT     0132 Rx 8  E5 89 F7 FF 27 40 FF 0F 
    750       317.759 DT     0552 Rx 8  00 00 00 00 00 00 20 77 
    751       317.999 DT     02C1 Rx 8  01 00 00 14 28 70 64 00 
    752       318.233 DT     02E1 Rx 8  29 0A A3 6A 17 00 00 00 
    753       318.864 DT     013D Rx 6  02 20 AA 1A FF 02 
    754       319.480 DT     0383 Rx 8  97 00 1E 80 00 00 A0 00 
    755       319.902 DT     0201 Rx 8  2A 0F 20 C0 09 60 11 01 
    756       320.150 DT     038A Rx 8  01 00 00 00 00 00 00 00 
    757       320.386 DT     03A1 Rx 8  2B A0 22 01 00 00 50 D4 
    758       320.640 DT     0142 Rx 8  01 00 40 0A 00 00 00 00 
    759       320.896 DT     0473 Rx 8  30 00 00 00 82 A1 34 62 
    760       321.137 DT     0129 Rx 8  7C 23 4F 20 00 20 FF 3F 
    761       321.381 DT     03B3 Rx 8  88 80 05 00 00 00 60 00 
    762       322.093 DT     02E8 Rx 8  C2 00 00 00 00 80 50 7C 
    763       322.291 DT     022A Rx 4  00 00 19 16 
    764       324.445 DT     0423 Rx 6  00 00 00 00 08 00 
    765       324.689 DT     0263 Rx 8  03 10 20 03 00 00 00 00 
    766       324.899 DT     0422 Rx 6  80 00 10 00 00 00 
    767       325.210 DT     023E Rx 8  28 C6 63 95 01 6E 36 CB 
    768       325.894 DT     0421 Rx 7  00 0A 00 10 00 00 00 
    769       326.144 DT     0677 Rx 8  01 FF FF FF FF FF FF 00 
    770       326.386 DT     042A Rx 8  01 90 00 48 00 24 00 02 
    771       327.512 DT     0132 Rx 8  E8 89 F8 FF 27 40 FF 0F 
    772       327.756 DT     0372 Rx 8  0D 41 1F 00 00 00 00 00 
    773       327.982 DT     0261 Rx 8  5E FE 04 BA 8F 5C 25 6B 
    774       328.194 DT     0448 Rx 6  00 00 10 10 00 00 
    775       328.432 DT     0623 Rx 8  2E 00 1A BE F7 D5 FF EF 
    776       328.853 DT     013D Rx 6  02 20 AA 1A FF 02 
    777       329.475 DT     02C3 Rx 8  55 1B A8 36 00 00 12 00 
    778       329.885 DT     02C1 Rx 8  02 74 C4 57 00 80 02 00 
    779       330.637 DT     03A2 Rx 8  C7 04 00 00 01 80 21 01 
    780       330.909 DT     0129 Rx 8  FA 24 4F 20 00 20 FF 3F 
    781       331.641 DT     02C2 Rx 8  00 00 00 97 01 00 C0 65 
    782       332.075 DT     0219 Rx 5  F2 1F FF FF 01 
    783       333.875 DT     0789 Rx 8  54 09 00 00 00 00 20 2C 
    784       334.112 DT     0201 Rx 8  03 40 18 00 10 89 F5 C1 
    785       334.356 DT     02E1 Rx 8  02 00 00 00 00 00 01 00 
    786       334.598 DT     034A Rx 8  00 C7 04 20 00 00 00 60 
    787       334.836 DT     039A Rx 8  FC FD FD FD FD FD FD 01 
    788       334.952 DT     0419 Rx 1  00 
    789       335.198 DT     043B Rx 8  00 7F 00 FF 00 00 00 00 
    790       335.896 DT     0381 Rx 8  C6 39 CF 21 96 18 03 00 
    791       336.124 DT     0718 Rx 7  00 7F 7F 7F FF FF FF 
    792       336.881 DT     0441 Rx 8  7F C5 44 20 DB 0E 08 53 
    793       337.521 DT     0132 Rx 8  E5 89 F8 FF 26 40 FF 0F 
    794       337.771 DT     0320 Rx 8  02 00 00 00 00 00 00 00 
    795       338.009 DT     0772 Rx 8  02 0A 7E 09 9C 09 00 00 
    796       338.253 DT     02F9 Rx 8  D0 FB 07 20 00 00 00 00 
    797       339.234 DT     013D Rx 6  02 20 AA 1A FF 02 
    798       339.466 DT     0243 Rx 8  01 FC 59 59 5E 5E 7A 7A 
    799       339.906 DT     03C8 Rx 8  04 00 00 00 00 00 00 00 
    800       340.642 DT     03C2 Rx 8  29 55 00 00 00 00 00 00 
    801       340.904 DT     0129 Rx 8  84 25 4F 20 FF 1F FF 3F 
    802       341.084 DT     0249 Rx 4  E8 01 00 00 
    803       341.928 DT     02C1 Rx 8  03 00 40 66 00 00 35 00 
    804       342.175 DT     0677 Rx 8  02 FF FF FF FF 00 00 00 
    805       342.407 DT     0623 Rx 8  2F FE AF F3 A8 36 EE 1A 
    806       343.893 DT     0545 Rx 8  01 00 00 00 00 10 20 7B 
    807       344.169 DT     03F9 Rx 8  03 00 00 00 00 00 00 00 
    808       345.879 DT     0788 Rx 8  01 00 00 00 FF A1 08 00 
    809       347.513 DT     0132 Rx 8  E7 89 F7 FF 27 40 FF 0F 
    810       347.663 DT     01FA Rx 3  22 C0 01 
    811       347.911 DT     0201 Rx 8  04 00 00 00 00 00 00 00 
    812       348.844 DT     02A1 Rx 6  00 00 98 3A 00 00 
    813       349.042 DT     013D Rx 6  02 20 AA 1A FF 02 
    814       349.382 DT     0225 Rx 3  05 45 52 
    815       349.900 DT     02E1 Rx 8  03 6C 00 02 2C 44 00 00 
    816       350.288 DT     0339 Rx 8  00 B1 00 00 00 01 40 0F 
    817       350.660 DT     01FB Rx 8  00 FF FF FF FF FF FF FF 
    818       350.906 DT     0129 Rx 8  9A 26 4F 20 01 20 FF 3F 
    819       351.113 DT     0420 Rx 6  28 01 40 4B 00 70 
    820       351.849 DT     039D Rx 5  82 65 55 28 00 
    821       352.081 DT     0288 Rx 8  03 16 54 88 50 00 31 00 
    822       353.825 DT     0623 Rx 8  20 B8 F7 AC FF EB FE B0 
    823       354.065 DT     0221 Rx 8  41 01 55 00 00 00 40 FA 
    824       354.301 DT     02C1 Rx 8  04 CA 03 03 64 C1 39 53 
    825       354.513 DT     0283 Rx 6  00 00 00 00 00 00 
    826       354.641 DT     0242 Rx 2  10 95 
    827       354.877 DT     0263 Rx 8  00 EE 0C F3 E4 3F A8 FA 
    828       356.138 DT     0719 Rx 8  00 94 52 00 00 00 00 00 
    829       357.514 DT     0132 Rx 8  E7 89 F7 FF 27 40 FF 0F 
    830       357.886 DT     0677 Rx 8  FB FF FF FF FF FF FF 27 
    831       358.122 DT     0798 Rx 8  21 D8 02 4E 38 01 20 AA 
    832       358.848 DT     013D Rx 6  02 20 AA 1A FF 02 
    833       359.489 DT     03C0 Rx 8  08 00 00 00 00 00 00 00 
    834       360.644 DT     0282 Rx 8  00 00 00 00 EC F3 F2 24 
    835       360.888 DT     0261 Rx 8  03 00 00 00 00 40 34 B8 
    836       361.120 DT     0129 Rx 8  49 27 4F 20 FF 1F FF 3F 
    837       361.660 DT     0360 Rx 8  08 00 00 00 00 00 00 00 
    838       361.782 DT     0409 Rx 1  00 
    839       362.022 DT     0201 Rx 8  05 40 18 00 10 79 B5 C1 
    840       362.234 DT     01F9 Rx 6  00 00 00 00 00 00 
    841       363.874 DT     06C8 Rx 8  CC 01 00 2C 00 00 00 00 
    842       364.190 DT     039A Rx 8  FD FD FD FD FD 01 00 00 
    843       364.488 DT     0103 Rx 8  11 30 00 00 96 12 11 02 
    844       364.843 DT     0623 Rx 8  21 F0 FF 37 00 1A AE F7 
    845       365.215 DT     023E Rx 8  28 C6 63 95 01 6E 46 DB 
    846       365.899 DT     02C1 Rx 8  A5 00 00 00 E0 00 00 00 
    847       366.129 DT     02E1 Rx 8  FC 19 15 FA 9D 17 0A 00 
    848       366.829 DT     0400 Rx 7  40 60 E0 BF EF FB 00 
    849       367.527 DT     0132 Rx 8  E7 89 F8 FF 28 40 FF 0F 
    850       368.134 DT     0439 Rx 8  00 00 20 00 00 00 43 02 
    851       368.318 DT     0739 Rx 5  24 06 1B 01 00 
    852       368.646 DT     0102 Rx 8  22 33 00 00 E8 38 11 08 
    853       368.852 DT     013D Rx 6  02 20 AA 1A FF 02 
    854       369.500 DT     0123 Rx 8  00 00 48 12 D2 00 00 80 
    855       369.736 DT     0243 Rx 8  7A 7D A1 0F 00 00 00 00 
    856       369.976 DT     02A8 Rx 8  C2 00 00 00 00 80 60 4C 
    857       370.204 DT     03A1 Rx 8  68 62 0D 98 00 34 62 9B 
    858       370.653 DT     0142 Rx 8  28 02 02 00 00 00 00 00 
    859       370.837 DT     0333 Rx 5  84 0A 5A 07 02 
    860       371.069 DT     0129 Rx 8  9E 28 4F 20 FF 1F FF 3F 
    861       371.305 DT     0334 Rx 8  3F 3F C8 00 E2 3F 50 EE 
    862       371.555 DT     0340 Rx 8  00 00 00 00 00 00 00 00 
    863       372.547 DT     0362 Rx 3  00 00 00 
    864       373.893 DT     0677 Rx 8  04 0F 00 00 00 00 00 00 
    865       374.040 DT     0119 Rx 2  00 00 
    866       374.440 DT     03A3 Rx 5  00 D0 00 00 08 
    867       374.884 DT     0381 Rx 8  67 69 55 A4 48 93 22 05 
    868       375.600 DT     0122 Rx 6  00 00 12 12 12 00 
    869       375.862 DT     0623 Rx 8  22 A5 FF EA FE B3 F1 F7 
    870       376.104 DT     0201 Rx 8  3E 73 33 03 00 00 00 00 
    871       376.314 DT     0428 Rx 6  00 00 10 10 00 00 
    872       376.894 DT     0545 Rx 8  02 00 1C 00 00 00 30 98 
    873       377.527 DT     0132 Rx 8  E7 89 F7 FF 26 40 FF 0F 
    874       377.763 DT     0372 Rx 8  0E 00 00 40 35 82 06 2E 
    875       378.013 DT     02C1 Rx 8  06 00 00 00 40 00 00 00 
    876       378.197 DT     0708 Rx 5  2B 21 09 00 00 
    877       378.863 DT     013D Rx 6  02 20 AA 1A FF 02 
    878       379.473 DT     0393 Rx 8  09 80 63 00 00 00 00 00 
    879       380.630 DT     03A2 Rx 8  00 E0 72 0F 05 00 C6 6C 
    880       380.908 DT     0129 Rx 8  0F 29 4F 20 01 20 FF 3F 
    881       381.872 DT     0241 Rx 7  32 64 9C 0C 19 57 00 
    882       382.120 DT     02E1 Rx 8  05 00 00 00 00 00 00 00 
    883       382.646 DT     0272 Rx 8  09 80 63 00 00 00 00 00 
    884       384.484 DT     020C Rx 8  00 80 4A 1E 00 B0 07 00 
    885       384.714 DT     0263 Rx 8  01 E9 12 F2 E4 3C A5 FA 
    886       384.956 DT     02B3 Rx 8  0A 2B 00 78 00 00 00 00 
    887       385.885 DT     0718 Rx 7  01 FF FF FF FF FF 00 
    888       386.125 DT     0797 Rx 8  14 09 00 00 00 00 20 29 
    889       386.853 DT     0623 Rx 8  23 37 00 1A A4 F7 9D FF 
    890       387.517 DT     0132 Rx 8  E7 89 F7 FF 28 40 FF 0F 
    891       387.975 DT     025B Rx 8  D3 C0 02 00 00 00 10 00 
    892       388.907 DT     053E Rx 8  11 00 00 00 00 00 00 00 
    893       389.135 DT     033D Rx 8  1A 29 0A BE 87 4A FA 98 
    894       389.406 DT     037D Rx 8  62 FF 60 60 00 F8 EF 3F 
    895       389.604 DT     013D Rx 6  02 20 AA 1A FF 02 
    896       389.776 DT     01F8 Rx 4  22 00 00 00 
    897       390.018 DT     0201 Rx 8  40 06 19 00 70 43 06 00 
    898       390.252 DT     02C1 Rx 8  07 00 14 0D 0E 1D 22 47 
    899       390.488 DT     0379 Rx 8  03 00 3E 82 9A A9 31 01 
    900       390.721 DT     03C2 Rx 8  00 55 55 55 00 00 55 45 
    901       390.959 DT     0129 Rx 8  7D 2A 4F 20 00 20 FF 3F 
    902       391.163 DT     03DD Rx 6  00 12 00 13 00 05 
    903       391.311 DT     0229 Rx 3  6D 03 00 
    904       391.447 DT     03E3 Rx 2  00 00 
    905       391.614 DT     0249 Rx 4  2A 02 00 00 
    906       391.732 DT     041D Rx 1  00 
    907       391.968 DT     021D Rx 8  2C 20 08 14 80 00 40 10 
    908       392.200 DT     025D Rx 8  DF 8C 01 C3 44 C1 0A E0 
    909       392.380 DT     039D Rx 5  83 66 55 28 00 
    910       392.630 DT     03E8 Rx 8  04 00 00 00 00 00 00 00 
    911       392.829 DT     043D Rx 6  02 20 AA 1A FF 02 
    912       393.079 DT     027D Rx 8  00 00 00 00 00 00 00 00 
    913       393.249 DT     029D Rx 4  00 00 00 20 
    914       393.489 DT     02F1 Rx 8  05 10 17 01 35 00 01 00 
    915       393.740 DT     054F Rx 8  00 00 00 00 00 00 00 00 
    916       393.972 DT     0261 Rx 8  00 10 2B 00 D6 43 40 D5 
    917       394.210 DT     039A Rx 8  FC FD FD FD FD FD FD 01 
    918       394.454 DT     0677 Rx 8  05 02 00 28 00 00 00 00 
    919       394.688 DT     04E3 Rx 8  A5 05 6A 71 04 05 00 00 
    920       394.842 DT     077D Rx 3  12 00 00 
    921       395.012 DT     02BD Rx 4  00 00 00 00 
    922       395.169 DT     07DD Rx 3  FF 00 01 
    923       396.009 DT     0139 Rx 1  00 
    924       396.653 DT     03E2 Rx 8  40 15 80 0A 00 00 04 04 
    925       397.511 DT     0132 Rx 8  E1 89 F8 FF 28 40 FF 0F 
    926       397.911 DT     02E1 Rx 8  10 21 04 00 00 00 26 08 
    927       398.153 DT     07A8 Rx 8  01 00 00 00 FF A1 08 00 
    928       398.386 DT     0623 Rx 8  24 EA FE B7 F3 6A 37 00 
    929       398.852 DT     013D Rx 6  02 20 AA 1A FF 02 
    930       399.460 DT     02E3 Rx 7  08 88 20 00 00 00 00 
    931       399.698 DT     0243 Rx 8  FC 7F FF 5F A2 02 41 29 
    932       400.640 DT     01FB Rx 8  01 FE FF B7 6D 0B 00 00 
    933       400.882 DT     02A7 Rx 8  00 00 00 00 00 84 05 84 
    934       401.120 DT     0129 Rx 8  8C 2B 4F 20 00 20 FF 3F 
    935       401.916 DT     02C1 Rx 8  80 0C 32 0B 8B 1F 00 00 
    936       402.164 DT     03DA Rx 8  00 00 00 00 00 00 00 00 
    937       402.731 DT     02A6 Rx 8  00 00 FF 1F 00 00 00 00 
    938       403.619 DT     04E2 Rx 8  65 02 86 41 00 20 00 00 
    939       403.895 DT     03F5 Rx 8  00 C8 19 09 00 00 00 00 
    940       404.045 DT     0113 Rx 3  01 97 01 
    941       404.277 DT     0201 Rx 8  01 64 64 EA 29 02 96 00 
    942       404.511 DT     0221 Rx 8  40 41 05 05 00 50 51 4F 
    943       404.745 DT     0228 Rx 8  03 16 54 88 50 00 31 A0 
    944       404.985 DT     02C7 Rx 8  00 00 00 00 00 47 48 FF 
    945       405.220 DT     0343 Rx 8  00 90 5C AE A1 51 00 00 
    946       405.464 DT     07FF Rx 8  05 08 A0 40 00 00 00 00 
    947       405.698 DT     0318 Rx 8  16 03 03 0F 11 15 09 75 
    948       405.928 DT     023E Rx 8  28 C6 63 95 01 6E 56 EB 
    949       406.154 DT     0458 Rx 7  02 02 00 80 00 00 00 
    950       406.398 DT     0677 Rx 8  F8 FF FF FF FF FF FF 3F 
    951       407.520 DT     0132 Rx 8  E7 89 F8 FF 27 40 FF 0F 
    952       408.155 DT     037A Rx 8  02 00 00 00 00 00 00 00 
    953       408.853 DT     013D Rx 6  02 20 AA 1A FF 02 
    954       409.103 DT     02D2 Rx 8  D9 29 8D 4E 00 00 A1 01 
    955       409.341 DT     0252 Rx 8  00 00 8C 06 00 00 A0 0F 
    956       409.578 DT     0212 Rx 8  98 24 DE 0F 02 FF 1F 02 
    957       409.804 DT     0292 Rx 8  4A 57 4D 75 D4 27 9E 01 
    958       409.934 DT     02F2 Rx 2  12 01 
    959       410.170 DT     03C3 Rx 8  55 55 55 01 00 00 00 00 
    960       410.404 DT     0401 Rx 8  1A 2A 1C 82 21 82 1C 82 
    961       410.631 DT     0545 Rx 8  40 01 31 10 A2 15 4A CD 
    962       410.865 DT     0262 Rx 8  0B 00 D2 0D 00 70 52 12 
    963       411.099 DT     0129 Rx 8  EC 2C 4F 20 00 20 FF 3F 
    964       411.337 DT     0282 Rx 8  4D 05 00 01 3B 01 7A 02 
    965       411.573 DT     07B8 Rx 8  D9 D7 02 00 04 00 20 78 
    966       411.911 DT     02C4 Rx 8  07 06 A3 90 81 0C CC 06 
    967       412.398 DT     0204 Rx 8  81 00 00 46 00 00 00 10 
    968       412.630 DT     0623 Rx 8  25 1A 9A F7 94 FF E9 FE 
    969       412.878 DT     0264 Rx 6  3B 00 00 00 A0 00 
    970       413.293 DT     0224 Rx 8  04 08 00 40 19 01 10 08 
    971       413.905 DT     02C1 Rx 8  01 00 00 14 28 70 64 00 
    972       414.087 DT     02B4 Rx 5  68 AD 25 C2 00 
    973       414.322 DT     02E1 Rx 8  29 0A A3 6A 17 00 00 00 
    974       414.566 DT     0263 Rx 8  02 00 00 00 6B 10 00 00 
    975       414.810 DT     0359 Rx 8  03 00 00 00 FF 01 00 00 
    976       414.942 DT     02D1 Rx 2  7F 01 
    977       415.178 DT     0381 Rx 8  08 50 0A FD 0F 0C 00 00 
    978       415.420 DT     0553 Rx 8  00 00 00 00 00 00 30 88 
    979       415.650 DT     07AA Rx 8  92 08 F3 FA B9 08 21 00 
    980       415.893 DT     078A Rx 8  01 00 04 00 00 00 75 06 
    981       416.139 DT     06E8 Rx 8  CC 01 00 2C 00 00 00 00 
    982       417.519 DT     0132 Rx 8  E8 89 F7 FF 26 40 FF 0F 
    983       417.765 DT     0552 Rx 8  00 00 00 00 00 00 30 87 
    984       418.005 DT     0201 Rx 8  2A 0F 20 C0 09 60 11 01 
    985       418.867 DT     013D Rx 6  02 20 AA 1A FF 02 
    986       419.483 DT     0383 Rx 8  97 00 1E 80 00 00 A0 00 
    987       419.903 DT     03A1 Rx 8  2B A0 22 01 00 00 70 F4 
    988       420.150 DT     038A Rx 8  03 00 00 00 00 00 00 00 
    989       420.646 DT     0142 Rx 8  01 00 40 0A 00 00 00 00 
    990       420.908 DT     0129 Rx 8  FE 2D 4F 20 00 20 FF 3F 
    991       421.152 DT     02F3 Rx 5  0C 0C 0B 00 00 
    992       421.920 DT     0677 Rx 8  01 FF FF FF FF FF FF 00 
    993       422.160 DT     02E8 Rx 8  C2 00 00 00 00 80 60 8C 
    994       422.381 DT     022A Rx 4  00 00 19 16 
    995       423.841 DT     0623 Rx 8  26 BC F2 35 37 00 1A 90 
    996       424.193 DT     039A Rx 8  FD FD FD FD FD 01 00 00 
    997       424.449 DT     0423 Rx 6  00 00 00 00 08 00 
    998       424.659 DT     0422 Rx 6  80 00 10 00 00 00 
    999       425.897 DT     0421 Rx 7  00 0A 00 10 00 00 00 
   1000       426.133 DT     02C1 Rx 8  02 74 C4 57 00 80 02 00 
   1001       426.375 DT     042A Rx 8  01 90 00 48 00 24 00 02 
   1002       426.876 DT     0261 Rx 8  31 48 EE FF 12 4A 5A 5D 
   1003       427.518 DT     0132 Rx 8  E4 89 F7 FF 27 40 FF 0F 
   1004       427.760 DT     0372 Rx 8  0F 54 03 00 00 00 00 00 
   1005       428.054 DT     0448 Rx 6  00 00 10 10 00 00 
   1006       428.858 DT     013D Rx 6  02 20 AA 1A FF 02 
   1007       429.484 DT     02C3 Rx 8  00 00 00 A6 01 00 80 69 
   1008       429.713 DT     0243 Rx 8  01 FC 59 59 5E 5E 7A 7A 
   1009       429.957 DT     02E1 Rx 8  02 00 00 00 00 00 01 00 
   1010       430.651 DT     03A2 Rx 8  C7 04 00 00 01 80 21 01 
   1011       430.909 DT     0129 Rx 8  21 2E 4F 20 00 20 FF 3F 
   1012       431.643 DT     02C2 Rx 8  55 5B A9 06 00 00 12 00 
   1013       431.823 DT     039D Rx 5  84 67 55 28 00 
   1014       432.059 DT     0201 Rx 8  03 40 18 00 10 89 F5 C1 
   1015       432.245 DT     0219 Rx 5  F3 1F FF FF 02 
   1016       433.879 DT     0789 Rx 8  54 09 00 00 00 00 30 3C 
   1017       433.996 DT     0419 Rx 1  00 
   1018       434.842 DT     0623 Rx 8  27 F7 8A FF E8 FE C2 F2 
   1019       435.886 DT     0718 Rx 7  02 FF FF FF FF FF FF 
   1020       436.886 DT     0441 Rx 8  7F C5 44 20 DB 0E 0C 57 
   1021       437.522 DT     0132 Rx 8  E5 89 F7 FF 27 40 FF 0F 
   1022       437.900 DT     0737 Rx 7  00 00 00 00 00 00 00 
   1023       438.140 DT     02C1 Rx 8  03 00 40 66 00 00 35 00 
   1024       438.383 DT     02F9 Rx 8  D0 FB 07 28 00 00 00 00 
   1025       438.629 DT     0677 Rx 8  02 FF FF FF FF 00 00 00 
   1026       438.855 DT     013D Rx 6  02 20 AA 1A FF 02 
   1027       439.911 DT     03C8 Rx 8  05 00 00 00 00 00 00 00 
   1028       440.643 DT     02E2 Rx 8  52 49 5C 5C 49 59 49 0C 
   1029       440.885 DT     03C2 Rx 8  29 55 00 00 00 00 00 00 
   1030       441.124 DT     0129 Rx 8  D0 2F 4F 20 00 20 FF 3F 
   1031       441.302 DT     0249 Rx 4  D3 03 00 00 
   1032       442.894 DT     0545 Rx 8  01 00 00 00 00 10 50 AB 
   1033       444.174 DT     03F9 Rx 8  04 00 00 00 00 00 00 00 
   1034       444.418 DT     03D3 Rx 3  00 00 00 
   1035       444.662 DT     0263 Rx 8  03 10 20 03 00 00 00 00 
   1036       445.224 DT     023E Rx 8  28 C6 63 95 01 6E 66 FB 
   1037       445.847 DT     0623 Rx 8  28 B1 36 EE 1A 82 F7 A3 
   1038       446.095 DT     0201 Rx 8  04 00 00 00 00 00 00 00 
   1039       446.333 DT     02E1 Rx 8  03 6C 00 02 2C 44 00 00 
   1040       446.581 DT     0788 Rx 8  02 1F 00 00 00 00 00 00 
   1041       447.515 DT     0132 Rx 8  DE 89 F7 FF 26 40 FF 0F 
   1042       447.665 DT     01FA Rx 3  22 C0 01 
   1043       448.849 DT     02A1 Rx 6  00 00 98 3A 00 00 
   1044       449.048 DT     013D Rx 6  02 20 AA 1A FF 02 
   1045       449.386 DT     0225 Rx 3  05 45 52 
   1046       449.900 DT     02C1 Rx 8  04 CA 03 03 64 C1 39 53 
   1047       450.278 DT     0339 Rx 8  00 B1 00 00 00 01 40 0F 
   1048       450.654 DT     01FB Rx 8  00 FF FF FF FF FF FF FF 
   1049       450.906 DT     0129 Rx 8  5C 20 4F 20 FF 1F FF 3F 
   1050       451.108 DT     0420 Rx 6  28 01 40 4B 00 80 
   1051       451.934 DT     0288 Rx 8  03 16 54 88 50 00 41 10 
   1052       452.895 DT     0381 Rx 8  69 00 00 00 00 00 00 0F 
   1053       453.885 DT     0677 Rx 8  FB FF FF FF FF FF FF 27 
   1054       454.125 DT     0221 Rx 8  41 01 55 00 00 00 60 1A 
   1055       454.363 DT     039A Rx 8  FC FD FD FD FD FD FD 01 
   1056       454.575 DT     0283 Rx 6  00 00 00 00 00 00 
   1057       454.703 DT     0242 Rx 2  10 95 
   1058       456.139 DT     0719 Rx 8  01 00 00 00 00 00 00 00 
   1059       456.853 DT     0623 Rx 8  29 FF EA FE CC F1 3D 37 
   1060       457.516 DT     0132 Rx 8  EE 89 F8 FF 27 40 FF 0F 
   1061       457.930 DT     0798 Rx 8  02 60 76 20 37 01 30 68 
   1062       458.850 DT     013D Rx 6  02 20 AA 1A FF 02 
   1063       459.494 DT     03C0 Rx 8  00 00 00 00 00 00 00 00 
   1064       459.730 DT     0243 Rx 8  7A 7D A1 0F 00 00 00 00 
   1065       459.970 DT     0201 Rx 8  05 40 18 00 10 79 B5 C1 
   1066       460.196 DT     0261 Rx 8  5E FE 04 BA 8F 5C 65 AB 
   1067       460.658 DT     0282 Rx 8  00 00 00 00 EC F3 F2 24 
   1068       460.907 DT     0129 Rx 8  22 21 4F 20 00 20 FF 3F 
   1069       461.657 DT     0360 Rx 8  00 00 00 00 06 00 00 00 
   1070       461.901 DT     02C1 Rx 8  A5 00 00 00 E0 00 00 00 
   1071       462.113 DT     01F9 Rx 6  00 00 00 00 00 00 
   1072       462.341 DT     02E1 Rx 8  FC 19 15 EA 9D 13 0A 00 
   1073       462.461 DT     0409 Rx 1  00 
   1074       463.885 DT     06C8 Rx 8  01 00 00 00 00 00 00 00 
   1075       464.494 DT     0103 Rx 8  11 30 00 00 96 14 11 02 
   1076       466.913 DT     0400 Rx 7  40 60 E0 BF EF FB 00 
   1077       467.525 DT     0132 Rx 8  E5 89 F8 FF 27 40 FF 0F 
   1078       468.137 DT     0439 Rx 8  00 00 20 00 00 00 43 02 
   1079       468.369 DT     0623 Rx 8  2A 23 1A 78 F7 97 FF E9 
   1080       468.651 DT     0102 Rx 8  22 33 00 00 E8 38 11 08 
   1081       468.853 DT     013D Rx 6  02 20 AA 1A FF 02 
   1082       469.503 DT     0123 Rx 8  00 00 48 12 D2 00 00 80 
   1083       469.910 DT     0677 Rx 8  04 0F 00 00 00 00 00 00 
   1084       470.152 DT     02A8 Rx 8  C2 00 00 00 00 80 70 5C 
   1085       470.382 DT     03A1 Rx 8  68 62 0D 98 00 30 82 B7 
   1086       470.666 DT     0142 Rx 8  28 02 02 00 00 00 00 00 
   1087       470.902 DT     0273 Rx 8  81 A0 30 00 19 02 30 11 
   1088       471.136 DT     0129 Rx 8  6B 22 4F 20 00 20 FF 3F 
   1089       471.386 DT     0340 Rx 8  01 00 00 00 00 00 00 00 
   1090       471.820 DT     039D Rx 5  85 68 55 28 00 
   1091       473.899 DT     02C1 Rx 8  06 00 00 00 40 00 00 00 
   1092       474.141 DT     0201 Rx 8  3E 73 33 03 00 00 00 00 
   1093       474.277 DT     0119 Rx 2  00 00 
   1094       474.465 DT     03A3 Rx 5  00 D0 00 00 08 
   1095       474.701 DT     0263 Rx 8  00 EE 0C F3 E4 3F A8 FA 
   1096       474.941 DT     02B3 Rx 8  00 82 81 82 82 7D 67 00 
   1097       475.167 DT     0622 Rx 8  02 36 16 55 55 55 55 55 
   1098       475.629 DT     0122 Rx 6  00 00 12 12 12 00 
   1099       475.847 DT     0428 Rx 6  00 00 10 10 00 00 
   1100       476.088 DT     0545 Rx 8  02 00 19 00 00 00 60 C5 
   1101       476.880 DT     0623 Rx 8  11 2C 76 16 FE D5 F3 A8 
   1102       477.520 DT     0132 Rx 8  E7 89 F7 FF 26 40 FF 0F 
   1103       477.758 DT     0372 Rx 8  10 00 00 00 00 9A E2 2E 
   1104       478.006 DT     02E1 Rx 8  05 00 00 00 00 00 00 00 
   1105       478.863 DT     013D Rx 6  02 20 AA 1A FF 02 
   1106       479.481 DT     0393 Rx 8  06 00 FC D8 07 C0 1E 20 
   1107       480.631 DT     03A2 Rx 8  00 C0 72 0D 05 80 C6 6C 
   1108       480.907 DT     0129 Rx 8  15 23 4F 20 FF 1F FF 3F 
   1109       481.137 DT     0622 Rx 8  30 00 0A 55 55 55 55 55 
   1110       481.885 DT     0241 Rx 7  32 64 9C 0C 19 57 00 
   1111       482.645 DT     0272 Rx 8  06 00 FD E0 07 C0 1E 20 
   1112       484.203 DT     039A Rx 8  FD FD FD FD FD 01 00 00 
   1113       484.488 DT     020C Rx 8  00 80 4A 1E 00 B0 07 00 
   1114       485.224 DT     023E Rx 8  28 C6 63 95 01 6E 76 0B 
   1115       485.888 DT     02C1 Rx 8  07 00 14 0D 0E 1D 22 47 
   1116       486.132 DT     0677 Rx 8  05 02 00 28 00 00 00 00 
   1117       486.364 DT     0718 Rx 7  03 FF FF FF FF FF FF 
   1118       486.604 DT     0797 Rx 8  14 09 00 00 00 00 30 39 
   1119       486.958 DT     025B Rx 8  D3 C0 02 00 00 00 20 10 
   1120       487.520 DT     0132 Rx 8  E7 89 F7 FF 27 40 FF 0F 
   1121       487.894 DT     0201 Rx 8  40 06 19 00 70 43 06 00 
   1122       488.907 DT     031E Rx 8  00 00 00 00 00 00 00 00 
   1123       489.025 DT     041D Rx 1  00 
   1124       489.297 DT     021D Rx 8  2C 20 08 14 80 00 40 10 
   1125       489.495 DT     013D Rx 6  02 20 AA 1A FF 02 
   1126       489.667 DT     01F8 Rx 4  22 00 00 00 
   1127       489.906 DT     0243 Rx 8  FC 7F FF 5F A2 02 41 29 
   1128       490.138 DT     025D Rx 8  DF 8C 01 C3 44 C1 0A E0 
   1129       490.378 DT     0379 Rx 8  04 60 60 1E 00 00 00 00 
   1130       490.514 DT     03E3 Rx 2  00 00 
   1131       490.746 DT     03C2 Rx 8  00 55 55 55 00 00 55 45 
   1132       490.982 DT     0129 Rx 8  FA 24 4F 20 00 20 FF 3F 
   1133       491.181 DT     043D Rx 6  02 20 AA 1A FF 02 
   1134       491.331 DT     0229 Rx 3  43 04 00 
   1135       491.581 DT     027D Rx 8  00 00 00 00 00 00 00 00 
   1136       491.747 DT     0249 Rx 4  D3 04 00 00 
   1137       491.917 DT     029D Rx 4  00 00 00 20 
   1138       492.157 DT     0381 Rx 8  0A 00 00 A8 FA AA 00 00 
   1139       492.408 DT     03E8 Rx 8  05 00 00 00 00 00 00 00 
   1140       492.658 DT     054F Rx 8  00 00 00 00 00 00 00 00 
   1141       492.888 DT     0623 Rx 8  21 37 00 1A 6E F7 8A FF 
   1142       493.128 DT     0261 Rx 8  03 00 00 00 00 40 74 F8 
   1143       493.368 DT     02F1 Rx 8  06 90 18 01 08 00 01 00 
   1144       493.598 DT     075D Rx 8  C9 10 E7 83 B7 86 03 00 
   1145       493.769 DT     02BD Rx 4  00 00 00 00 
   1146       494.011 DT     02E1 Rx 8  10 21 04 00 00 00 26 08 
   1147       494.165 DT     077D Rx 3  12 00 00 
   1148       494.321 DT     07DD Rx 3  FF 00 01 
   1149       494.567 DT     04E3 Rx 8  00 8E 03 00 00 00 08 00 
   1150       496.011 DT     0139 Rx 1  00 
   1151       496.658 DT     03E2 Rx 8  40 15 80 0A 00 00 04 04 
   1152       497.518 DT     0132 Rx 8  E7 89 F8 FF 28 40 FF 0F 
   1153       497.908 DT     02C1 Rx 8  80 0C 32 0B 8B 1F 00 00 
   1154       498.154 DT     07A8 Rx 8  2A 1F 00 70 00 00 00 00 
   1155       498.854 DT     013D Rx 6  02 20 AA 1A FF 02 
   1156       499.464 DT     02E3 Rx 7  20 00 00 CC 01 0B 00 
   1157       500.643 DT     01FB Rx 8  01 FE FF B7 6D 0B 00 00 
   1158       500.885 DT     02A7 Rx 8  00 00 00 00 00 84 05 84 
   1159       501.117 DT     0129 Rx 8  84 25 4F 20 FF 1F FF 3F 
   1160       501.909 DT     0201 Rx 8  01 64 64 EA 29 02 96 00 
   1161       502.157 DT     03DA Rx 8  00 00 00 00 00 00 00 00 
   1162       502.401 DT     0677 Rx 8  F8 FF FF FF FF FF FF 3F 
   1163       502.723 DT     02A6 Rx 8  00 00 FF 1F 00 00 00 00 
   1164       503.635 DT     04E2 Rx 8  00 80 01 00 00 00 08 00 
   1165       503.863 DT     0623 Rx 8  22 E8 FE DD F5 D6 36 EE 
   1166       504.097 DT     0221 Rx 8  40 41 05 05 00 50 71 6F 
   1167       504.332 DT     0228 Rx 8  03 16 54 88 50 00 41 B0 
   1168       504.566 DT     0343 Rx 8  00 90 5C EE A1 36 00 00 
   1169       504.796 DT     0263 Rx 8  01 E9 12 F2 E4 3C A5 FA 
   1170       505.036 DT     02C7 Rx 8  00 00 00 00 00 47 48 FF 
   1171       505.278 DT     03F5 Rx 8  00 C8 19 09 00 00 00 00 
   1172       505.526 DT     055A Rx 8  01 00 00 00 00 00 00 00 
   1173       505.758 DT     0405 Rx 8  11 33 45 37 46 41 30 4D 
   1174       505.910 DT     0113 Rx 3  01 97 01 
   1175       506.146 DT     07FF Rx 8  01 91 45 44 42 4C 7A 00 
   1176       506.381 DT     0318 Rx 8  16 03 03 0F 11 15 0B 77 
   1177       506.609 DT     0458 Rx 7  02 02 00 80 00 00 00 
   1178       507.539 DT     0132 Rx 8  EA 89 F8 FF 2D 40 FF 0F 
   1179       508.159 DT     037A Rx 8  00 00 00 00 00 00 00 00 
   1180       508.887 DT     0545 Rx 8  80 01 31 60 A1 0A 7A 81 
   1181       509.085 DT     013D Rx 6  02 20 AA 1A FF 02 
   1182       509.318 DT     02D2 Rx 8  D9 29 8D 4E 00 00 A1 01 
   1183       509.556 DT     0252 Rx 8  00 00 8C 06 00 00 A0 0F 
   1184       509.792 DT     0212 Rx 8  98 24 DE 0F 02 FF 1F 02 
   1185       510.018 DT     0292 Rx 8  4A 57 4D 75 D4 27 9E 01 
   1186       510.230 DT     025A Rx 6  00 00 00 00 00 00 
   1187       510.471 DT     02C1 Rx 8  01 00 00 14 28 70 64 00 
   1188       510.705 DT     0262 Rx 8  0B 00 D2 0D 00 70 52 12 
   1189       510.941 DT     0129 Rx 8  37 26 4F 20 00 20 FF 3F 
   1190       511.175 DT     0282 Rx 8  4D 05 00 81 21 01 7A 02 
   1191       511.409 DT     02E1 Rx 8  29 0A A3 6A 17 00 00 00 
   1192       511.539 DT     02F2 Rx 2  12 01 
   1193       511.785 DT     03C3 Rx 8  00 00 00 00 00 45 00 00 
   1194       512.019 DT     02C4 Rx 8  08 B3 01 0D 0E 9F 17 00 
   1195       512.255 DT     07B8 Rx 8  8A 1D 00 33 50 04 30 00 
   1196       512.434 DT     039D Rx 5  86 69 55 28 00 
   1197       512.682 DT     0204 Rx 8  81 00 00 46 00 00 00 10 
   1198       512.964 DT     0264 Rx 6  3B 00 00 00 A0 00 
   1199       513.466 DT     0224 Rx 8  04 08 00 40 19 01 10 08 
   1200       513.923 DT     078A Rx 8  01 00 05 00 00 00 74 06 
   1201       514.103 DT     02B4 Rx 5  68 AD 25 BC 00 
   1202       514.347 DT     0359 Rx 8  04 00 00 00 01 00 00 04 
   1203       514.585 DT     039A Rx 8  FC FD FD FD FD FD FD 01 
   1204       514.831 DT     0553 Rx 8  00 00 00 00 00 00 40 98 
   1205       514.963 DT     02D1 Rx 2  7F 01 
   1206       515.195 DT     0623 Rx 8  23 1A 64 F7 7B FF E7 FE 
   1207       515.904 DT     0201 Rx 8  2A 0F 20 C0 09 60 11 01 
   1208       516.154 DT     06E8 Rx 8  01 00 00 00 00 00 00 00 
   1209       517.518 DT     0132 Rx 8  E9 89 F7 FF 26 40 FF 0F 
   1210       517.762 DT     0552 Rx 8  00 00 00 00 00 00 40 97 
   1211       518.012 DT     0677 Rx 8  01 FF FF FF FF FF FF 00 
   1212       518.869 DT     013D Rx 6  02 20 AA 1A FF 02 
   1213       519.487 DT     0383 Rx 8  97 00 1E 80 00 00 A0 00 
   1214       519.715 DT     0243 Rx 8  01 FC 59 59 5E 5E 7A 7A 
   1215       519.952 DT     03A1 Rx 8  2B A0 22 01 00 00 90 14 
   1216       520.200 DT     038A Rx 8  00 00 00 00 00 00 00 00 
   1217       520.650 DT     0142 Rx 8  01 00 40 0A 00 00 00 00 
   1218       520.908 DT     0129 Rx 8  20 27 4F 20 00 20 FF 3F 
   1219       521.896 DT     02C1 Rx 8  02 74 C4 57 00 80 02 00 
   1220       522.088 DT     0284 Rx 5  10 00 00 00 00 
   1221       522.326 DT     02E8 Rx 8  C2 00 00 00 00 80 70 9C 
   1222       522.850 DT     022A Rx 4  00 00 19 16 
   1223       524.455 DT     0423 Rx 6  00 00 00 00 08 00 
   1224       524.665 DT     0422 Rx 6  80 00 10 00 00 00 
   1225       525.213 DT     023E Rx 8  28 C6 63 95 01 6E 86 1B 
   1226       525.845 DT     0623 Rx 8  24 E3 F3 E6 37 11 1A 57 
   1227       526.079 DT     0261 Rx 8  00 10 2A 00 D6 43 80 14 
   1228       526.323 DT     02E1 Rx 8  02 00 00 00 00 00 01 00 
   1229       526.547 DT     0421 Rx 7  00 0A 00 10 00 00 00 
   1230       526.790 DT     042A Rx 8  01 90 00 48 00 24 00 02 
   1231       527.522 DT     0132 Rx 8  E7 89 F8 FF 28 40 FF 0F 
   1232       527.770 DT     0372 Rx 8  11 00 00 00 00 00 00 00 
   1233       528.048 DT     0448 Rx 6  00 00 10 10 00 00 
   1234       528.858 DT     013D Rx 6  02 20 AA 1A FF 02 
   1235       529.484 DT     02C3 Rx 8  55 1B A8 36 00 00 12 00 
   1236       529.900 DT     0201 Rx 8  03 40 18 00 10 89 F5 C1 
   1237       530.643 DT     03A2 Rx 8  C5 04 00 00 01 80 21 01 
   1238       530.895 DT     0381 Rx 8  0B F0 FC EE EE EF EE 00 
   1239       531.131 DT     0129 Rx 8  F7 28 4F 20 00 20 FF 3F 
   1240       531.649 DT     02C2 Rx 8  00 00 00 97 01 00 C0 65 
   1241       532.093 DT     0219 Rx 5  04 74 74 00 00 
   1242       533.885 DT     0789 Rx 8  54 09 00 00 00 00 40 4C 
   1243       534.125 DT     02C1 Rx 8  03 00 40 66 00 00 35 00 
   1244       534.241 DT     0419 Rx 1  00 
   1245       534.488 DT     0677 Rx 8  02 FF FF FF FF 00 00 00 
   1246       534.732 DT     0263 Rx 8  02 00 00 00 6B 10 00 00 
   1247       535.886 DT     0718 Rx 7  04 FF FF 00 00 00 00 
   1248       536.858 DT     0623 Rx 8  25 F7 90 FF E9 FE ED F1 
   1249       537.088 DT     0441 Rx 8  7F C5 44 20 DB 0E 10 5B 
   1250       537.528 DT     0132 Rx 8  E7 89 F8 FF 29 40 FF 0F 
   1251       538.200 DT     02F9 Rx 8  D0 FB 07 00 00 00 00 00 
   1252       538.668 DT     0302 Rx 8  21 00 00 00 00 00 00 00 
   1253       538.867 DT     013D Rx 6  02 20 AA 1A FF 02 
   1254       539.917 DT     03C8 Rx 8  00 00 00 00 00 00 00 00 
   1255       540.651 DT     03C2 Rx 8  29 55 00 00 00 00 00 00 
   1256       540.907 DT     0129 Rx 8  0F 29 4F 20 01 20 FF 3F 
   1257       541.087 DT     0249 Rx 4  83 05 00 00 
   1258       541.921 DT     02E1 Rx 8  03 6C 00 02 2C 44 00 00 
   1259       542.165 DT     0545 Rx 8  01 00 00 00 00 10 80 DB 
   1260       543.900 DT     0201 Rx 8  04 00 00 00 00 00 00 00 
   1261       544.178 DT     03F9 Rx 8  05 00 00 00 00 00 00 00 
   1262       544.418 DT     039A Rx 8  FD FD FD FD FD 01 00 00 
   1263       545.882 DT     0788 Rx 8  08 D5 A1 63 00 00 00 10 
   1264       546.118 DT     02C1 Rx 8  04 CA 03 03 64 C1 39 53 
   1265       547.516 DT     0132 Rx 8  E2 89 F8 FF 2B 40 FF 0F 
   1266       547.666 DT     01FA Rx 3  22 C0 01 
   1267       548.196 DT     0623 Rx 8  26 B9 37 00 1A 4D F7 7F 
   1268       548.850 DT     02A1 Rx 6  00 00 98 3A 00 00 
   1269       549.049 DT     013D Rx 6  02 20 AA 1A FF 02 
   1270       549.391 DT     0225 Rx 3  05 45 52 
   1271       549.627 DT     0243 Rx 8  7A 7D A1 0F 00 00 00 00 
   1272       549.929 DT     0677 Rx 8  FB FF FF FF FF FF FF 27 
   1273       550.283 DT     0339 Rx 8  00 B1 00 00 00 01 40 0F 
   1274       550.659 DT     01FB Rx 8  00 FF FF FF FF FF FF FF 
   1275       550.905 DT     0129 Rx 8  D0 2A 4F 20 01 20 FF 3F 
   1276       551.107 DT     0420 Rx 6  28 01 40 4B 00 90 
   1277       551.630 DT     039D Rx 5  87 6A 55 28 00 
   1278       551.958 DT     0288 Rx 8  03 16 54 88 50 00 51 20 
   1279       552.244 DT     020A Rx 6  F6 15 09 82 18 01 
   1280       553.894 DT     0221 Rx 8  41 01 55 00 00 00 80 3A 
   1281       554.464 DT     0283 Rx 6  00 00 00 00 00 00 
   1282       554.592 DT     0242 Rx 2  10 95 
   1283       556.144 DT     0719 Rx 8  00 94 52 00 00 00 00 00 
   1284       557.517 DT     0132 Rx 8  DF 89 F8 FF 26 40 FF 0F 
   1285       557.893 DT     02C1 Rx 8  A5 00 00 00 E0 00 00 00 
   1286       558.133 DT     0201 Rx 8  05 40 18 00 10 79 B5 C1 
   1287       558.363 DT     02E1 Rx 8  FC 19 15 1A 9E 17 0A 00 
   1288       558.593 DT     0798 Rx 8  6B D6 59 CF 3A 0B 40 F6 
   1289       558.883 DT     0261 Rx 8  31 48 F2 FF 10 4A 9A 9F 
   1290       559.081 DT     013D Rx 6  02 20 AA 1A FF 02 
   1291       559.515 DT     03C0 Rx 8  01 00 00 00 00 00 00 01 
   1292       560.651 DT     0282 Rx 8  00 00 00 00 EC F3 F2 24 
   1293       560.908 DT     0129 Rx 8  8C 2B 4F 20 00 20 FF 3F 
   1294       561.658 DT     0360 Rx 8  01 00 00 00 00 00 00 00 
   1295       561.780 DT     0409 Rx 1  00 
   1296       562.110 DT     01F9 Rx 6  00 00 00 00 00 00 
   1297       562.506 DT     0623 Rx 8  27 FF E7 FE F4 F4 62 37 
   1298       563.882 DT     06C8 Rx 8  CC 01 00 2C 00 00 00 00 
   1299       564.497 DT     0103 Rx 8  11 30 00 00 96 12 11 02 
   1300       564.741 DT     0263 Rx 8  03 10 20 03 00 00 00 00 
   1301       564.979 DT     02B3 Rx 8  01 7E 7E 80 69 7E 7E 82 
   1302       565.219 DT     023E Rx 8  28 C6 63 95 05 6E 96 2F 
   1303       565.907 DT     0677 Rx 8  04 0F 00 00 00 00 00 00 
   1304       566.781 DT     0400 Rx 7  40 60 E0 BF EF FB 00 
   1305       567.523 DT     0132 Rx 8  E4 89 F8 FF 27 40 FF 0F 
   1306       568.139 DT     0439 Rx 8  00 00 20 00 00 00 43 02 
   1307       568.652 DT     0102 Rx 8  22 33 00 00 E8 38 11 08 
   1308       568.856 DT     013D Rx 6  02 20 AA 1A FF 02 
   1309       569.506 DT     0123 Rx 8  00 00 48 12 D2 00 00 80 
   1310       569.912 DT     02C1 Rx 8  06 00 00 00 40 00 00 00 
   1311       570.154 DT     02A8 Rx 8  C2 00 00 00 00 80 80 6C 
   1312       570.402 DT     0381 Rx 8  0C 00 00 82 00 00 00 5D 
   1313       570.630 DT     03A1 Rx 8  68 62 0D 98 00 34 A2 DB 
   1314       570.874 DT     0142 Rx 8  28 02 02 00 00 00 00 00 
   1315       571.109 DT     0129 Rx 8  EC 2C 4F 20 00 20 FF 3F 
   1316       571.348 DT     0285 Rx 8  61 02 86 01 01 00 20 00 
   1317       571.596 DT     0340 Rx 8  02 00 00 00 00 00 00 00 
   1318       571.910 DT     0201 Rx 8  3E 73 33 03 00 00 00 00 
   1319       573.848 DT     0623 Rx 8  28 00 1A 43 F7 6E FF E6 
   1320       574.096 DT     02E1 Rx 8  05 00 00 00 00 00 00 00 
   1321       574.232 DT     0119 Rx 2  00 00 
   1322       574.470 DT     039A Rx 8  FC FD FD FD FD FD FD 01 
   1323       574.659 DT     03A3 Rx 5  00 D0 00 00 08 
   1324       574.901 DT     0545 Rx 8  02 00 16 00 00 00 90 F2 
   1325       575.615 DT     0122 Rx 6  00 00 12 12 12 00 
   1326       575.871 DT     0428 Rx 6  00 00 10 10 00 00 
   1327       577.517 DT     0132 Rx 8  DD 89 F7 FF 26 40 FF 0F 
   1328       577.749 DT     0372 Rx 8  12 00 B1 E6 A2 2B F0 FF 
   1329       578.866 DT     013D Rx 6  02 20 AA 1A FF 02 
   1330       579.482 DT     0393 Rx 8  09 80 63 00 00 00 00 00 
   1331       579.720 DT     0243 Rx 8  FC 7F FF 5F A2 02 41 29 
   1332       580.634 DT     03A2 Rx 8  00 C0 72 0D 05 80 C6 6C 
   1333       580.906 DT     0129 Rx 8  FE 2D 4F 20 00 20 FF 3F 
   1334       581.878 DT     0241 Rx 7  32 64 9C 0C 19 57 00 
   1335       582.113 DT     02C1 Rx 8  07 00 14 0D 0E 1D 22 47 
   1336       582.357 DT     0677 Rx 8  05 02 00 28 00 00 00 00 
   1337       582.647 DT     0272 Rx 8  09 80 63 00 00 00 00 00 
   1338       584.171 DT     043B Rx 8  01 7F 00 FF 00 00 00 00 
   1339       584.409 DT     03DB Rx 8  00 1D 1A 13 16 00 00 00 
   1340       584.647 DT     020C Rx 8  00 80 4A 1E 00 B0 07 00 
   1341       584.875 DT     0623 Rx 8  29 FE FA F2 73 36 EE 1A 
   1342       585.919 DT     0201 Rx 8  40 06 19 00 70 43 06 00 
   1343       586.148 DT     0718 Rx 7  00 7F 7F 7F FF FF FF 
   1344       586.388 DT     0797 Rx 8  14 09 00 00 00 00 40 49 
   1345       587.520 DT     0132 Rx 8  E5 89 F8 FF 27 40 FF 0F 
   1346       587.980 DT     025B Rx 8  D3 C0 02 00 00 00 30 20 
   1347       588.908 DT     031E Rx 8  01 00 00 00 00 00 00 00 
   1348       589.026 DT     041D Rx 1  00 
   1349       589.291 DT     021D Rx 8  2C 20 08 14 80 00 40 10 
   1350       589.489 DT     013D Rx 6  02 20 AA 1A FF 02 
   1351       589.661 DT     01F8 Rx 4  22 00 00 00 
   1352       589.797 DT     03E3 Rx 2  00 00 
   1353       590.029 DT     025D Rx 8  DF 8C 01 C3 44 C1 0A E0 
   1354       590.271 DT     02E1 Rx 8  10 21 04 00 00 00 26 08 
   1355       590.509 DT     0379 Rx 8  05 60 B6 0D 92 00 04 00 
   1356       590.741 DT     03C2 Rx 8  00 55 55 55 00 00 55 45 
   1357       590.980 DT     0129 Rx 8  21 2E 4F 20 00 20 FF 3F 
   1358       591.178 DT     043D Rx 6  02 20 AA 1A FF 02 
   1359       591.328 DT     0229 Rx 3  41 05 00 
   1360       591.578 DT     027D Rx 8  00 00 00 00 00 00 00 00 
   1361       591.745 DT     0249 Rx 4  4C 06 00 00 
   1362       591.973 DT     0261 Rx 8  5E FE 04 BA 8F 5C A5 EB 
   1363       592.143 DT     029D Rx 4  00 00 00 20 
   1364       592.313 DT     02BD Rx 4  00 00 00 00 
   1365       592.491 DT     039D Rx 5  88 6B 55 28 00 
   1366       592.745 DT     03E8 Rx 8  00 00 00 00 00 00 00 00 
   1367       592.993 DT     02F1 Rx 8  07 00 00 00 00 00 00 00 
   1368       593.243 DT     054F Rx 8  00 00 00 00 00 00 00 00 
   1369       593.398 DT     077D Rx 3  12 00 00 
   1370       593.554 DT     07DD Rx 3  FF 00 01 
   1371       593.898 DT     02C1 Rx 8  80 0C 32 0B 8B 1F 00 00 
   1372       594.492 DT     04E3 Rx 8  01 DE 06 01 00 00 08 00 
   1373       594.728 DT     0263 Rx 8  00 EE 0C F3 E4 3F A8 FA 
   1374       595.858 DT     0623 Rx 8  2A 36 F7 7F FF E7 FF 02 
   1375       596.016 DT     0139 Rx 1  00 
   1376       596.667 DT     03E2 Rx 8  40 15 80 0A 00 00 04 04 
   1377       597.521 DT     0132 Rx 8  DE 89 F7 FF 26 40 FF 0F 
   1378       597.915 DT     0677 Rx 8  F8 FF FF FF FF FF FF 3F 
   1379       598.149 DT     07A8 Rx 8  0C D5 A1 63 00 00 40 10 
   1380       598.857 DT     013D Rx 6  02 20 AA 1A FF 02 
   1381       599.465 DT     02E3 Rx 7  03 00 00 C6 01 0B 00 
   1382       599.896 DT     0201 Rx 8  01 64 64 EA 29 02 96 00 
   1383       600.647 DT     01FB Rx 8  01 FE FF B7 6D 0B 00 00 
   1384       600.890 DT     02A7 Rx 8  00 00 00 00 00 84 05 84 
   1385       601.126 DT     0129 Rx 8  7D 2F 4F 20 01 20 FF 3F 
   1386       602.142 DT     03DA Rx 8  00 00 00 00 00 00 00 00 
   1387       602.712 DT     02A6 Rx 8  00 00 FF 1F 00 00 00 00 
   1388       603.632 DT     04E2 Rx 8  01 6C 07 00 00 00 08 00 
   1389       603.906 DT     03F5 Rx 8  00 C8 19 09 00 00 00 00 
   1390       604.056 DT     0113 Rx 3  01 97 01 
   1391       604.291 DT     0221 Rx 8  40 41 05 05 00 50 91 8F 
   1392       604.523 DT     0228 Rx 8  03 16 54 88 50 00 51 C0 
   1393       604.763 DT     02C7 Rx 8  00 00 00 00 00 47 48 FF 
   1394       604.997 DT     0343 Rx 8  00 90 68 EE A1 36 00 00 
   1395       605.237 DT     039A Rx 8  FD FD FD FD FD 01 00 00 
   1396       605.469 DT     07FF Rx 8  02 5F 4E AC DE CD D6 30 
   1397       605.703 DT     0318 Rx 8  16 03 03 0F 11 15 0D 79 
   1398       605.935 DT     023E Rx 8  28 C6 63 95 01 6E A6 3B 
   1399       606.175 DT     02C1 Rx 8  01 00 00 14 28 70 64 00 
   1400       606.410 DT     02E1 Rx 8  29 0A A3 6A 17 00 00 00 
   1401       606.636 DT     0458 Rx 7  02 02 00 80 00 00 00 
   1402       606.882 DT     0623 Rx 8  2B F4 62 36 EE 1A 2C F7 
   1403       607.526 DT     0132 Rx 8  EC 89 F8 FF 27 40 FF 0F 
   1404       607.892 DT     0545 Rx 8  F0 00 31 B0 A1 0E AA 74 
   1405       608.162 DT     037A Rx 8  01 00 00 00 00 00 00 00 
   1406       608.894 DT     0381 Rx 8  0D 00 B8 B8 00 00 6C 80 
   1407       609.092 DT     013D Rx 6  02 20 AA 1A FF 02 
   1408       609.325 DT     02D2 Rx 8  D9 29 8D 4E 00 00 A1 01 
   1409       609.553 DT     0243 Rx 8  01 FC 59 59 5E 5E 7A 7A 
   1410       609.791 DT     0252 Rx 8  00 00 8C 06 00 00 A0 0F 
   1411       610.027 DT     0212 Rx 8  98 24 DE 0F 02 FF 1F 02 
   1412       610.254 DT     0292 Rx 8  4A 57 4D 75 D4 27 9E 01 
   1413       610.384 DT     02F2 Rx 2  12 01 
   1414       610.498 DT     024A Rx 1  03 
   1415       610.732 DT     0262 Rx 8  0B 00 D2 0D 00 70 52 12 
   1416       610.970 DT     0129 Rx 8  98 20 4F 20 01 20 FF 3F 
   1417       611.210 DT     0282 Rx 8  4D 05 00 01 08 01 7A 02 
   1418       611.447 DT     03C3 Rx 8  55 55 55 01 00 00 00 00 
   1419       611.679 DT     07B8 Rx 8  D3 EF 3F FD 69 08 40 51 
   1420       611.919 DT     076A Rx 8  00 63 CB D8 02 00 00 00 
   1421       612.163 DT     02C4 Rx 8  49 D9 05 2F 9D 84 E5 88 
   1422       612.917 DT     0204 Rx 8  81 00 00 46 00 00 00 10 
   1423       613.199 DT     0264 Rx 6  3B 00 00 00 A0 00 
   1424       613.898 DT     0201 Rx 8  2A 0F 20 C0 09 60 11 01 
   1425       614.138 DT     0224 Rx 8  04 08 00 40 19 01 10 08 
   1426       614.384 DT     0359 Rx 8  05 00 00 00 00 00 00 00 
   1427       614.626 DT     0553 Rx 8  00 00 00 00 00 00 50 A8 
   1428       614.876 DT     0677 Rx 8  01 FF FF FF FF FF FF 00 
   1429       615.008 DT     02D1 Rx 2  7F 01 
   1430       615.249 DT     07AA Rx 8  03 F0 FA BF 08 00 00 00 
   1431       615.429 DT     02B4 Rx 5  68 AD 25 BF 00 
   1432       615.665 DT     03C4 Rx 8  1A 2D 30 35 2D 41 00 00 
   1433       615.911 DT     078A Rx 8  01 00 06 00 00 00 05 00 
   1434       616.157 DT     06E8 Rx 8  CC 01 00 2C 00 00 00 00 
   1435       617.522 DT     0132 Rx 8  E9 89 F7 FF 29 40 FF 0F 
   1436       617.764 DT     0552 Rx 8  00 00 00 00 00 00 50 A7 
   1437       618.000 DT     02C1 Rx 8  02 74 C4 57 00 80 02 00 
   1438       618.234 DT     0623 Rx 8  2C 6B FF E5 FF 08 F6 14 
   1439       618.874 DT     013D Rx 6  02 20 AA 1A FF 02 
   1440       619.490 DT     0383 Rx 8  97 00 1E 80 00 00 A0 00 
   1441       619.916 DT     03A1 Rx 8  2B A0 22 01 00 00 B0 34 
   1442       620.164 DT     038A Rx 8  01 00 00 00 00 00 00 00 
   1443       620.650 DT     0142 Rx 8  01 00 40 0A 00 00 00 00 
   1444       620.901 DT     0129 Rx 8  4B 21 4F 20 FF 1F FF 3F 
   1445       621.139 DT     0313 Rx 8  02 64 64 01 00 00 E0 C1 
   1446       621.381 DT     0285 Rx 8  02 D3 00 00 00 00 0E 00 
   1447       621.921 DT     02E1 Rx 8  02 00 00 00 00 00 01 00 
   1448       622.163 DT     02E8 Rx 8  C2 00 00 00 00 80 80 AC 
   1449       622.383 DT     022A Rx 4  00 00 19 16 
   1450       624.456 DT     0423 Rx 6  00 00 00 00 08 00 
   1451       624.686 DT     0263 Rx 8  01 E9 12 F2 E4 3C A5 FA 
   1452       624.925 DT     0261 Rx 8  03 00 00 00 00 40 B4 38 
   1453       625.135 DT     0422 Rx 6  80 00 10 00 00 00 
   1454       625.909 DT     0421 Rx 7  00 0A 00 10 00 00 00 
   1455       626.161 DT     042A Rx 8  01 90 00 48 00 24 00 02 
   1456       627.517 DT     0132 Rx 8  E7 89 F8 FF 27 40 FF 0F 
   1457       627.899 DT     0201 Rx 8  03 40 18 00 10 89 F5 C1 
   1458       628.111 DT     0448 Rx 6  00 00 10 10 00 00 
   1459       628.351 DT     07C8 Rx 8  0D 49 A1 C3 8E 00 00 00 
   1460       628.860 DT     013D Rx 6  02 20 AA 1A FF 02 
   1461       629.492 DT     02C3 Rx 8  00 00 00 A6 01 00 80 69 
   1462       629.912 DT     02C1 Rx 8  03 00 40 66 00 00 35 00 
   1463       630.158 DT     0677 Rx 8  02 FF FF FF FF 00 00 00 
   1464       630.646 DT     03A2 Rx 8  C5 04 00 00 01 80 21 01 
   1465       630.902 DT     0129 Rx 8  6B 22 4F 20 00 20 FF 3F 
   1466       631.644 DT     02C2 Rx 8  55 5B A9 06 00 00 12 00 
   1467       631.823 DT     039D Rx 5  89 6C 55 28 00 
   1468       632.089 DT     0219 Rx 5  F0 1F FF FF 00 
   1469       632.385 DT     0623 Rx 8  2D 37 11 1A 22 F7 57 FF 
   1470       633.889 DT     0789 Rx 8  54 09 00 00 00 00 50 5C 
   1471       634.005 DT     0419 Rx 1  00 
   1472       634.243 DT     039A Rx 8  FC FD FD FD FD FD FD 01 
   1473       635.883 DT     0718 Rx 7  01 FF FF FF FF FF 00 
   1474       636.887 DT     0441 Rx 8  7F C5 44 20 DB 0E 14 5F 
   1475       637.526 DT     0132 Rx 8  E7 89 F8 FF 26 40 FF 0F 
   1476       637.914 DT     0301 Rx 8  21 00 00 00 FF FF FF FF 
   1477       638.152 DT     02E1 Rx 8  03 6C 00 02 2C 44 00 00 
   1478       638.398 DT     02F9 Rx 8  D0 FB 07 08 00 00 00 00 
   1479       638.860 DT     013D Rx 6  02 20 AA 1A FF 02 
   1480       639.482 DT     0243 Rx 8  7A 7D A1 0F 00 00 00 00 
   1481       639.919 DT     03C8 Rx 8  01 00 00 00 00 00 00 00 
   1482       640.651 DT     02E2 Rx 8  03 00 00 C6 01 0B 00 00 
   1483       640.893 DT     03C2 Rx 8  29 55 00 00 00 00 00 00 
   1484       641.133 DT     0129 Rx 8  7C 23 4F 20 00 20 FF 3F 
   1485       641.375 DT     0545 Rx 8  01 00 00 00 00 10 B0 0B 
   1486       641.543 DT     0249 Rx 4  5E 07 00 00 
   1487       641.935 DT     02C1 Rx 8  04 CA 03 03 64 C1 39 53 
   1488       642.184 DT     0201 Rx 8  04 00 00 00 00 00 00 00 
   1489       643.834 DT     0623 Rx 8  2E E4 FF 0A F3 2C 37 00 
   1490       644.182 DT     03F9 Rx 8  00 00 00 00 00 00 00 00 
   1491       644.504 DT     0303 Rx 8  0D 11 84 F7 8B 00 00 00 
   1492       645.216 DT     023E Rx 8  28 C6 63 95 01 6E B6 4B 
   1493       645.910 DT     0677 Rx 8  FB FF FF FF FF FF FF 27 
   1494       646.154 DT     0788 Rx 8  01 00 00 00 FF A1 08 00 
   1495       647.518 DT     0132 Rx 8  E7 89 F8 FF 25 40 FF 0F 
   1496       647.669 DT     01FA Rx 3  22 C0 01 
   1497       647.909 DT     0381 Rx 8  0E 00 C8 C8 00 00 3C 12 
   1498       648.855 DT     013D Rx 6  02 20 AA 1A FF 02 
   1499       649.061 DT     02A1 Rx 6  00 00 98 3A 00 00 
   1500       649.393 DT     0225 Rx 3  05 45 52 
   1501       650.285 DT     0339 Rx 8  00 B1 00 00 00 01 40 0F 
   1502       650.663 DT     01FB Rx 8  00 FF FF FF FF FF FF FF 
   1503       650.902 DT     0129 Rx 8  93 24 4F 20 FF 1F FF 3F 
   1504       651.106 DT     0420 Rx 6  28 01 40 4B 00 A0 
   1505       651.942 DT     0288 Rx 8  03 16 54 88 50 00 61 30 
   1506       652.192 DT     043A Rx 8  00 00 00 00 00 00 00 00 
   1507       653.890 DT     02C1 Rx 8  A5 00 00 00 E0 00 00 00 
   1508       654.126 DT     0221 Rx 8  41 01 55 00 00 00 A0 5A 
   1509       654.358 DT     02E1 Rx 8  FC 19 13 2A 9E 16 0A 00 
   1510       654.602 DT     0263 Rx 8  02 00 00 00 6B 10 00 00 
   1511       654.730 DT     0242 Rx 2  10 95 
   1512       654.943 DT     0283 Rx 6  00 00 00 00 00 00 
   1513       655.187 DT     02B3 Rx 8  A2 24 00 00 00 00 00 00 
   1514       655.419 DT     0623 Rx 8  2F 1A 14 F7 65 FF E5 FF 
   1515       655.917 DT     0201 Rx 8  05 40 18 00 10 79 B5 C1 
   1516       656.167 DT     0719 Rx 8  01 00 00 00 00 00 00 00 
   1517       657.517 DT     0132 Rx 8  E7 89 F8 FF 25 40 FF 0F 
   1518       657.897 DT     0261 Rx 8  00 10 29 00 D6 43 C0 53 
   1519       658.124 DT     0798 Rx 8  5C 29 64 1A 6F 0C 50 D6 
   1520       658.856 DT     013D Rx 6  02 20 AA 1A FF 02 
   1521       659.502 DT     03C0 Rx 8  02 00 00 04 00 00 00 00 
   1522       660.654 DT     0282 Rx 8  00 00 00 00 EC F3 F2 24 
   1523       660.904 DT     0129 Rx 8  ED 25 4F 20 00 20 FF 3F 
   1524       661.660 DT     0360 Rx 8  02 00 00 04 00 00 00 00 
   1525       661.912 DT     0677 Rx 8  04 0F 00 00 00 00 00 00 
   1526       662.124 DT     01F9 Rx 6  00 00 00 00 00 00 
   1527       662.514 DT     0409 Rx 1  00 
   1528       663.893 DT     06C8 Rx 8  01 00 00 00 00 00 00 00 
   1529       664.201 DT     039A Rx 8  FD FD FD FD FD 01 00 00 
   1530       664.501 DT     0103 Rx 8  11 30 00 00 96 14 11 02 
   1531       665.913 DT     02C1 Rx 8  06 00 00 00 40 00 00 00 
   1532       666.859 DT     0623 Rx 8  20 11 F4 62 37 00 1A 0A 
   1533       667.081 DT     0400 Rx 7  40 60 E0 BF EF FB 00 
   1534       667.281 DT     038B Rx 6  FF FF 2F 19 D4 00 
   1535       667.537 DT     0232 Rx 8  4A 00 D0 09 BC 04 00 00 
   1536       667.772 DT     0132 Rx 8  E7 89 F8 FF 2B 40 FF 0F 
   1537       668.018 DT     0752 Rx 8  01 00 00 00 00 18 00 00 
   1538       668.262 DT     0439 Rx 8  00 00 20 00 00 00 43 02 
   1539       668.652 DT     0102 Rx 8  22 33 00 00 E8 38 11 08 
   1540       668.964 DT     013D Rx 6  02 20 AA 1A FF 02 
   1541       669.319 DT     0312 Rx 8  00 44 38 72 33 72 CB 17 
   1542       669.559 DT     0123 Rx 8  00 00 48 12 D2 00 00 80 
   1543       669.797 DT     0243 Rx 8  FC 7F FF 5F A2 02 41 29 
   1544       670.039 DT     0201 Rx 8  3E 73 33 03 00 00 00 00 
   1545       670.281 DT     02A8 Rx 8  C2 00 00 00 00 80 90 7C 
   1546       670.529 DT     02E1 Rx 8  05 00 00 00 00 00 00 00 
   1547       670.773 DT     0142 Rx 8  28 02 02 00 00 00 00 00 
   1548       671.010 DT     0129 Rx 8  37 26 4F 20 00 20 FF 3F 
   1549       671.258 DT     0340 Rx 8  03 00 00 00 00 00 00 00 
   1550       671.484 DT     0293 Rx 8  01 0C 55 91 55 15 A4 96 
   1551       671.682 DT     0374 Rx 6  A6 E0 31 E5 68 04 
   1552       671.892 DT     0253 Rx 7  64 C8 A7 64 C8 47 07 
   1553       672.096 DT     0332 Rx 6  04 03 7D 7B 00 00 
   1554       672.332 DT     0285 Rx 8  03 75 9D 4B 8A 00 00 00 
   1555       672.570 DT     0300 Rx 8  14 05 00 00 31 D4 D9 61 
   1556       672.803 DT     0352 Rx 8  20 82 8E 73 9C 23 00 8E 
   1557       672.981 DT     039D Rx 5  8A 6D 55 28 00 
   1558       673.211 DT     03A1 Rx 8  68 62 0D 98 00 34 C2 FB 
   1559       673.345 DT     0410 Rx 2  45 00 
   1560       673.497 DT     0452 Rx 3  E7 54 09 
   1561       673.731 DT     03F2 Rx 8  05 44 A9 00 80 C3 01 00 
   1562       673.966 DT     03D2 Rx 8  AA 35 03 00 52 0B 04 00 
   1563       674.102 DT     0119 Rx 2  00 00 
