;$FILEVERSION=2.0
;$STARTTIME=44637.6799835995
;$COLUMNS=N,O,T,I,d,l,D
;
;   C:\Users\bayerld\Documents\Tesla\20220317-vehiclecan-schlieﬂen.trc
;   Start time: 17.03.2022 16:19:10.583.0
;   Generated by PCAN-View v4.2.5.569
;-------------------------------------------------------------------------------
;   Connection                 Bit rate
;   PCANLight_USB_16@pcan_usb  500 kBit/s
;-------------------------------------------------------------------------------
;   Message   Time    Type ID     Rx/Tx
;   Number    Offset  |    [hex]  |  Data Length
;   |         [ms]    |    |      |  |  Data [hex] ...
;   |         |       |    |      |  |  |
;---+-- ------+------ +- --+----- +- +- +- +- -- -- -- -- -- -- --
      1         0.173 DT     013D Rx 6  02 20 AA 1A FF 02 
      2         0.353 DT     039D Rx 5  63 5A 41 28 00 
      3         0.845 DT     0132 Rx 8  E8 89 F8 FF 28 40 FF 0F 
      4         1.085 DT     02C7 Rx 8  00 00 00 00 00 47 48 FF 
      5         1.326 DT     0383 Rx 8  97 00 1E 80 00 00 A0 00 
      6         2.004 DT     03A1 Rx 8  2B A0 22 01 00 00 D0 54 
      7         2.250 DT     038A Rx 8  03 00 00 00 00 00 00 00 
      8         2.574 DT     0142 Rx 8  01 00 80 03 00 00 00 00 
      9         2.976 DT     02E8 Rx 8  C2 00 00 00 00 80 10 3C 
     10         6.096 DT     0423 Rx 6  F0 00 00 00 08 00 
     11         6.336 DT     039A Rx 8  FD FD FD FD FD 01 00 00 
     12         6.547 DT     0422 Rx 6  A0 00 10 00 00 00 
     13         7.309 DT     03BB Rx 2  2F 0F 
     14         7.495 DT     02F3 Rx 5  0C 0C 0B 00 00 
     15         7.725 DT     033A Rx 8  DD 00 DD 00 CD 00 54 54 
     16         7.987 DT     0421 Rx 7  00 0A 00 10 00 00 00 
     17         8.225 DT     0129 Rx 8  8C 2B 4F 20 00 20 FF 3F 
     18         8.463 DT     02C1 Rx 8  03 00 40 66 00 F0 34 00 
     19         8.713 DT     02C4 Rx 8  14 00 00 00 00 00 00 00 
     20         8.962 DT     0204 Rx 8  81 00 00 46 00 00 00 10 
     21         9.204 DT     042A Rx 8  01 90 00 48 00 24 00 02 
     22         9.412 DT     0264 Rx 6  3A 00 00 00 A0 00 
     23         9.652 DT     0224 Rx 8  04 08 00 40 19 01 10 08 
     24         9.864 DT     0448 Rx 6  00 00 10 10 00 00 
     25        10.101 DT     0201 Rx 8  03 40 18 00 10 89 F5 C1 
     26        10.284 DT     02B4 Rx 5  69 AD 25 C0 00 
     27        10.482 DT     013D Rx 6  02 20 AA 1A FF 02 
     28        10.728 DT     0677 Rx 8  02 FF FF FF FF 00 00 00 
     29        10.962 DT     0132 Rx 8  E7 89 F8 FF 29 40 FF 0F 
     30        11.196 DT     0243 Rx 8  01 FC 5A 5A 5F 5F 7A 7A 
     31        11.435 DT     02C3 Rx 8  55 1B A8 36 00 00 12 00 
     32        11.671 DT     0372 Rx 8  05 00 E6 FF 6F A1 F3 FF 
     33        11.841 DT     022A Rx 4  00 00 19 16 
     34        12.073 DT     023E Rx 8  28 C6 63 95 01 6E 96 2B 
     35        12.307 DT     0261 Rx 8  00 10 2C 00 D6 43 40 D6 
     36        12.589 DT     03A2 Rx 8  C3 04 00 00 01 80 21 01 
     37        13.581 DT     02C2 Rx 8  00 00 00 97 01 00 C0 65 
     38        14.131 DT     0219 Rx 5  F3 1F FF FF 02 
     39        15.018 DT     0789 Rx 8  54 09 00 00 00 00 E0 EC 
     40        15.978 DT     02E1 Rx 8  03 6C 00 02 2C 44 00 00 
     41        17.970 DT     0718 Rx 7  02 FF FF FF FF FF FF 
     42        18.204 DT     0129 Rx 8  EC 2C 4F 20 00 20 FF 3F 
     43        18.360 DT     0399 Rx 3  00 00 00 
     44        18.476 DT     0419 Rx 1  00 
     45        18.989 DT     0441 Rx 8  7F C5 44 20 DB 0E 38 83 
     46        20.001 DT     02C1 Rx 8  04 CA 03 03 64 C1 39 53 
     47        20.199 DT     013D Rx 6  02 20 AA 1A FF 02 
     48        20.441 DT     02F9 Rx 8  D0 FB 07 10 00 00 00 00 
     49        20.689 DT     0381 Rx 8  18 00 00 00 00 00 00 00 
     50        20.919 DT     0132 Rx 8  E7 89 F8 FF 26 40 FF 0F 
     51        21.167 DT     03C8 Rx 8  02 00 00 00 00 00 00 00 
     52        22.586 DT     03C2 Rx 8  29 55 00 00 00 00 00 00 
     53        23.984 DT     0201 Rx 8  04 00 00 00 00 00 00 00 
     54        24.228 DT     0677 Rx 8  FB FF FF FF FF FF FF 27 
     55        26.154 DT     0263 Rx 8  01 E9 12 F2 E5 3C A5 FA 
     56        26.408 DT     03F9 Rx 8  01 00 00 00 00 00 00 00 
     57        27.024 DT     0788 Rx 8  FE 1E 00 00 00 00 00 00 
     58        27.976 DT     0545 Rx 8  80 01 36 C0 A1 0B 4A B7 
     59        28.208 DT     0129 Rx 8  97 2D 4F 20 FF 1F FF 3F 
     60        28.387 DT     0249 Rx 4  5E 09 00 00 
     61        29.457 DT     01FA Rx 3  22 C0 01 
     62        30.161 DT     013D Rx 6  02 20 AA 1A FF 02 
     63        30.845 DT     0132 Rx 8  E6 89 F7 FF 25 40 FF 0F 
     64        31.051 DT     02A1 Rx 6  00 00 98 3A 00 00 
     65        31.197 DT     0225 Rx 3  05 45 52 
     66        31.990 DT     02C1 Rx 8  A5 00 00 00 E0 00 00 00 
     67        32.222 DT     02E1 Rx 8  FC 19 13 2A 9E 17 0A 00 
     68        32.468 DT     0339 Rx 8  00 B1 00 00 00 01 40 0F 
     69        32.720 DT     01FB Rx 8  00 FF FF FF FF FF FF FF 
     70        33.064 DT     0288 Rx 8  03 16 54 88 50 00 F1 C0 
     71        34.984 DT     0420 Rx 6  28 01 40 4B 00 30 
     72        35.988 DT     0221 Rx 8  41 01 55 00 00 00 C0 7A 
     73        36.200 DT     0283 Rx 6  00 00 00 00 00 00 
     74        36.438 DT     039A Rx 8  FC FD FD FD FD FD FD 01 
     75        36.566 DT     0242 Rx 2  10 95 
     76        37.989 DT     0201 Rx 8  05 40 18 00 10 79 B5 C1 
     77        38.223 DT     0129 Rx 8  48 2E 4F 20 FF 1F FF 3F 
     78        38.465 DT     0719 Rx 8  00 94 52 00 00 00 00 00 
     79        39.101 DT     0798 Rx 8  4C 29 64 18 6B 0C E0 50 
     80        39.987 DT     0677 Rx 8  04 0F 00 00 00 00 00 00 
     81        40.186 DT     013D Rx 6  02 20 AA 1A FF 02 
     82        40.366 DT     039D Rx 5  64 5B 41 28 00 
     83        40.844 DT     0132 Rx 8  E7 89 F7 FF 27 40 FF 0F 
     84        41.144 DT     03C0 Rx 8  00 00 00 00 00 00 00 00 
     85        41.384 DT     0243 Rx 8  7A 7D A9 0F 00 00 00 00 
     86        42.580 DT     0282 Rx 8  00 00 00 00 EC F3 F2 24 
     87        43.576 DT     0360 Rx 8  04 00 00 00 00 00 00 00 
     88        43.992 DT     02C1 Rx 8  06 00 00 00 40 00 00 00 
     89        44.204 DT     01F9 Rx 6  00 00 00 00 00 00 
     90        44.973 DT     0261 Rx 8  31 48 F5 FF 16 4A 5A 68 
     91        45.217 DT     06C8 Rx 8  CC 01 00 2C 00 00 00 00 
     92        45.819 DT     0409 Rx 1  00 
     93        46.155 DT     0103 Rx 8  11 30 00 00 96 12 11 01 
     94        47.987 DT     02E1 Rx 8  05 00 00 00 00 00 00 00 
     95        48.225 DT     0129 Rx 8  D0 2F 4F 20 00 20 FF 3F 
     96        50.189 DT     0439 Rx 8  00 00 20 00 00 00 43 02 
     97        50.387 DT     013D Rx 6  02 20 AA 1A FF 02 
     98        50.623 DT     0102 Rx 8  22 33 00 00 E8 38 11 08 
     99        50.846 DT     0400 Rx 7  40 60 E0 BF EF FB 00 
    100        51.078 DT     0132 Rx 8  E9 89 F8 FF 27 40 FF 0F 
    101        51.320 DT     0123 Rx 8  00 00 48 12 D2 00 00 E0 
    102        51.562 DT     02A8 Rx 8  C2 00 00 00 00 80 20 0C 
    103        52.000 DT     0201 Rx 8  3E 73 33 03 00 00 00 00 
    104        52.226 DT     03A1 Rx 8  68 63 0D 98 04 34 E2 20 
    105        52.584 DT     0142 Rx 8  88 00 02 00 00 00 00 00 
    106        52.817 DT     023E Rx 8  28 C6 63 95 01 6E A6 3B 
    107        53.067 DT     0340 Rx 8  01 00 00 00 00 00 00 00 
    108        55.971 DT     02C1 Rx 8  07 00 14 0D 0E 1D 22 47 
    109        56.107 DT     0119 Rx 2  00 00 
    110        56.349 DT     0263 Rx 8  02 00 00 00 6D 10 00 00 
    111        56.583 DT     02B3 Rx 8  04 99 99 8B 8B 00 00 00 
    112        56.771 DT     03A3 Rx 5  00 D0 00 00 08 
    113        57.015 DT     0677 Rx 8  05 02 00 28 00 00 00 00 
    114        57.225 DT     0428 Rx 6  00 00 10 10 00 00 
    115        57.461 DT     0273 Rx 8  81 A0 30 00 19 02 30 11 
    116        57.666 DT     0122 Rx 6  00 00 12 12 12 00 
    117        58.076 DT     0129 Rx 8  35 20 4F 20 00 20 FF 3F 
    118        58.978 DT     0381 Rx 8  00 1E 56 46 2E 32 A1 40 
    119        60.162 DT     013D Rx 6  02 20 AA 1A FF 02 
    120        60.846 DT     0132 Rx 8  E5 89 F7 FF 27 40 FF 0F 
    121        61.077 DT     0372 Rx 8  06 00 DA FF 8D E5 DC FF 
    122        61.319 DT     0393 Rx 8  09 80 63 00 00 00 00 00 
    123        61.561 DT     0545 Rx 8  01 00 00 00 00 10 50 AB 
    124        62.573 DT     03A2 Rx 8  00 E0 72 0F 05 80 46 6C 
    125        63.958 DT     0241 Rx 7  32 64 9C 0C 19 57 00 
    126        64.200 DT     02E1 Rx 8  10 21 04 00 00 00 26 08 
    127        64.562 DT     0272 Rx 8  09 80 63 00 00 00 00 00 
    128        65.976 DT     0201 Rx 8  40 06 19 00 74 43 06 00 
    129        66.215 DT     020C Rx 8  00 40 4A 1E 00 B0 07 00 
    130        66.455 DT     039A Rx 8  FD FD FD FD FD 01 00 00 
    131        66.915 DT     0797 Rx 8  14 09 00 00 00 00 E0 E9 
    132        67.995 DT     02C1 Rx 8  80 0C 32 0B 8B 1F 00 00 
    133        68.227 DT     0129 Rx 8  4B 21 4F 20 FF 1F FF 3F 
    134        68.459 DT     0718 Rx 7  03 FF FF FF FF FF FF 
    135        70.084 DT     041D Rx 1  00 
    136        70.320 DT     021D Rx 8  2C 20 08 14 80 00 40 10 
    137        70.724 DT     043D Rx 6  02 20 AA 1A FF 02 
    138        70.922 DT     013D Rx 6  02 20 AA 1A FF 02 
    139        71.155 DT     0132 Rx 8  E3 89 F7 FF 28 40 FF 0F 
    140        71.391 DT     0243 Rx 8  FC 7F FF 9F A2 02 41 29 
    141        71.563 DT     01F8 Rx 4  22 00 00 00 
    142        71.795 DT     025D Rx 8  DF 8C 01 C3 44 C1 0A E0 
    143        71.929 DT     03E3 Rx 2  00 04 
    144        72.173 DT     0677 Rx 8  F8 FF FF FF FF FF FF 3F 
    145        72.424 DT     027D Rx 8  00 00 00 00 00 00 00 00 
    146        72.594 DT     029D Rx 4  00 00 00 20 
    147        72.828 DT     0379 Rx 8  07 80 33 AD C5 00 04 00 
    148        73.060 DT     03C2 Rx 8  00 55 55 55 00 00 55 45 
    149        73.230 DT     02BD Rx 4  00 00 00 00 
    150        73.480 DT     03E8 Rx 8  02 00 00 00 00 00 00 00 
    151        73.635 DT     077D Rx 3  12 00 00 
    152        73.791 DT     07DD Rx 3  FF 00 01 
    153        74.971 DT     02F1 Rx 8  0F EB 39 9F 98 53 39 00 
    154        76.015 DT     025B Rx 8  D3 C0 02 00 00 00 D0 C0 
    155        76.257 DT     04E3 Rx 8  03 2F 00 00 00 00 08 00 
    156        77.977 DT     0261 Rx 8  56 FE 03 C2 8F 5C 65 AA 
    157        78.211 DT     0129 Rx 8  02 22 4F 20 FF 1F FF 3F 
    158        78.328 DT     0139 Rx 1  00 
    159        78.478 DT     0229 Rx 3  3B 0F 00 
    160        78.718 DT     03E2 Rx 8  40 15 80 0A 00 00 04 04 
    161        78.884 DT     0249 Rx 4  E2 0A 00 00 
    162        79.132 DT     07A8 Rx 8  3E 1F 00 70 00 00 00 00 
    163        79.382 DT     054F Rx 8  00 00 00 00 00 00 00 00 
    164        80.001 DT     02C1 Rx 8  01 00 00 14 28 70 64 00 
    165        80.199 DT     013D Rx 6  02 20 AA 1A FF 02 
    166        80.431 DT     0201 Rx 8  01 64 64 E6 21 02 96 00 
    167        80.665 DT     02E1 Rx 8  29 0A A3 6A 17 00 00 00 
    168        80.897 DT     0132 Rx 8  E7 89 F7 FF 2B 40 FF 0F 
    169        81.121 DT     02E3 Rx 7  76 0C 00 00 00 00 00 
    170        81.301 DT     039D Rx 5  65 5C 41 28 00 
    171        82.567 DT     01FB Rx 8  01 FE FF B7 6D 0B 00 00 
    172        84.194 DT     03DA Rx 8  00 00 00 00 00 00 00 00 
    173        84.976 DT     0228 Rx 8  03 16 54 88 50 00 F1 60 
    174        85.270 DT     0528 Rx 4  62 33 51 6F 
    175        85.388 DT     03ED Rx 1  00 
    176        85.630 DT     04E2 Rx 8  03 20 01 00 00 00 08 00 
    177        85.878 DT     055A Rx 8  01 00 00 00 00 00 00 00 
    178        86.111 DT     0221 Rx 8  40 41 05 05 00 50 D1 CF 
    179        86.355 DT     0263 Rx 8  03 10 20 03 00 00 00 00 
    180        86.593 DT     0343 Rx 8  00 90 60 AE A1 51 00 00 
    181        86.835 DT     03F5 Rx 8  00 C8 19 09 00 00 00 00 
    182        87.065 DT     0405 Rx 8  11 33 45 37 46 41 30 4D 
    183        87.217 DT     0113 Rx 3  01 97 01 
    184        87.453 DT     07FF Rx 8  01 91 45 44 42 4C 7A 00 
    185        87.687 DT     0318 Rx 8  16 03 0B 0F 11 13 01 73 
    186        87.915 DT     0458 Rx 7  02 02 00 80 00 00 00 
    187        88.156 DT     0129 Rx 8  7C 23 4F 20 00 20 FF 3F 
    188        88.308 DT     0666 Rx 3  00 00 A0 
    189        88.558 DT     0677 Rx 8  01 FF FF FF FF FF FF 00 
    190        88.788 DT     07F1 Rx 7  01 00 00 00 00 00 00 
    191        90.160 DT     013D Rx 6  02 20 AA 1A FF 02 
    192        90.408 DT     037A Rx 8  00 00 00 00 00 00 00 00 
    193        90.857 DT     0132 Rx 8  EA 89 F7 FF 28 40 FF 0F 
    194        91.107 DT     0320 Rx 8  01 00 00 08 00 00 00 00 
    195        91.343 DT     03C3 Rx 8  55 55 55 01 00 00 00 00 
    196        91.577 DT     0772 Rx 8  01 2A 6A 09 00 0A EC 09 
    197        91.811 DT     07B8 Rx 8  EC 78 63 00 00 00 E0 49 
    198        92.047 DT     02C1 Rx 8  02 74 C4 57 00 80 02 00 
    199        92.278 DT     023E Rx 8  28 C6 63 95 01 6E B6 4B 
    200        92.510 DT     02D2 Rx 8  D9 29 8D 4E 00 00 A1 01 
    201        92.748 DT     0252 Rx 8  00 00 8C 06 00 00 A0 0F 
    202        92.984 DT     0212 Rx 8  98 24 D6 0F 02 FF 1F 02 
    203        93.216 DT     0262 Rx 8  0B 00 D2 0D 00 B0 92 12 
    204        93.457 DT     0282 Rx 8  4D 05 00 01 19 01 7A 02 
    205        93.683 DT     0292 Rx 8  4A 57 4D 75 D4 27 9E 01 
    206        93.813 DT     02F2 Rx 2  12 01 
    207        94.055 DT     0201 Rx 8  22 0F 20 C0 09 60 11 01 
    208        94.295 DT     0545 Rx 8  02 00 0E 00 00 00 60 BA 
    209        95.975 DT     02E1 Rx 8  02 00 00 00 00 00 01 00 
    210        96.220 DT     0553 Rx 8  00 00 00 00 00 00 F0 48 
    211        96.464 DT     0359 Rx 8  0F 00 00 00 1E 00 00 00 
    212        96.702 DT     039A Rx 8  FC FD FD FD FD FD FD 01 
    213        96.946 DT     078A Rx 8  01 00 05 00 00 00 74 06 
    214        97.188 DT     02A7 Rx 8  00 00 00 00 00 84 05 84 
    215        97.320 DT     02D1 Rx 2  7F 01 
    216        97.566 DT     06E8 Rx 8  CC 01 00 2C 00 00 00 00 
    217        97.796 DT     07AA Rx 8  26 04 90 86 40 D4 AF 02 
    218        98.037 DT     0381 Rx 8  01 00 00 70 37 44 44 04 
    219        98.273 DT     0129 Rx 8  FA 24 4F 20 00 20 FF 3F 
    220        99.049 DT     02A6 Rx 8  00 00 FF 1F 00 00 00 00 
    221        99.559 DT     0552 Rx 8  00 00 00 00 00 00 F0 47 
    222       100.161 DT     013D Rx 6  02 20 AA 1A FF 02 
    223       100.849 DT     0132 Rx 8  E3 89 F7 FF 26 40 FF 0F 
    224       101.089 DT     02C7 Rx 8  00 00 00 00 00 47 48 FF 
    225       101.323 DT     0243 Rx 8  01 FC 5A 5A 5F 5F 7A 7A 
    226       101.564 DT     0383 Rx 8  97 00 1E 80 00 00 A0 00 
    227       102.022 DT     03A1 Rx 8  2B A0 22 01 00 00 F0 74 
    228       102.270 DT     038A Rx 8  00 00 00 00 00 00 00 00 
    229       102.576 DT     0142 Rx 8  01 00 80 03 00 00 00 00 
    230       102.978 DT     02E8 Rx 8  C2 00 00 00 00 80 20 4C 
    231       103.996 DT     02C1 Rx 8  03 00 40 66 00 F0 34 00 
    232       104.242 DT     0677 Rx 8  02 FF FF FF FF 00 00 00 
    233       106.099 DT     0423 Rx 6  F0 00 00 00 08 00 
    234       106.521 DT     0422 Rx 6  A0 00 10 00 00 00 
    235       107.389 DT     0453 Rx 4  00 00 00 00 
    236       107.583 DT     0284 Rx 5  10 00 00 00 00 
    237       107.987 DT     0421 Rx 7  00 0A 00 10 00 00 00 
    238       108.223 DT     0129 Rx 8  ED 25 4F 20 00 20 FF 3F 
    239       108.459 DT     0201 Rx 8  03 40 18 00 10 89 F5 C1 
    240       108.699 DT     02C4 Rx 8  55 00 02 04 10 80 FF 00 
    241       108.948 DT     0204 Rx 8  81 00 00 46 00 00 00 10 
    242       109.190 DT     042A Rx 8  01 90 00 48 00 24 00 02 
    243       109.398 DT     0264 Rx 6  3A 00 00 00 A0 00 
    244       109.638 DT     0224 Rx 8  04 08 00 40 19 01 10 08 
    245       109.819 DT     02B4 Rx 5  68 AD 25 C6 00 
    246       110.031 DT     0448 Rx 6  00 00 10 10 00 00 
    247       110.229 DT     013D Rx 6  02 20 AA 1A FF 02 
    248       110.865 DT     0132 Rx 8  DD 89 F7 FF 25 40 FF 0F 
    249       111.105 DT     0261 Rx 8  03 00 00 00 00 40 74 F8 
    250       111.343 DT     02C3 Rx 8  00 00 00 A6 01 00 80 69 
    251       111.582 DT     0372 Rx 8  07 00 00 00 DB A1 06 00 
    252       111.752 DT     022A Rx 4  00 00 19 16 
    253       111.990 DT     02E1 Rx 8  03 6C 00 02 2C 44 00 00 
    254       112.580 DT     03A2 Rx 8  C3 04 00 00 01 80 21 01 
    255       113.562 DT     02C2 Rx 8  55 5B A9 06 00 00 12 00 
    256       114.144 DT     0219 Rx 5  04 74 74 00 00 
    257       115.020 DT     0789 Rx 8  54 09 00 00 00 00 F0 FC 
    258       115.973 DT     02C1 Rx 8  04 CA 03 03 64 C1 39 53 
    259       116.210 DT     0263 Rx 8  00 EE 0C F3 E4 3F A8 FA 
    260       117.968 DT     0718 Rx 7  04 FF FF 00 00 00 00 
    261       118.200 DT     0129 Rx 8  5E 26 4F 20 FF 1F FF 3F 
    262       118.316 DT     0419 Rx 1  00 
    263       118.434 DT     0744 Rx 1  00 
    264       118.998 DT     0441 Rx 8  7F C5 44 20 DB 0E 3C 87 
    265       119.999 DT     0321 Rx 8  F8 D9 A7 7B 02 7A 00 93 
    266       120.197 DT     013D Rx 6  02 20 AA 1A FF 02 
    267       120.439 DT     02F9 Rx 8  D0 FB 07 18 00 00 00 00 
    268       120.623 DT     039D Rx 5  66 5D 41 28 00 
    269       120.867 DT     0677 Rx 8  FB FF FF FF FF FF FF 27 
    270       121.103 DT     0132 Rx 8  E8 89 F7 FF 27 40 FF 0F 
    271       121.353 DT     03C8 Rx 8  03 00 00 00 00 00 00 00 
    272       121.994 DT     0201 Rx 8  04 00 00 00 00 00 00 00 
    273       122.584 DT     02E2 Rx 8  D8 16 00 00 00 00 00 00 
    274       122.826 DT     03C2 Rx 8  29 55 00 00 00 00 00 00 
    275       126.020 DT     0743 Rx 1  00 
    276       126.268 DT     03F9 Rx 8  02 00 00 00 00 00 00 00 
    277       126.508 DT     039A Rx 8  FD FD FD FD FD 01 00 00 
    278       126.978 DT     0545 Rx 8  D0 01 31 C0 A1 0F 7A 36 
    279       127.214 DT     0788 Rx 8  08 D5 A1 63 00 00 00 10 
    280       127.989 DT     02C1 Rx 8  A5 00 00 00 E0 00 00 00 
    281       128.227 DT     0129 Rx 8  20 27 4F 20 00 20 FF 3F 
    282       128.457 DT     02E1 Rx 8  FC 19 15 2A 9E 17 0A 00 
    283       128.623 DT     0249 Rx 4  28 0B 00 00 
    284       129.471 DT     01FA Rx 3  22 C0 01 
    285       130.157 DT     013D Rx 6  02 20 AA 1A FF 02 
    286       130.842 DT     0132 Rx 8  E1 89 F8 FF 26 40 FF 0F 
    287       131.048 DT     02A1 Rx 6  00 00 98 3A 00 00 
    288       131.194 DT     0225 Rx 3  05 45 52 
    289       131.434 DT     0243 Rx 8  7A 7D A9 0F 00 00 00 00 
    290       131.960 DT     023E Rx 8  28 C6 63 95 01 6E C6 5B 
    291       132.336 DT     0339 Rx 8  00 B1 00 00 00 01 40 0F 
    292       132.588 DT     01FB Rx 8  00 FF FF FF FF FF FF FF 
    293       133.070 DT     0288 Rx 8  03 16 54 88 50 00 01 D0 
    294       134.980 DT     0420 Rx 6  28 01 40 4B 00 40 
    295       135.995 DT     0201 Rx 8  05 40 18 00 10 79 B5 C1 
    296       136.231 DT     0221 Rx 8  41 01 55 00 00 00 E0 9A 
    297       136.443 DT     0283 Rx 6  00 00 00 00 00 00 
    298       136.571 DT     0242 Rx 2  10 95 
    299       136.819 DT     0677 Rx 8  04 0F 00 00 00 00 00 00 
    300       137.051 DT     0381 Rx 8  22 59 F6 77 00 F0 3C 64 
    301       138.073 DT     0129 Rx 8  F7 28 4F 20 00 20 FF 3F 
    302       138.324 DT     0719 Rx 8  01 00 00 00 00 00 00 00 
    303       139.108 DT     0798 Rx 8  05 00 00 00 00 00 F0 FD 
    304       139.992 DT     02C1 Rx 8  06 00 00 00 40 00 00 00 
    305       140.190 DT     013D Rx 6  02 20 AA 1A FF 02 
    306       140.844 DT     0132 Rx 8  F0 89 F8 FF 26 40 FF 0F 
    307       141.146 DT     03C0 Rx 8  01 00 00 00 00 00 00 01 
    308       142.578 DT     0282 Rx 8  00 00 00 00 EC F3 F2 24 
    309       143.579 DT     0360 Rx 8  05 00 00 00 00 00 00 00 
    310       143.995 DT     02E1 Rx 8  05 00 00 00 00 00 00 00 
    311       144.207 DT     01F9 Rx 6  00 00 00 00 00 00 
    312       144.445 DT     0261 Rx 8  00 10 2B 00 D6 43 80 15 
    313       145.059 DT     06C8 Rx 8  01 00 00 00 00 00 00 00 
    314       145.803 DT     0409 Rx 1  00 
    315       146.143 DT     0103 Rx 8  11 30 00 00 96 12 11 01 
    316       146.374 DT     0263 Rx 8  01 E9 12 F2 E5 3C A5 FA 
    317       146.612 DT     02B3 Rx 8  05 00 50 80 00 00 7D 7D 
    318       148.074 DT     0129 Rx 8  A2 29 4F 20 00 20 FF 3F 
    319       149.986 DT     0201 Rx 8  3E 73 33 03 00 00 00 00 
    320       150.184 DT     013D Rx 6  02 20 AA 1A FF 02 
    321       150.428 DT     0439 Rx 8  00 00 20 00 00 00 43 02 
    322       150.664 DT     0102 Rx 8  22 33 00 00 E8 38 11 08 
    323       150.899 DT     0132 Rx 8  F0 89 F8 FF 28 40 FF 0F 
    324       151.139 DT     02A8 Rx 8  C2 00 00 00 00 80 30 1C 
    325       151.381 DT     0123 Rx 8  00 00 48 12 D2 00 00 E0 
    326       151.603 DT     0400 Rx 7  40 60 E0 BF EF FB 00 
    327       151.985 DT     02C1 Rx 8  07 00 14 0D 0E 1D 22 47 
    328       152.213 DT     03A1 Rx 8  68 63 0D 98 04 34 02 40 
    329       152.457 DT     0677 Rx 8  05 02 00 28 00 00 00 00 
    330       152.701 DT     0142 Rx 8  88 00 02 00 00 00 00 00 
    331       152.989 DT     0340 Rx 8  02 00 00 00 00 00 00 00 
    332       156.090 DT     03A3 Rx 5  00 D0 00 00 08 
    333       156.226 DT     0119 Rx 2  00 00 
    334       156.464 DT     039A Rx 8  FC FD FD FD FD FD FD 01 
    335       156.988 DT     0428 Rx 6  00 00 10 10 00 00 
    336       157.226 DT     0285 Rx 8  61 02 86 01 01 00 20 00 
    337       157.360 DT     03D8 Rx 2  72 01 
    338       157.564 DT     0122 Rx 6  00 00 12 12 12 00 
    339       157.798 DT     0353 Rx 8  7B 0F 39 80 02 0E F8 FA 
    340       158.075 DT     0129 Rx 8  7D 2A 4F 20 00 20 FF 3F 
    341       159.995 DT     02E1 Rx 8  10 21 04 00 00 00 26 08 
    342       160.193 DT     013D Rx 6  02 20 AA 1A FF 02 
    343       160.439 DT     0319 Rx 8  24 00 00 00 FF FF FF FF 
    344       160.621 DT     039D Rx 5  67 5E 41 28 00 
    345       160.857 DT     0132 Rx 8  D7 89 F7 FF 27 40 FF 0F 
    346       161.104 DT     0372 Rx 8  08 00 00 00 00 00 00 00 
    347       161.340 DT     0243 Rx 8  FC 7F FF 9F A2 02 41 29 
    348       161.578 DT     0393 Rx 8  06 00 FC E0 07 C0 1E 20 
    349       161.822 DT     0545 Rx 8  01 00 00 00 00 10 80 DB 
    350       162.576 DT     03A2 Rx 8  00 E0 72 0D 05 00 46 6C 
    351       163.956 DT     0241 Rx 7  32 64 9C 0C 19 57 00 
    352       164.192 DT     0201 Rx 8  40 06 19 00 74 43 06 00 
    353       164.432 DT     02C1 Rx 8  80 0C 32 0B 8B 1F 00 00 
    354       164.672 DT     0272 Rx 8  06 00 FD E8 07 C0 1E 20 
    355       166.185 DT     020C Rx 8  00 40 4A 1E 00 B0 07 00 
    356       166.427 DT     03DB Rx 8  05 0E 00 0E 00 00 00 00 
    357       166.669 DT     043B Rx 8  03 7F 00 FF 00 00 00 00 
    358       166.965 DT     0797 Rx 8  14 09 00 00 00 00 F0 F9 
    359       168.039 DT     0677 Rx 8  F8 FF FF FF FF FF FF 3F 
    360       168.277 DT     0129 Rx 8  21 2B 4F 20 01 20 FF 3F 
    361       168.505 DT     0718 Rx 7  00 7F 7F 7F FF FF FF 
    362       170.260 DT     075D Rx 8  07 00 FE A8 00 00 00 00 
    363       170.496 DT     021D Rx 8  2C 20 08 14 80 00 40 10 
    364       170.774 DT     013D Rx 6  02 20 AA 1A FF 02 
    365       171.006 DT     0132 Rx 8  E5 89 F7 FF 27 40 FF 0F 
    366       171.140 DT     03E3 Rx 2  00 04 
    367       171.539 DT     01F8 Rx 4  22 00 00 00 
    368       171.771 DT     025D Rx 8  DF 8C 01 C3 44 C1 0A E0 
    369       172.051 DT     023E Rx 8  28 C6 63 95 01 6E D6 6B 
    370       172.301 DT     027D Rx 8  00 00 00 00 00 00 00 00 
    371       172.535 DT     0379 Rx 8  00 00 50 80 9A 19 1A 01 
    372       172.767 DT     03C2 Rx 8  00 55 55 55 00 00 55 45 
    373       172.886 DT     041D Rx 1  00 
    374       173.056 DT     029D Rx 4  00 00 00 20 
    375       173.306 DT     03E8 Rx 8  03 00 00 00 00 00 00 00 
    376       173.504 DT     043D Rx 6  02 20 AA 1A FF 02 
    377       173.674 DT     02BD Rx 4  00 00 00 00 
    378       173.828 DT     077D Rx 3  12 00 00 
    379       174.167 DT     07DD Rx 3  FF 00 01 
    380       175.031 DT     02F1 Rx 8  10 01 00 00 00 00 00 00 
    381       176.027 DT     02C1 Rx 8  01 00 00 14 28 70 64 00 
    382       176.269 DT     025B Rx 8  D3 C0 02 00 00 00 E0 D0 
    383       176.511 DT     0263 Rx 8  02 00 00 00 6D 10 00 00 
    384       176.745 DT     02E1 Rx 8  29 0A A3 6A 17 00 00 00 
    385       176.987 DT     0381 Rx 8  03 80 80 80 80 80 00 00 
    386       177.219 DT     0261 Rx 8  31 48 10 00 16 4A 9A C4 
    387       177.468 DT     04E3 Rx 8  04 00 00 00 00 00 00 00 
    388       178.032 DT     0201 Rx 8  01 64 64 E6 21 02 96 00 
    389       178.266 DT     0129 Rx 8  41 2C 4F 20 01 20 FF 3F 
    390       178.382 DT     0139 Rx 1  00 
    391       178.532 DT     0229 Rx 3  46 00 00 
    392       178.772 DT     03E2 Rx 8  40 15 80 0A 00 00 04 04 
    393       178.940 DT     0249 Rx 4  3A 0C 00 00 
    394       179.175 DT     07A8 Rx 8  0C D5 A1 63 00 00 40 10 
    395       179.425 DT     054F Rx 8  00 00 00 00 00 00 00 00 
    396       180.207 DT     013D Rx 6  02 20 AA 1A FF 02 
    397       180.889 DT     0132 Rx 8  E9 89 F8 FF 28 40 FF 0F 
    398       181.155 DT     02E3 Rx 7  F7 D3 4F 3F 29 E3 0F 
    399       182.615 DT     01FB Rx 8  01 FE FF B7 6D 0B 00 00 
    400       184.035 DT     0677 Rx 8  01 FF FF FF FF FF FF 00 
    401       184.284 DT     03DA Rx 8  00 00 00 00 00 00 00 00 
    402       185.028 DT     0228 Rx 8  03 16 54 88 50 00 01 70 
    403       185.194 DT     0113 Rx 3  01 97 01 
    404       185.428 DT     07FF Rx 8  02 5F 4E AC DE CD D6 30 
    405       185.670 DT     04E2 Rx 8  04 00 13 00 09 00 00 00 
    406       185.902 DT     0318 Rx 8  16 03 0B 0F 11 13 03 75 
    407       186.134 DT     0221 Rx 8  40 41 05 05 00 50 F1 EF 
    408       186.371 DT     0343 Rx 8  00 90 60 AE A1 36 00 00 
    409       186.610 DT     039A Rx 8  FD FD FD FD FD 01 00 00 
    410       186.853 DT     03F5 Rx 8  00 C8 19 09 00 00 00 00 
    411       187.079 DT     0458 Rx 7  02 02 00 80 00 00 00 
    412       188.039 DT     02C1 Rx 8  02 74 C4 57 00 80 02 00 
    413       188.275 DT     0129 Rx 8  FE 2D 4F 20 00 20 FF 3F 
    414       190.207 DT     013D Rx 6  02 20 AA 1A FF 02 
    415       190.455 DT     037A Rx 8  01 00 00 00 00 00 00 00 
    416       190.896 DT     0132 Rx 8  E2 89 F8 FF 26 40 FF 0F 
    417       191.126 DT     07B8 Rx 8  05 60 59 DE 8D 00 F0 BB 
    418       191.360 DT     0243 Rx 8  01 FC 5A 5A 5F 5F 7A 7A 
    419       191.604 DT     03C3 Rx 8  00 00 00 00 00 49 00 00 
    420       192.056 DT     0201 Rx 8  22 0F 20 C0 09 60 11 01 
    421       192.300 DT     02E1 Rx 8  02 00 00 00 00 00 01 00 
    422       192.533 DT     02D2 Rx 8  D9 29 8D 4E 00 00 A1 01 
    423       192.771 DT     0252 Rx 8  00 00 8C 06 00 00 A0 0F 
    424       193.007 DT     0212 Rx 8  98 24 D6 0F 02 FF 1F 02 
    425       193.239 DT     0262 Rx 8  0B 00 D2 0D 00 B0 92 12 
    426       193.473 DT     0282 Rx 8  4D 05 00 81 14 01 7A 02 
    427       193.699 DT     0292 Rx 8  4A 57 4D 75 D4 27 9E 01 
    428       193.830 DT     02F2 Rx 2  12 01 
    429       194.068 DT     0545 Rx 8  02 00 0D 00 00 00 90 E9 
    430       196.194 DT     0553 Rx 8  00 00 00 00 00 00 00 58 
    431       196.444 DT     0359 Rx 8  00 00 00 00 00 00 00 00 
    432       196.764 DT     076A Rx 8  00 63 CB D8 02 00 00 00 
    433       197.014 DT     06E8 Rx 8  01 00 00 00 00 00 00 00 
    434       197.256 DT     02A7 Rx 8  00 00 00 00 00 84 05 84 
    435       197.389 DT     02D1 Rx 2  7F 01 
    436       197.637 DT     03AA Rx 8  00 00 00 00 00 00 00 00 
    437       198.119 DT     0129 Rx 8  21 2E 4F 20 00 20 FF 3F 
    438       198.357 DT     07AA Rx 8  07 F9 FF F9 FF F4 FF 00 
    439       198.603 DT     078A Rx 8  01 00 06 00 00 00 05 00 
    440       199.083 DT     02A6 Rx 8  00 00 FF 1F 00 00 00 00 
    441       199.610 DT     0552 Rx 8  00 00 00 00 00 00 00 57 
    442       200.032 DT     02C1 Rx 8  03 00 40 66 00 F0 34 00 
    443       200.230 DT     013D Rx 6  02 20 AA 1A FF 02 
    444       200.412 DT     039D Rx 5  68 5F 41 28 00 
    445       200.658 DT     0677 Rx 8  02 FF FF FF FF 00 00 00 
    446       200.896 DT     0132 Rx 8  E0 89 F8 FF 27 40 FF 0F 
    447       201.136 DT     02C7 Rx 8  00 00 00 00 00 47 48 FF 
    448       201.376 DT     0383 Rx 8  97 00 1E 80 00 00 A0 00 
    449       202.050 DT     03A1 Rx 8  2B A0 22 01 00 00 10 94 
    450       202.299 DT     038A Rx 8  01 00 00 00 00 00 00 00 
    451       202.627 DT     0142 Rx 8  01 00 80 03 00 00 00 00 
    452       203.025 DT     02E8 Rx 8  C2 00 00 00 00 80 30 5C 
    453       206.029 DT     0201 Rx 8  03 40 18 00 10 89 F5 C1 
    454       206.273 DT     0263 Rx 8  03 10 20 03 00 00 00 00 
    455       206.479 DT     0423 Rx 6  F0 00 00 00 08 00 
    456       206.689 DT     0422 Rx 6  A0 00 10 00 00 00 
    457       207.167 DT     0313 Rx 8  02 64 64 01 00 00 D0 B1 
    458       207.454 DT     02D3 Rx 8  F5 00 A3 02 13 F0 0C 54 
    459       207.696 DT     0285 Rx 8  02 D3 00 00 00 00 0E 00 
    460       208.038 DT     0421 Rx 7  00 0A 00 10 00 00 00 
    461       208.276 DT     0129 Rx 8  D0 2F 4F 20 00 20 FF 3F 
    462       208.514 DT     02E1 Rx 8  03 6C 00 02 2C 44 00 00 
    463       208.760 DT     02C4 Rx 8  16 FA 0C 00 00 00 00 01 
    464       209.009 DT     0204 Rx 8  81 00 00 46 00 00 00 10 
    465       209.251 DT     042A Rx 8  01 90 00 48 00 24 00 02 
    466       209.459 DT     0264 Rx 6  3B 00 00 00 A0 00 
    467       209.699 DT     0224 Rx 8  04 08 00 40 19 01 10 08 
    468       209.880 DT     02B4 Rx 5  67 AD 25 C5 00 
    469       210.106 DT     0261 Rx 8  56 FE 03 C2 8F 5C A5 EA 
    470       210.346 DT     03C4 Rx 8  10 00 00 00 E2 E0 E7 CD 
    471       210.558 DT     0448 Rx 6  00 00 10 10 00 00 
    472       210.776 DT     013D Rx 6  02 20 AA 1A FF 02 
    473       211.012 DT     0132 Rx 8  E7 89 F7 FF 26 40 FF 0F 
    474       211.250 DT     02C3 Rx 8  55 1B A8 36 00 00 12 00 
    475       211.497 DT     0372 Rx 8  09 00 00 00 00 00 00 00 
    476       211.667 DT     022A Rx 4  00 00 19 16 
    477       211.995 DT     023E Rx 8  28 C6 63 95 01 6E E6 7B 
    478       212.231 DT     02C1 Rx 8  04 CA 03 03 64 C1 39 53 
    479       212.613 DT     03A2 Rx 8  C3 04 00 00 01 80 21 01 
    480       213.029 DT     07E8 Rx 8  0B 2D 01 01 00 01 00 00 
    481       213.617 DT     02C2 Rx 8  00 00 00 97 01 00 C0 65 
    482       214.187 DT     0219 Rx 5  F0 1F FF FF 00 
    483       215.022 DT     0381 Rx 8  04 80 80 80 80 80 00 00 
    484       215.264 DT     0789 Rx 8  54 09 00 00 00 00 00 0C 
    485       216.034 DT     0677 Rx 8  FB FF FF FF FF FF FF 27 
    486       216.302 DT     039A Rx 8  FC FD FD FD FD FD FD 01 
    487       218.022 DT     0718 Rx 7  01 FF FF FF FF FF 00 
    488       218.260 DT     0129 Rx 8  35 20 4F 20 00 20 FF 3F 
    489       218.376 DT     0419 Rx 1  00 
    490       219.049 DT     0441 Rx 8  7F C5 44 20 DB 0E 00 4B 
    491       220.054 DT     0201 Rx 8  04 00 00 00 00 00 00 00 
    492       220.252 DT     013D Rx 6  02 20 AA 1A FF 02 
    493       220.496 DT     02F9 Rx 8  D0 FB 07 20 00 00 00 00 
    494       220.898 DT     0132 Rx 8  EB 89 F7 FF 25 40 FF 0F 
    495       221.148 DT     03C8 Rx 8  04 00 00 00 00 00 00 00 
    496       221.388 DT     0243 Rx 8  7A 7D A9 0F 00 00 00 00 
    497       222.633 DT     03C2 Rx 8  29 55 00 00 00 00 00 00 
    498       224.027 DT     02C1 Rx 8  A5 00 00 00 E0 00 00 00 
    499       224.257 DT     02E1 Rx 8  FC 19 15 2A 9E 13 0A 00 
    500       226.017 DT     0545 Rx 8  40 01 31 C0 A1 0F AA D6 
    501       226.287 DT     03F9 Rx 8  03 00 00 00 00 00 00 00 
    502       227.093 DT     0788 Rx 8  01 00 00 00 FF A1 08 00 
    503       228.117 DT     0129 Rx 8  22 21 4F 20 00 20 FF 3F 
    504       228.296 DT     0249 Rx 4  13 0D 00 00 
    505       229.510 DT     01FA Rx 3  22 C0 01 
    506       230.204 DT     013D Rx 6  02 20 AA 1A FF 02 
    507       230.890 DT     0132 Rx 8  DE 89 F8 FF 28 40 FF 0F 
    508       231.097 DT     02A1 Rx 6  00 00 98 3A 00 00 
    509       231.243 DT     0225 Rx 3  05 45 52 
    510       232.043 DT     0677 Rx 8  04 0F 00 00 00 00 00 00 
    511       232.385 DT     0339 Rx 8  00 B1 00 00 00 01 40 0F 
    512       232.637 DT     01FB Rx 8  00 FF FF FF FF FF FF FF 
    513       233.079 DT     0288 Rx 8  03 16 54 88 50 00 11 E0 
    514       234.033 DT     0201 Rx 8  05 40 18 00 10 79 B5 C1 
    515       235.031 DT     0420 Rx 6  28 01 40 4B 00 50 
    516       236.045 DT     02C1 Rx 8  06 00 00 00 40 00 00 00 
    517       236.283 DT     0221 Rx 8  41 01 55 00 00 00 00 BA 
    518       236.520 DT     0263 Rx 8  00 EE 0C F3 E4 3F A8 FA 
    519       236.648 DT     0242 Rx 2  10 95 
    520       236.860 DT     0283 Rx 6  00 00 00 00 00 00 
    521       237.086 DT     02B3 Rx 8  06 D2 29 E3 D6 40 A2 D3 
    522       238.114 DT     0129 Rx 8  C6 22 4F 20 01 20 FF 3F 
    523       238.356 DT     0719 Rx 8  00 94 52 00 00 00 00 00 
    524       239.154 DT     0798 Rx 8  9E 01 00 00 00 00 00 A7 
    525       240.044 DT     02E1 Rx 8  05 00 00 00 00 00 00 00 
    526       240.243 DT     013D Rx 6  02 20 AA 1A FF 02 
    527       240.425 DT     039D Rx 5  59 50 41 28 00 
    528       240.897 DT     0132 Rx 8  E4 89 F8 FF 25 40 FF 0F 
    529       241.199 DT     03C0 Rx 8  02 00 00 04 00 00 00 00 
    530       242.633 DT     0282 Rx 8  00 00 00 00 EC F3 F2 24 
    531       243.029 DT     0261 Rx 8  03 00 00 00 00 40 B4 38 
    532       243.637 DT     0360 Rx 8  06 00 00 00 00 00 00 00 
    533       244.211 DT     01F9 Rx 6  00 00 00 00 00 00 
    534       245.070 DT     06C8 Rx 8  CC 01 00 2C 00 00 00 00 
    535       245.844 DT     0409 Rx 1  00 
    536       246.196 DT     0103 Rx 8  11 30 00 00 96 14 11 01 
    537       246.436 DT     039A Rx 8  FD FD FD FD FD 01 00 00 
    538       248.026 DT     02C1 Rx 8  07 00 14 0D 0E 1D 22 47 
    539       248.266 DT     0129 Rx 8  7C 23 4F 20 00 20 FF 3F 
    540       248.508 DT     0201 Rx 8  3E 73 33 03 00 00 00 00 
    541       248.753 DT     0677 Rx 8  05 02 00 28 00 00 00 00 
    542       250.241 DT     0439 Rx 8  00 00 20 00 00 00 43 02 
    543       250.439 DT     013D Rx 6  02 20 AA 1A FF 02 
    544       250.675 DT     0102 Rx 8  22 33 00 00 E8 38 11 08 
    545       250.921 DT     0132 Rx 8  E0 89 F7 FF 26 40 FF 0F 
    546       251.163 DT     02A8 Rx 8  C2 00 00 00 00 80 40 2C 
    547       251.406 DT     0123 Rx 8  00 00 48 12 D2 00 00 E0 
    548       251.642 DT     0243 Rx 8  FC 7F FF 9F A2 02 41 29 
    549       251.864 DT     0400 Rx 7  40 60 E0 BF EF FB 00 
    550       252.090 DT     03A1 Rx 8  68 63 0D 98 04 34 22 60 
    551       252.624 DT     0142 Rx 8  88 00 02 00 00 00 00 00 
    552       252.856 DT     023E Rx 8  28 C6 63 95 01 6E F6 8B 
    553       253.104 DT     0340 Rx 8  03 00 00 00 00 00 00 00 
    554       253.656 DT     0410 Rx 2  45 00 
    555       254.036 DT     0381 Rx 8  05 00 00 00 00 00 00 00 
    556       256.038 DT     02E1 Rx 8  10 21 04 00 00 00 26 08 
    557       256.175 DT     0119 Rx 2  00 00 
    558       256.363 DT     03A3 Rx 5  00 D0 00 00 08 
    559       257.053 DT     0428 Rx 6  00 00 10 10 00 00 
    560       257.463 DT     0293 Rx 8  01 0C 55 91 55 15 94 86 
    561       257.667 DT     0122 Rx 6  00 00 12 12 12 00 
    562       257.877 DT     0253 Rx 7  64 C8 A7 64 C8 47 07 
    563       258.115 DT     0285 Rx 8  03 75 9D 4B 8A 00 00 00 
    564       258.352 DT     0129 Rx 8  FA 24 4F 20 00 20 FF 3F 
    565       259.062 DT     0545 Rx 8  01 00 00 00 00 10 B0 0B 
    566       260.036 DT     02C1 Rx 8  80 0C 32 0B 8B 1F 00 00 
    567       260.234 DT     013D Rx 6  02 20 AA 1A FF 02 
    568       260.902 DT     0132 Rx 8  F4 89 F8 FF 28 40 FF 0F 
    569       261.133 DT     0372 Rx 8  0A C2 A2 16 B4 F0 FF 02 
    570       261.375 DT     0393 Rx 8  09 80 63 00 00 00 00 00 
    571       262.033 DT     0201 Rx 8  40 06 19 00 74 43 06 00 
    572       262.619 DT     03A2 Rx 8  00 C0 72 0F 05 00 46 6C 
    573       264.013 DT     0241 Rx 7  32 64 9C 0C 19 57 00 
    574       264.257 DT     0677 Rx 8  F8 FF FF FF FF FF FF 3F 
    575       264.601 DT     0272 Rx 8  09 80 63 00 00 00 00 00 
    576       266.187 DT     020C Rx 8  00 40 4A 1E 00 B0 07 00 
    577       266.417 DT     0263 Rx 8  01 E9 12 F2 E5 3C A5 FA 
    578       266.971 DT     0797 Rx 8  14 09 00 00 00 00 00 09 
    579       268.030 DT     0718 Rx 7  02 FF FF FF FF FF FF 
    580       268.266 DT     0129 Rx 8  ED 25 4F 20 00 20 FF 3F 
    581       270.132 DT     041D Rx 1  00 
    582       270.368 DT     021D Rx 8  2C 20 08 14 80 00 40 10 
    583       270.773 DT     043D Rx 6  02 20 AA 1A FF 02 
    584       270.972 DT     013D Rx 6  02 20 AA 1A FF 02 
    585       271.202 DT     0132 Rx 8  E7 89 F8 FF 27 40 FF 0F 
    586       271.336 DT     03E3 Rx 2  00 04 
    587       271.569 DT     025D Rx 8  DF 8C 01 C3 44 C1 0A E0 
    588       271.741 DT     01F8 Rx 4  22 00 00 00 
    589       272.061 DT     02C1 Rx 8  01 00 00 14 28 70 64 00 
    590       272.311 DT     027D Rx 8  00 00 00 00 00 00 00 00 
    591       272.545 DT     02E1 Rx 8  29 0A A3 6A 17 00 00 00 
    592       272.715 DT     029D Rx 4  00 00 00 20 
    593       272.949 DT     0379 Rx 8  01 00 48 80 9A 19 16 01 
    594       273.181 DT     03C2 Rx 8  00 55 55 55 00 00 55 45 
    595       273.352 DT     02BD Rx 4  00 00 00 00 
    596       273.602 DT     03E8 Rx 8  04 00 00 00 00 00 00 00 
    597       273.788 DT     077D Rx 3  12 00 00 
    598       274.170 DT     07DD Rx 3  FF 00 01 
    599       275.026 DT     02F1 Rx 8  11 42 00 5D 00 BE 0A 00 
    600       276.022 DT     0201 Rx 8  01 64 64 E6 21 02 96 00 
    601       276.267 DT     025B Rx 8  D3 C0 02 00 00 00 F0 E0 
    602       276.499 DT     0261 Rx 8  00 10 2B 00 D6 43 C0 55 
    603       276.737 DT     039A Rx 8  FC FD FD FD FD FD FD 01 
    604       276.971 DT     04E3 Rx 8  A5 05 6A 71 04 05 00 00 
    605       278.113 DT     0129 Rx 8  5E 26 4F 20 FF 1F FF 3F 
    606       278.229 DT     0139 Rx 1  00 
    607       278.380 DT     0229 Rx 3  44 01 00 
    608       278.556 DT     0249 Rx 4  AF 0E 00 00 
    609       278.796 DT     03E2 Rx 8  40 15 80 0A 00 00 04 04 
    610       279.026 DT     0330 Rx 8  12 4D 38 39 30 36 31 33 
    611       279.268 DT     07A8 Rx 8  01 00 00 00 FF A1 08 00 
    612       279.518 DT     054F Rx 8  00 00 00 00 00 00 00 00 
    613       280.040 DT     0677 Rx 8  01 FF FF FF FF FF FF 00 
    614       280.239 DT     013D Rx 6  02 20 AA 1A FF 02 
    615       280.419 DT     039D Rx 5  5A 51 41 28 00 
    616       280.895 DT     0132 Rx 8  E5 89 F8 FF 29 40 FF 0F 
    617       281.163 DT     02E3 Rx 7  78 89 28 00 00 00 00 
    618       281.397 DT     0243 Rx 8  01 FC 5A 5A 5F 5F 7A 7A 
    619       282.621 DT     01FB Rx 8  01 FE FF B7 6D 0B 00 00 
    620       284.025 DT     02C1 Rx 8  02 74 C4 57 00 80 02 00 
    621       284.273 DT     03DA Rx 8  00 00 00 00 00 00 00 00 
    622       285.034 DT     0228 Rx 8  03 16 54 88 50 00 11 80 
    623       285.196 DT     0113 Rx 3  01 97 01 
    624       285.432 DT     07FF Rx 8  03 31 08 A1 E0 42 16 41 
    625       285.670 DT     04E2 Rx 8  65 02 86 41 00 20 00 00 
    626       285.904 DT     0318 Rx 8  16 03 0B 0F 11 13 05 77 
    627       286.142 DT     0221 Rx 8  40 41 05 05 00 50 11 0F 
    628       286.376 DT     0343 Rx 8  00 90 64 AE A1 51 00 00 
    629       286.618 DT     03F5 Rx 8  00 C8 19 09 00 00 00 00 
    630       286.844 DT     0458 Rx 7  02 02 00 80 00 00 00 
    631       288.055 DT     02E1 Rx 8  02 00 00 00 00 00 01 00 
    632       288.293 DT     0129 Rx 8  20 27 4F 20 00 20 FF 3F 
    633       288.561 DT     0382 Rx 5  3B 16 24 00 00 
    634       290.043 DT     0201 Rx 8  22 0F 20 C0 09 60 11 01 
    635       290.241 DT     013D Rx 6  02 20 AA 1A FF 02 
    636       290.487 DT     037A Rx 8  02 00 00 00 00 00 00 00 
    637       290.895 DT     0132 Rx 8  E2 89 F8 FF 23 40 FF 0F 
    638       291.140 DT     07B8 Rx 8  06 00 00 00 00 00 00 A8 
    639       291.376 DT     03C3 Rx 8  55 55 55 01 00 00 00 00 
    640       292.042 DT     0545 Rx 8  02 00 0C 00 00 00 C0 18 
    641       292.274 DT     023E Rx 8  28 C6 63 95 01 6E 06 9B 
    642       292.634 DT     0262 Rx 8  0B 00 D2 0D 00 B0 92 12 
    643       292.870 DT     0282 Rx 8  4D 05 00 01 4C 01 7A 02 
    644       293.098 DT     0381 Rx 8  C6 39 CF 21 96 18 03 00 
    645       294.374 DT     02D2 Rx 8  D9 29 8D 4E 00 00 A1 01 
    646       294.613 DT     0252 Rx 8  00 00 8C 06 00 00 A0 0F 
    647       294.849 DT     0212 Rx 8  98 24 D6 0F 02 FF 1F 02 
    648       295.075 DT     0292 Rx 8  4A 57 4D 75 D4 27 9E 01 
    649       295.205 DT     02F2 Rx 2  12 01 
    650       296.062 DT     02C1 Rx 8  03 00 40 66 00 F0 34 00 
    651       296.304 DT     0263 Rx 8  02 00 00 00 6D 10 00 00 
    652       296.554 DT     0359 Rx 8  01 00 00 00 00 00 00 00 
    653       296.798 DT     0553 Rx 8  00 00 00 00 00 00 10 68 
    654       297.044 DT     0677 Rx 8  02 FF FF FF FF 00 00 00 
    655       297.286 DT     02A7 Rx 8  00 00 00 00 00 84 05 84 
    656       297.418 DT     02D1 Rx 2  7F 01 
    657       297.664 DT     06E8 Rx 8  CC 01 00 2C 00 00 00 00 
    658       297.903 DT     077A Rx 8  00 5B 19 00 0F 0D 00 00 
    659       298.139 DT     0129 Rx 8  F7 28 4F 20 00 20 FF 3F 
    660       298.377 DT     07AA Rx 8  C0 EB CE F4 00 00 00 00 
    661       298.617 DT     078A Rx 8  01 00 07 00 00 00 B2 04 
    662       299.075 DT     02A6 Rx 8  00 00 FF 1F 00 00 00 00 
    663       299.613 DT     0552 Rx 8  00 00 00 00 00 00 10 67 
    664       300.212 DT     013D Rx 6  02 20 AA 1A FF 02 
    665       300.900 DT     0132 Rx 8  E7 89 F8 FF 29 40 FF 0F 
    666       301.140 DT     02C7 Rx 8  00 00 00 00 00 47 48 FF 
    667       301.380 DT     0383 Rx 8  97 00 1E 80 00 00 A0 00 
    668       302.054 DT     03A1 Rx 8  2B A0 22 01 00 00 30 B4 
    669       302.300 DT     038A Rx 8  03 00 00 00 00 00 00 00 
    670       302.627 DT     0142 Rx 8  01 00 80 03 00 00 00 00 
    671       303.033 DT     02E8 Rx 8  C2 00 00 00 00 80 40 6C 
    672       304.047 DT     0201 Rx 8  03 40 18 00 10 89 F5 C1 
    673       304.285 DT     02E1 Rx 8  03 6C 00 02 2C 44 00 00 
    674       306.151 DT     0423 Rx 6  F0 00 00 00 08 00 
    675       306.391 DT     039A Rx 8  FD FD FD FD FD 01 00 00 
    676       306.601 DT     0422 Rx 6  A0 00 10 00 00 00 
    677       307.023 DT     0213 Rx 2  60 75 
    678       308.036 DT     0421 Rx 7  00 0A 00 10 00 00 00 
    679       308.272 DT     0129 Rx 8  A2 29 4F 20 00 20 FF 3F 
    680       308.508 DT     02C1 Rx 8  04 CA 03 03 64 C1 39 53 
    681       308.750 DT     02C4 Rx 8  17 80 FF 00 FC 07 20 00 
    682       308.998 DT     0204 Rx 8  81 00 00 46 00 00 00 10 
    683       309.233 DT     0261 Rx 8  31 48 41 00 11 4A DA 30 
    684       309.439 DT     0264 Rx 6  3C 00 00 00 A0 00 
    685       309.679 DT     0224 Rx 8  04 08 00 40 19 01 10 08 
    686       309.859 DT     02B4 Rx 5  68 AD 25 C5 00 
    687       310.095 DT     03C9 Rx 8  00 8C BE DC CF 98 00 05 
    688       310.294 DT     013D Rx 6  02 20 AA 1A FF 02 
    689       310.524 DT     02A4 Rx 8  5A CF BA D7 BD 6E F8 30 
    690       310.766 DT     042A Rx 8  01 90 00 48 00 24 00 02 
    691       310.998 DT     0132 Rx 8  E3 89 F7 FF 28 40 FF 0F 
    692       311.236 DT     02C3 Rx 8  00 00 00 A6 01 00 80 69 
    693       311.476 DT     0243 Rx 8  7A 7D A9 0F 00 00 00 00 
    694       311.721 DT     0372 Rx 8  0B FF FF 3F FF FF 3F 80 
    695       311.891 DT     022A Rx 4  00 00 19 16 
    696       312.025 DT     0364 Rx 2  00 78 
    697       312.237 DT     0448 Rx 6  00 00 10 10 00 00 
    698       312.489 DT     03A4 Rx 8  00 00 00 00 00 00 00 00 
    699       312.727 DT     03A2 Rx 8  C3 04 00 00 01 80 21 01 
    700       312.971 DT     0677 Rx 8  FB FF FF FF FF FF FF 27 
    701       313.614 DT     02C2 Rx 8  55 5B A9 06 00 00 12 00 
    702       314.188 DT     0219 Rx 5  F1 1F FF FF 03 
    703       315.078 DT     0789 Rx 8  54 09 00 00 00 00 10 1C 
    704       318.038 DT     0201 Rx 8  04 00 00 00 00 00 00 00 
    705       318.276 DT     0129 Rx 8  7D 2A 4F 20 00 20 FF 3F 
    706       318.392 DT     0419 Rx 1  00 
    707       318.624 DT     0718 Rx 7  03 FF FF FF FF FF FF 
    708       319.043 DT     0441 Rx 8  7D C5 44 20 DB 0E 04 4D 
    709       319.995 DT     0361 Rx 5  2E 0A 1D 05 01 
    710       320.237 DT     02C1 Rx 8  A5 00 00 00 E0 00 00 00 
    711       320.435 DT     013D Rx 6  02 20 AA 1A FF 02 
    712       320.667 DT     02E1 Rx 8  FC 19 13 2A 9E 17 0A 00 
    713       320.909 DT     02F9 Rx 8  D0 FB 07 28 00 00 00 00 
    714       321.142 DT     0132 Rx 8  E5 89 F8 FF 28 40 FF 0F 
    715       321.324 DT     039D Rx 5  5B 52 41 28 00 
    716       321.576 DT     03C8 Rx 8  05 00 00 00 00 00 00 00 
    717       322.642 DT     02E2 Rx 8  00 00 00 C6 01 0B 00 00 
    718       322.884 DT     03C2 Rx 8  29 55 00 00 00 00 00 00 
    719       325.023 DT     0545 Rx 8  80 01 31 E0 A1 0D DA 64 
    720       326.157 DT     0323 Rx 5  36 16 1E 00 00 
    721       326.401 DT     0263 Rx 8  03 10 20 03 00 00 00 00 
    722       326.636 DT     02B3 Rx 8  07 DF DC EA E9 F3 F0 D3 
    723       326.884 DT     03F9 Rx 8  04 00 00 00 00 00 00 00 
    724       327.134 DT     0788 Rx 8  06 1F 00 00 00 00 00 00 
    725       328.044 DT     0677 Rx 8  04 0F 00 00 00 00 00 00 
    726       328.282 DT     0129 Rx 8  21 2B 4F 20 01 20 FF 3F 
    727       328.462 DT     0249 Rx 4  CE 0F 00 00 
    728       329.512 DT     01FA Rx 3  22 C0 01 
    729       330.207 DT     013D Rx 6  02 20 AA 1A FF 02 
    730       330.893 DT     0132 Rx 8  D4 89 F8 FF 28 40 FF 0F 
    731       331.099 DT     02A1 Rx 6  00 00 98 3A 00 00 
    732       331.245 DT     0225 Rx 3  05 45 52 
    733       331.999 DT     023E Rx 8  28 C6 63 95 01 6E 16 AB 
    734       332.239 DT     0201 Rx 8  05 40 18 00 10 79 B5 C1 
    735       332.490 DT     02C1 Rx 8  06 00 00 00 40 00 00 00 
    736       332.742 DT     01FB Rx 8  00 FF FF FF FF FF FF FF 
    737       332.988 DT     0339 Rx 8  00 B1 00 00 00 01 40 0F 
    738       333.222 DT     0288 Rx 8  03 16 54 88 50 00 21 F0 
    739       333.448 DT     0381 Rx 8  67 69 55 A4 48 93 22 05 
    740       335.032 DT     0420 Rx 6  28 01 40 4B 00 60 
    741       335.282 DT     055A Rx 8  01 00 00 00 00 00 00 00 
    742       335.510 DT     0405 Rx 8  12 43 33 37 39 34 34 35 
    743       335.858 DT     03E9 Rx 8  F1 20 00 00 00 00 60 5D 
    744       336.099 DT     0221 Rx 8  41 01 55 00 00 00 20 DA 
    745       336.311 DT     0283 Rx 6  00 00 00 00 00 00 
    746       336.559 DT     02E1 Rx 8  05 00 00 00 00 00 00 00 
    747       336.687 DT     0242 Rx 2  10 95 
    748       336.925 DT     039A Rx 8  FC FD FD FD FD FD FD 01 
    749       338.113 DT     0129 Rx 8  85 2C 4F 20 FF 1F FF 3F 
    750       338.363 DT     0719 Rx 8  01 00 00 00 00 00 00 00 
    751       339.165 DT     0798 Rx 8  78 42 09 00 00 00 10 DB 
    752       340.207 DT     013D Rx 6  02 20 AA 1A FF 02 
    753       340.894 DT     0132 Rx 8  E5 89 F7 FF 27 40 FF 0F 
    754       341.200 DT     03C0 Rx 8  03 00 80 00 00 00 00 20 
    755       341.436 DT     0243 Rx 8  FC 7F FF 9F A2 02 41 29 
    756       342.026 DT     0261 Rx 8  56 FE 03 C2 8F 5C E5 2A 
    757       342.644 DT     0282 Rx 8  00 00 00 00 EC F3 F2 24 
    758       343.630 DT     0360 Rx 8  07 00 00 00 00 00 00 00 
    759       344.022 DT     02C1 Rx 8  07 00 14 0D 0E 1D 22 47 
    760       344.235 DT     01F9 Rx 6  00 00 00 00 00 00 
    761       344.479 DT     0677 Rx 8  05 02 00 28 00 00 00 00 
    762       345.079 DT     06C8 Rx 8  01 00 00 00 00 00 00 00 
    763       345.849 DT     0409 Rx 1  00 
    764       346.091 DT     0201 Rx 8  3E 73 33 03 00 00 00 00 
    765       346.329 DT     0103 Rx 8  11 30 00 00 96 14 11 01 
    766       348.115 DT     0129 Rx 8  FE 2D 4F 20 00 20 FF 3F 
    767       350.245 DT     0439 Rx 8  00 00 20 00 00 00 43 02 
    768       350.444 DT     013D Rx 6  02 20 AA 1A FF 02 
    769       350.680 DT     0102 Rx 8  22 33 00 00 E8 38 11 08 
    770       350.916 DT     0132 Rx 8  E4 89 F8 FF 28 40 FF 0F 
    771       351.156 DT     02A8 Rx 8  C2 00 00 00 00 80 50 3C 
    772       351.398 DT     0123 Rx 8  00 00 48 12 D2 00 00 E0 
    773       351.621 DT     0400 Rx 7  40 60 E0 BF EF FB 00 
    774       352.059 DT     02E1 Rx 8  10 21 04 00 00 00 26 08 
    775       352.287 DT     03A1 Rx 8  68 63 0D 98 04 34 42 80 
    776       352.639 DT     0142 Rx 8  88 00 02 00 00 00 00 00 
    777       353.041 DT     0340 Rx 8  04 00 00 00 00 00 00 00 
    778       356.045 DT     02C1 Rx 8  80 0C 32 0B 8B 1F 00 00 
    779       356.181 DT     0119 Rx 2  00 00 
    780       356.417 DT     0263 Rx 8  00 EE 0C F3 E4 3F A8 FA 
    781       356.605 DT     03A3 Rx 5  00 D0 00 00 08 
    782       357.041 DT     0428 Rx 6  00 00 10 10 00 00 
    783       357.588 DT     0122 Rx 6  00 00 12 12 12 00 
    784       358.060 DT     0545 Rx 8  01 00 00 00 00 10 E0 3B 
    785       358.294 DT     0129 Rx 8  48 2E 4F 20 FF 1F FF 3F 
    786       360.040 DT     0201 Rx 8  40 06 19 00 74 43 06 00 
    787       360.238 DT     013D Rx 6  02 20 AA 1A FF 02 
    788       360.418 DT     039D Rx 5  5C 53 41 28 00 
    789       360.662 DT     0677 Rx 8  F8 FF FF FF FF FF FF 3F 
    790       360.908 DT     0132 Rx 8  EC 89 F7 FF 27 40 FF 0F 
    791       361.155 DT     0372 Rx 8  0C 00 00 00 00 00 00 00 
    792       361.397 DT     0393 Rx 8  06 00 FB D8 07 C0 1E 20 
    793       362.621 DT     03A2 Rx 8  00 C0 F2 0B 05 00 46 6C 
    794       364.013 DT     0241 Rx 7  32 64 9C 0C 19 57 00 
    795       364.605 DT     0272 Rx 8  06 00 FC E0 07 C0 1E 20 
    796       366.191 DT     020C Rx 8  00 40 4A 1E 00 B0 07 00 
    797       366.431 DT     039A Rx 8  FD FD FD FD FD 01 00 00 
    798       366.974 DT     0797 Rx 8  14 09 00 00 00 00 10 19 
    799       368.044 DT     02C1 Rx 8  01 00 00 14 28 70 64 00 
    800       368.276 DT     0129 Rx 8  B9 2F 4F 20 FF 1F FF 3F 
    801       368.510 DT     02E1 Rx 8  29 0A A3 6A 17 00 00 00 
    802       368.740 DT     0718 Rx 7  04 FF FF 00 00 00 00 
    803       370.242 DT     075D Rx 8  08 61 77 3C 77 72 77 02 
    804       370.479 DT     021D Rx 8  2C 20 08 14 80 00 40 10 
    805       370.779 DT     013D Rx 6  02 20 AA 1A FF 02 
    806       371.011 DT     0132 Rx 8  E8 89 F8 FF 26 40 FF 0F 
    807       371.245 DT     0243 Rx 8  01 FC 5A 5A 5F 5F 7A 7A 
    808       371.479 DT     0381 Rx 8  08 51 0A FD 0F 0C 00 00 
    809       371.651 DT     01F8 Rx 4  22 00 00 00 
    810       371.884 DT     025D Rx 8  DF 8C 01 C3 44 C1 0A E0 
    811       372.114 DT     023E Rx 8  28 C6 63 95 01 6E 26 BB 
    812       372.364 DT     027D Rx 8  00 00 00 00 00 00 00 00 
    813       372.598 DT     0379 Rx 8  02 00 48 80 9A 19 16 01 
    814       372.830 DT     03C2 Rx 8  00 55 55 55 00 00 55 45 
    815       372.964 DT     03E3 Rx 2  00 04 
    816       373.214 DT     03E8 Rx 8  05 00 00 00 00 00 00 00 
    817       373.332 DT     041D Rx 1  00 
    818       373.502 DT     029D Rx 4  00 00 00 20 
    819       373.701 DT     043D Rx 6  02 20 AA 1A FF 02 
    820       373.871 DT     02BD Rx 4  00 00 00 00 
    821       374.103 DT     0201 Rx 8  01 64 64 E6 21 02 96 00 
    822       374.257 DT     077D Rx 3  12 00 00 
    823       374.413 DT     07DD Rx 3  FF 00 01 
    824       375.028 DT     02F1 Rx 8  00 91 15 01 46 00 0C 00 
    825       375.266 DT     0261 Rx 8  03 00 00 00 00 40 F4 78 
    826       376.037 DT     0677 Rx 8  01 FF FF FF FF FF FF 00 
    827       376.277 DT     025B Rx 8  D3 C0 02 00 00 00 00 F0 
    828       376.523 DT     04E3 Rx 8  00 8E 03 00 00 00 08 00 
    829       378.119 DT     0129 Rx 8  35 20 4F 20 00 20 FF 3F 
    830       378.235 DT     0139 Rx 1  00 
    831       378.384 DT     0229 Rx 3  52 02 00 
    832       378.562 DT     0249 Rx 4  9B 00 00 00 
    833       378.802 DT     03E2 Rx 8  40 15 80 0A 00 00 04 04 
    834       379.052 DT     054F Rx 8  00 00 00 00 00 00 00 00 
    835       379.300 DT     07A8 Rx 8  26 1F 00 70 00 00 00 00 
    836       380.038 DT     02C1 Rx 8  02 74 C4 57 00 80 02 00 
    837       380.236 DT     013D Rx 6  02 20 AA 1A FF 02 
    838       380.895 DT     0132 Rx 8  E4 89 F8 FF 27 40 FF 0F 
    839       381.171 DT     02E3 Rx 7  20 00 00 C6 01 0B 00 
    840       382.623 DT     01FB Rx 8  01 FE FF B7 6D 0B 00 00 
    841       384.041 DT     02E1 Rx 8  02 00 00 00 00 00 01 00 
    842       384.289 DT     03DA Rx 8  00 00 00 00 00 00 00 00 
    843       385.040 DT     0228 Rx 8  03 16 54 88 50 00 21 90 
    844       385.204 DT     0113 Rx 3  01 97 01 
    845       385.436 DT     07FF Rx 8  04 CC 16 54 61 12 B4 2A 
    846       385.676 DT     04E2 Rx 8  00 80 01 FB 0F 00 08 00 
    847       385.910 DT     0318 Rx 8  16 03 0B 0F 11 13 07 79 
    848       386.148 DT     0221 Rx 8  40 41 05 05 00 50 31 2F 
    849       386.378 DT     0263 Rx 8  01 E9 12 F2 E5 3C A5 FA 
    850       386.618 DT     0343 Rx 8  00 90 60 7E A1 36 00 00 
    851       386.860 DT     03F5 Rx 8  00 C8 19 09 00 00 00 00 
    852       387.086 DT     0458 Rx 7  02 02 00 80 00 00 00 
    853       388.058 DT     0201 Rx 8  22 0F 20 C0 09 60 11 01 
    854       388.295 DT     0129 Rx 8  22 21 4F 20 00 20 FF 3F 
    855       390.213 DT     013D Rx 6  02 20 AA 1A FF 02 
    856       390.461 DT     037A Rx 8  00 00 00 00 00 00 00 00 
    857       390.903 DT     0132 Rx 8  E7 89 F8 FF 26 40 FF 0F 
    858       391.143 DT     0545 Rx 8  02 00 13 00 00 00 F0 4F 
    859       391.388 DT     03C3 Rx 8  00 00 00 00 00 49 00 00 
    860       391.632 DT     07B8 Rx 8  60 02 09 00 00 00 10 1D 
    861       392.050 DT     02C1 Rx 8  03 00 40 66 00 F0 34 00 
    862       392.296 DT     0677 Rx 8  02 FF FF FF FF 00 00 00 
    863       392.528 DT     02D2 Rx 8  D9 29 8D 4E 00 00 A1 01 
    864       392.766 DT     0252 Rx 8  00 00 8C 06 00 00 A0 0F 
    865       393.002 DT     0212 Rx 8  98 24 D6 0F 02 FF 1F 02 
    866       393.235 DT     0262 Rx 8  0B 00 D2 0D 00 B0 92 12 
    867       393.469 DT     0282 Rx 8  4D 05 00 81 32 01 7A 02 
    868       393.695 DT     0292 Rx 8  4A 57 4D 75 D4 27 9E 01 
    869       393.825 DT     02F2 Rx 2  12 01 
    870       394.065 DT     0392 Rx 8  01 05 A9 16 01 00 00 00 
    871       396.198 DT     0553 Rx 8  00 00 00 00 00 00 20 78 
    872       396.436 DT     0359 Rx 8  02 00 00 00 64 82 86 24 
    873       396.674 DT     039A Rx 8  FC FD FD FD FD FD FD 01 
    874       396.918 DT     078A Rx 8  01 00 08 00 00 00 51 00 
    875       397.160 DT     02A7 Rx 8  00 00 00 00 00 84 05 84 
    876       397.292 DT     02D1 Rx 2  7F 01 
    877       397.542 DT     06E8 Rx 8  01 00 00 00 00 00 00 00 
    878       397.777 DT     07AA Rx 8  01 CD 0D CB 0D 03 00 00 
    879       398.111 DT     0129 Rx 8  C6 22 4F 20 01 20 FF 3F 
    880       399.065 DT     02A6 Rx 8  00 00 FF 1F 00 00 00 00 
    881       399.617 DT     0552 Rx 8  00 00 00 00 00 00 20 77 
    882       400.035 DT     02E1 Rx 8  03 6C 00 02 2C 44 00 00 
    883       400.233 DT     013D Rx 6  02 20 AA 1A FF 02 
    884       400.413 DT     039D Rx 5  5D 54 41 28 00 
    885       400.899 DT     0132 Rx 8  DD 89 F7 FF 25 40 FF 0F 
    886       401.140 DT     02C7 Rx 8  00 00 00 00 00 47 48 FF 
    887       401.380 DT     0243 Rx 8  7A 7D A9 0F 00 00 00 00 
    888       401.620 DT     0383 Rx 8  97 00 1E 80 00 00 A0 00 
    889       402.070 DT     0201 Rx 8  03 40 18 00 10 89 F5 C1 
    890       402.318 DT     038A Rx 8  00 00 00 00 00 00 00 00 
    891       402.554 DT     03A1 Rx 8  2B A0 22 01 00 00 50 D4 
    892       402.798 DT     0142 Rx 8  01 00 80 03 00 00 00 00 
    893       403.041 DT     02E8 Rx 8  C2 00 00 00 00 80 50 7C 
    894       404.055 DT     02C1 Rx 8  04 CA 03 03 64 C1 39 53 
    895       406.157 DT     0423 Rx 6  F0 00 00 00 08 00 
    896       406.577 DT     0422 Rx 6  A0 00 10 00 00 00 
    897       407.351 DT     0473 Rx 8  30 00 00 00 82 A1 34 62 
    898       407.597 DT     03B3 Rx 8  88 80 05 00 00 00 60 00 
    899       408.055 DT     0421 Rx 7  00 0A 00 10 00 00 00 
    900       408.295 DT     0129 Rx 8  7C 23 4F 20 00 20 FF 3F 
    901       408.529 DT     0261 Rx 8  00 10 2C 00 D6 43 00 96 
    902       408.766 DT     02C4 Rx 8  1A 91 F7 03 18 05 70 01 
    903       409.014 DT     0204 Rx 8  81 00 00 46 00 00 00 10 
    904       409.256 DT     042A Rx 8  01 90 00 48 00 24 00 02 
    905       409.464 DT     0264 Rx 6  3B 00 00 00 A0 00 
    906       409.705 DT     0224 Rx 8  04 08 00 40 19 01 10 08 
    907       409.885 DT     02B4 Rx 5  68 AD 25 C5 00 
    908       410.131 DT     0381 Rx 8  69 00 00 00 00 00 00 0F 
    909       410.329 DT     013D Rx 6  02 20 AA 1A FF 02 
    910       410.541 DT     0448 Rx 6  00 00 10 10 00 00 
    911       410.785 DT     0677 Rx 8  FB FF FF FF FF FF FF 27 
    912       411.018 DT     0132 Rx 8  DE 89 F8 FF 27 40 FF 0F 
    913       411.256 DT     02C3 Rx 8  55 1B A8 36 00 00 12 00 
    914       411.500 DT     0372 Rx 8  0D 41 1F 00 00 00 00 00 
    915       411.670 DT     022A Rx 4  00 00 19 16 
    916       411.902 DT     023E Rx 8  28 C6 63 95 01 6E 36 CB 
    917       412.622 DT     03A2 Rx 8  C3 04 00 00 01 80 21 01 
    918       413.627 DT     02C2 Rx 8  00 00 00 97 01 00 C0 65 
    919       414.189 DT     0219 Rx 5  F2 1F FF FF 01 
    920       415.079 DT     0789 Rx 8  54 09 00 00 00 00 20 2C 
    921       416.029 DT     02C1 Rx 8  A5 00 00 00 E0 00 00 00 
    922       416.277 DT     0201 Rx 8  04 00 00 00 00 00 00 00 
    923       416.519 DT     0263 Rx 8  02 00 00 00 6D 10 00 00 
    924       416.753 DT     02B3 Rx 8  08 1F 1C 0F 0D 07 08 21 
    925       416.987 DT     02E1 Rx 8  FC 19 11 3A 9E 0A 0A 00 
    926       417.229 DT     034A Rx 8  00 C7 04 20 00 00 00 60 
    927       417.476 DT     043B Rx 8  00 7F 00 FF 00 00 00 00 
    928       418.026 DT     0718 Rx 7  00 7F 7F 7F FF FF FF 
    929       418.258 DT     0129 Rx 8  57 24 4F 20 01 20 FF 3F 
    930       418.374 DT     0419 Rx 1  00 
    931       419.046 DT     0441 Rx 8  7F C5 44 20 DB 0E 08 53 
    932       420.214 DT     013D Rx 6  02 20 AA 1A FF 02 
    933       420.458 DT     02F9 Rx 8  D0 FB 07 00 00 00 00 00 
    934       420.907 DT     0132 Rx 8  E9 89 F8 FF 28 40 FF 0F 
    935       421.157 DT     0320 Rx 8  02 00 00 00 00 00 00 00 
    936       421.409 DT     03C8 Rx 8  00 00 00 00 00 00 00 00 
    937       421.649 DT     0772 Rx 8  02 0A B0 09 C4 09 00 00 
    938       422.637 DT     03C2 Rx 8  29 55 00 00 00 00 00 00 
    939       424.037 DT     0677 Rx 8  04 0F 00 00 00 00 00 00 
    940       424.266 DT     0545 Rx 8  80 01 31 80 A1 0B 0A 32 
    941       426.294 DT     03F9 Rx 8  05 00 00 00 00 00 00 00 
    942       426.534 DT     039A Rx 8  FD FD FD FD FD 01 00 00 
    943       427.074 DT     0788 Rx 8  04 D5 A1 63 00 00 00 10 
    944       428.060 DT     02C1 Rx 8  06 00 00 00 40 00 00 00 
    945       428.293 DT     0129 Rx 8  84 25 4F 20 FF 1F FF 3F 
    946       428.473 DT     0249 Rx 4  E8 01 00 00 
    947       429.516 DT     01FA Rx 3  22 C0 01 
    948       430.052 DT     0201 Rx 8  05 40 18 00 10 79 B5 C1 
    949       430.250 DT     013D Rx 6  02 20 AA 1A FF 02 
    950       430.896 DT     0132 Rx 8  DB 89 F7 FF 26 40 FF 0F 
    951       431.102 DT     02A1 Rx 6  00 00 98 3A 00 00 
    952       431.248 DT     0225 Rx 3  05 45 52 
    953       431.485 DT     0243 Rx 8  FC 7F FF 9F A2 02 41 29 
    954       432.063 DT     02E1 Rx 8  05 00 00 00 00 00 00 00 
    955       432.405 DT     0339 Rx 8  00 B1 00 00 00 01 40 0F 
    956       432.657 DT     01FB Rx 8  00 FF FF FF FF FF FF FF 
    957       433.125 DT     0288 Rx 8  03 16 54 88 50 00 31 00 
    958       435.039 DT     0420 Rx 6  28 01 40 4B 00 70 
    959       436.043 DT     0221 Rx 8  41 01 55 00 00 00 40 FA 
    960       436.255 DT     0283 Rx 6  00 00 00 00 00 00 
    961       436.513 DT     0242 Rx 2  10 95 
    962       438.115 DT     0129 Rx 8  37 26 4F 20 00 20 FF 3F 
    963       438.358 DT     0719 Rx 8  00 94 52 00 00 00 00 00 
    964       439.168 DT     0798 Rx 8  19 D8 02 4E 38 01 20 A2 
    965       440.038 DT     02C1 Rx 8  07 00 14 0D 0E 1D 22 47 
    966       440.236 DT     013D Rx 6  02 20 AA 1A FF 02 
    967       440.418 DT     039D Rx 5  5E 55 41 28 00 
    968       440.662 DT     0677 Rx 8  05 02 00 28 00 00 00 00 
    969       440.896 DT     0132 Rx 8  EE 89 F8 FF 25 40 FF 0F 
    970       441.127 DT     0261 Rx 8  31 48 5B 00 0E 4A 1A 87 
    971       441.377 DT     03C0 Rx 8  04 00 00 00 00 00 00 00 
    972       442.641 DT     0282 Rx 8  00 00 00 00 EC F3 F2 24 
    973       443.639 DT     0360 Rx 8  08 00 00 00 00 00 00 00 
    974       444.039 DT     0201 Rx 8  3E 73 33 03 00 00 00 00 
    975       444.251 DT     01F9 Rx 6  00 00 00 00 00 00 
    976       445.077 DT     06C8 Rx 8  CC 01 00 2C 00 00 00 00 
    977       445.855 DT     0409 Rx 1  00 
    978       446.203 DT     0103 Rx 8  11 30 00 00 96 14 11 01 
    979       446.448 DT     0263 Rx 8  03 10 20 03 00 00 00 00 
    980       448.050 DT     02E1 Rx 8  10 21 04 00 00 00 26 08 
    981       448.288 DT     0129 Rx 8  20 27 4F 20 00 20 FF 3F 
    982       449.046 DT     0381 Rx 8  0A 00 00 A8 FA AA 00 00 
    983       450.248 DT     0439 Rx 8  00 00 20 00 00 00 43 02 
    984       450.446 DT     013D Rx 6  02 20 AA 1A FF 02 
    985       450.683 DT     0102 Rx 8  22 33 00 00 E8 38 11 08 
    986       450.905 DT     0400 Rx 7  40 60 E0 BF EF FB 00 
    987       451.141 DT     0132 Rx 8  DF 89 F7 FF 26 40 FF 0F 
    988       451.383 DT     0123 Rx 8  00 00 48 12 D2 00 00 E0 
    989       451.623 DT     02A8 Rx 8  C2 00 00 00 00 80 60 4C 
    990       451.807 DT     0739 Rx 5  24 06 1B 01 00 
    991       452.067 DT     02C1 Rx 8  80 0C 32 0B 8B 1F 00 00 
    992       452.294 DT     03A1 Rx 8  68 63 0D 98 04 30 62 9C 
    993       452.524 DT     023E Rx 8  28 C6 63 95 01 6E 46 DB 
    994       452.768 DT     0142 Rx 8  88 00 02 00 00 00 00 00 
    995       453.056 DT     0340 Rx 8  05 00 00 00 00 00 00 00 
    996       454.514 DT     0362 Rx 3  00 00 00 
    997       456.042 DT     0677 Rx 8  F8 FF FF FF FF FF FF 3F 
    998       456.178 DT     0119 Rx 2  00 00 
    999       456.416 DT     039A Rx 8  FC FD FD FD FD FD FD 01 
   1000       456.604 DT     03A3 Rx 5  00 D0 00 00 08 
   1001       457.050 DT     0545 Rx 8  01 00 00 00 00 10 10 6B 
   1002       457.235 DT     0333 Rx 5  84 0A 5A 07 02 
   1003       457.445 DT     0428 Rx 6  00 00 10 10 00 00 
   1004       457.649 DT     0122 Rx 6  00 00 12 12 12 00 
   1005       457.885 DT     0334 Rx 8  3F 3F C8 00 E2 3F 50 EE 
   1006       458.121 DT     0129 Rx 8  F7 28 4F 20 00 20 FF 3F 
   1007       458.357 DT     0201 Rx 8  40 06 19 00 74 43 06 00 
   1008       459.103 DT     0708 Rx 5  2B 21 09 00 00 
   1009       460.211 DT     013D Rx 6  02 20 AA 1A FF 02 
   1010       460.910 DT     0132 Rx 8  E5 89 F7 FF 26 40 FF 0F 
   1011       461.146 DT     0372 Rx 8  0E 00 00 40 35 82 06 2E 
   1012       461.380 DT     0243 Rx 8  01 FC 5A 5A 5F 5F 7A 7A 
   1013       461.622 DT     0393 Rx 8  09 80 63 00 00 00 00 00 
   1014       462.624 DT     03A2 Rx 8  00 E0 72 0D 05 00 46 6C 
   1015       464.016 DT     0241 Rx 7  32 64 9C 0C 19 57 00 
   1016       464.257 DT     02C1 Rx 8  01 00 00 14 28 70 64 00 
   1017       464.491 DT     02E1 Rx 8  29 0A A3 6A 17 00 00 00 
   1018       464.735 DT     0272 Rx 8  09 80 63 00 00 00 00 00 
   1019       466.195 DT     020C Rx 8  00 40 4A 1E 00 B0 07 00 
   1020       466.977 DT     0797 Rx 8  14 09 00 00 00 00 20 29 
   1021       468.031 DT     0718 Rx 7  01 FF FF FF FF FF 00 
   1022       468.267 DT     0129 Rx 8  A2 29 4F 20 00 20 FF 3F 
   1023       470.266 DT     053E Rx 8  0B 00 0D 03 01 00 FF FF 
   1024       470.494 DT     033D Rx 8  1A 29 0A BE 87 4A FA 98 
   1025       470.916 DT     0132 Rx 8  EA 89 F7 FF 26 40 FF 0F 
   1026       471.114 DT     013D Rx 6  02 20 AA 1A FF 02 
   1027       471.248 DT     03E3 Rx 2  00 04 
   1028       471.549 DT     01F8 Rx 4  22 00 00 00 
   1029       471.791 DT     037D Rx 8  62 FF 60 60 00 04 00 00 
   1030       472.041 DT     0201 Rx 8  01 64 64 E6 21 02 96 00 
   1031       472.277 DT     0379 Rx 8  03 00 3E 82 9A A9 31 01 
   1032       472.481 DT     03DD Rx 6  00 12 00 13 00 05 
   1033       472.713 DT     03C2 Rx 8  00 55 55 55 00 00 55 45 
   1034       472.832 DT     041D Rx 1  00 
   1035       473.068 DT     021D Rx 8  2C 20 08 14 80 00 40 10 
   1036       473.300 DT     025D Rx 8  DF 8C 01 C3 44 C1 0A E0 
   1037       473.554 DT     03E8 Rx 8  00 00 00 00 00 00 00 00 
   1038       473.752 DT     043D Rx 6  02 20 AA 1A FF 02 
   1039       474.003 DT     027D Rx 8  00 00 00 00 00 00 00 00 
   1040       474.229 DT     0261 Rx 8  56 FE 03 C2 8F 5C 25 6A 
   1041       474.399 DT     029D Rx 4  00 00 00 20 
   1042       474.569 DT     02BD Rx 4  00 00 00 00 
   1043       474.819 DT     0677 Rx 8  01 FF FF FF FF FF FF 00 
   1044       475.055 DT     02F1 Rx 8  01 11 17 81 46 00 05 00 
   1045       475.210 DT     077D Rx 3  12 00 00 
   1046       475.366 DT     07DD Rx 3  FF 00 01 
   1047       476.036 DT     02C1 Rx 8  02 74 C4 57 00 80 02 00 
   1048       476.278 DT     025B Rx 8  D3 C0 02 00 00 00 10 00 
   1049       476.514 DT     0263 Rx 8  00 EE 0C F3 E4 3F A8 FA 
   1050       476.754 DT     04E3 Rx 8  01 DE 06 FF 0F 00 08 00 
   1051       478.116 DT     0129 Rx 8  7D 2A 4F 20 00 20 FF 3F 
   1052       478.232 DT     0139 Rx 1  00 
   1053       478.381 DT     0229 Rx 3  6D 03 00 
   1054       478.559 DT     0249 Rx 4  2A 02 00 00 
   1055       478.799 DT     03E2 Rx 8  40 15 80 0A 00 00 04 04 
   1056       479.049 DT     054F Rx 8  00 00 00 00 00 00 00 00 
   1057       479.285 DT     07A8 Rx 8  08 D5 A1 63 00 00 40 10 
   1058       480.047 DT     02E1 Rx 8  02 00 00 00 00 00 01 00 
   1059       480.246 DT     013D Rx 6  02 20 AA 1A FF 02 
   1060       480.428 DT     039D Rx 5  5F 56 41 28 00 
   1061       480.903 DT     0132 Rx 8  E8 89 F7 FF 27 40 FF 0F 
   1062       481.185 DT     02E3 Rx 7  03 00 00 C2 01 0B 00 
   1063       482.627 DT     01FB Rx 8  01 FE FF B7 6D 0B 00 00 
   1064       484.251 DT     03DA Rx 8  00 00 00 00 00 00 00 00 
   1065       485.041 DT     0228 Rx 8  03 16 54 88 50 00 31 A0 
   1066       485.207 DT     0113 Rx 3  01 97 01 
   1067       485.454 DT     07FF Rx 8  05 08 A0 40 00 00 00 00 
   1068       485.696 DT     04E2 Rx 8  01 6C 07 00 00 00 08 00 
   1069       485.926 DT     0318 Rx 8  16 03 0B 0F 11 13 09 7B 
   1070       486.168 DT     0201 Rx 8  22 0F 20 C0 09 60 11 01 
   1071       486.402 DT     0221 Rx 8  40 41 05 05 00 50 51 4F 
   1072       486.638 DT     0343 Rx 8  00 90 60 AE A1 36 00 00 
   1073       486.878 DT     039A Rx 8  FD FD FD FD FD 01 00 00 
   1074       487.120 DT     03F5 Rx 8  00 C8 19 09 00 00 00 00 
   1075       487.347 DT     0458 Rx 7  02 02 00 80 00 00 00 
   1076       488.057 DT     02C1 Rx 8  03 00 40 66 00 F0 34 00 
   1077       488.295 DT     0129 Rx 8  21 2B 4F 20 01 20 FF 3F 
   1078       488.531 DT     0381 Rx 8  0B F0 FC EE EE EF EE 00 
   1079       488.777 DT     0677 Rx 8  02 FF FF FF FF 00 00 00 
   1080       490.043 DT     0545 Rx 8  02 00 1A 00 00 00 20 86 
   1081       490.241 DT     013D Rx 6  02 20 AA 1A FF 02 
   1082       490.489 DT     037A Rx 8  01 00 00 00 00 00 00 00 
   1083       490.914 DT     0132 Rx 8  E0 89 F7 FF 28 40 FF 0F 
   1084       491.152 DT     07B8 Rx 8  F9 D7 02 00 04 00 20 98 
   1085       491.392 DT     0243 Rx 8  7A 7D A9 0F 00 00 00 00 
   1086       491.628 DT     03C3 Rx 8  55 55 55 01 00 00 00 00 
   1087       491.858 DT     023E Rx 8  28 C6 63 95 01 6E 56 EB 
   1088       492.630 DT     0262 Rx 8  0B 00 D2 0D 00 B0 92 12 
   1089       492.870 DT     0282 Rx 8  4D 05 00 01 19 01 7A 02 
   1090       493.522 DT     02D2 Rx 8  D9 29 8D 4E 00 00 A1 01 
   1091       493.761 DT     0252 Rx 8  00 00 8C 06 00 00 A0 0F 
   1092       493.997 DT     0212 Rx 8  98 24 D6 0F 02 FF 1F 02 
   1093       494.223 DT     0292 Rx 8  4A 57 4D 75 D4 27 9E 01 
   1094       494.353 DT     02F2 Rx 2  12 01 
   1095       494.590 DT     0401 Rx 8  1F 2A 21 82 19 82 1C 82 
   1096       496.034 DT     02E1 Rx 8  03 6C 00 02 2C 44 00 00 
   1097       496.276 DT     0553 Rx 8  00 00 00 00 00 00 30 88 
   1098       496.520 DT     0359 Rx 8  03 00 00 00 FF 01 00 00 
   1099       496.759 DT     076A Rx 8  00 61 4B D8 02 00 00 00 
   1100       497.015 DT     06E8 Rx 8  CC 01 00 2C 00 00 00 00 
   1101       497.257 DT     02A7 Rx 8  00 00 00 00 00 84 05 84 
   1102       497.389 DT     02D1 Rx 2  7F 01 
   1103       497.619 DT     07AA Rx 8  92 08 87 F9 51 07 21 00 
   1104       498.113 DT     0129 Rx 8  EC 2C 4F 20 00 20 FF 3F 
   1105       498.356 DT     078A Rx 8  01 00 00 00 00 00 2A 13 
   1106       499.056 DT     02A6 Rx 8  00 00 FF 1F 00 00 00 00 
   1107       499.620 DT     0552 Rx 8  00 00 00 00 00 00 30 87 
   1108       500.046 DT     02C1 Rx 8  04 CA 03 03 64 C1 39 53 
   1109       500.282 DT     0201 Rx 8  03 40 18 00 10 89 F5 C1 
   1110       500.480 DT     013D Rx 6  02 20 AA 1A FF 02 
   1111       501.050 DT     02C7 Rx 8  00 00 00 00 00 47 48 FF 
   1112       501.290 DT     0383 Rx 8  97 00 1E 80 00 00 A0 00 
   1113       501.522 DT     0132 Rx 8  E6 89 F8 FF 26 40 FF 0F 
   1114       502.064 DT     03A1 Rx 8  2B A0 22 01 00 00 70 F4 
   1115       502.312 DT     038A Rx 8  01 00 00 00 00 00 00 00 
   1116       502.637 DT     0142 Rx 8  01 00 80 03 00 00 00 00 
   1117       503.039 DT     02E8 Rx 8  C2 00 00 00 00 80 60 8C 
   1118       504.057 DT     0677 Rx 8  FB FF FF FF FF FF FF 27 
   1119       506.161 DT     0423 Rx 6  F0 00 00 00 08 00 
   1120       506.391 DT     0263 Rx 8  01 E9 12 F2 E5 3C A5 FA 
   1121       506.623 DT     02B3 Rx 8  A9 4F 1F 00 00 64 7B 66 
   1122       506.833 DT     0422 Rx 6  A0 00 10 00 00 00 
   1123       507.071 DT     0261 Rx 8  03 00 00 00 00 40 34 B8 
   1124       507.405 DT     02F3 Rx 5  0C 0C 0B 00 00 
   1125       508.056 DT     0421 Rx 7  00 0A 00 10 00 00 00 
   1126       508.292 DT     0129 Rx 8  FE 2D 4F 20 00 20 FF 3F 
   1127       508.536 DT     02C4 Rx 8  20 00 03 D2 00 00 00 00 
   1128       508.778 DT     042A Rx 8  01 90 00 48 00 24 00 02 
   1129       509.026 DT     0204 Rx 8  81 00 00 46 00 00 00 10 
   1130       509.239 DT     0448 Rx 6  00 00 10 10 00 00 
   1131       509.445 DT     0264 Rx 6  3C 00 00 00 A0 00 
   1132       509.685 DT     0224 Rx 8  04 08 00 40 19 01 10 08 
   1133       509.865 DT     02B4 Rx 5  68 AD 25 C5 00 
   1134       510.221 DT     013D Rx 6  02 20 AA 1A FF 02 
   1135       510.911 DT     0132 Rx 8  EE 89 F7 FF 27 40 FF 0F 
   1136       511.154 DT     0372 Rx 8  0F 54 03 00 00 00 00 00 
   1137       511.324 DT     022A Rx 4  00 00 19 16 
   1138       511.562 DT     02C3 Rx 8  00 00 00 A6 01 00 80 69 
   1139       512.038 DT     02C1 Rx 8  A5 00 00 00 E0 00 00 00 
   1140       512.272 DT     02E1 Rx 8  FC 19 10 3A 9E 14 0A 00 
   1141       512.640 DT     03A2 Rx 8  C3 04 00 00 01 80 21 01 
   1142       513.624 DT     02C2 Rx 8  55 5B A9 06 00 00 12 00 
   1143       514.046 DT     0201 Rx 8  04 00 00 00 00 00 00 00 
   1144       514.233 DT     0219 Rx 5  F3 1F FF FF 02 
   1145       515.083 DT     0789 Rx 8  54 09 00 00 00 00 30 3C 
   1146       516.313 DT     039A Rx 8  FC FD FD FD FD FD FD 01 
   1147       518.031 DT     0718 Rx 7  02 FF FF FF FF FF FF 
   1148       518.265 DT     0129 Rx 8  48 2E 4F 20 FF 1F FF 3F 
   1149       518.381 DT     0419 Rx 1  00 
   1150       519.045 DT     0441 Rx 8  7F C5 44 20 DB 0E 0C 57 
   1151       520.031 DT     0737 Rx 7  00 00 00 00 00 00 00 
   1152       520.230 DT     013D Rx 6  02 20 AA 1A FF 02 
   1153       520.476 DT     02F9 Rx 8  D0 FB 07 08 00 00 00 00 
   1154       520.658 DT     039D Rx 5  60 57 41 28 00 
   1155       520.906 DT     0677 Rx 8  04 0F 00 00 00 00 00 00 
   1156       521.140 DT     0132 Rx 8  DC 89 F8 FF 29 40 FF 0F 
   1157       521.376 DT     0243 Rx 8  FC 7F FF 9F A2 02 41 29 
   1158       521.626 DT     03C8 Rx 8  01 00 00 00 00 00 00 00 
   1159       522.630 DT     02E2 Rx 8  52 49 5C 5C 49 49 49 0C 
   1160       522.873 DT     03C2 Rx 8  29 55 00 00 00 00 00 00 
   1161       523.107 DT     0545 Rx 8  40 01 31 80 A1 07 3A 1E 
   1162       524.075 DT     02C1 Rx 8  06 00 00 00 40 00 00 00 
   1163       526.117 DT     03D3 Rx 3  00 00 00 
   1164       526.367 DT     03F9 Rx 8  00 00 00 00 00 00 00 00 
   1165       527.061 DT     0381 Rx 8  0C 00 00 82 00 00 00 5D 
   1166       527.305 DT     0788 Rx 8  01 00 00 00 FF A1 08 00 
   1167       528.055 DT     0201 Rx 8  05 40 18 00 10 79 B5 C1 
   1168       528.294 DT     0129 Rx 8  D0 2F 4F 20 00 20 FF 3F 
   1169       528.542 DT     02E1 Rx 8  05 00 00 00 00 00 00 00 
   1170       528.708 DT     0249 Rx 4  D3 03 00 00 
   1171       529.530 DT     01FA Rx 3  22 C0 01 
   1172       530.210 DT     013D Rx 6  02 20 AA 1A FF 02 
   1173       530.898 DT     0132 Rx 8  DB 89 F7 FF 26 40 FF 0F 
   1174       531.105 DT     02A1 Rx 6  00 00 98 3A 00 00 
   1175       531.251 DT     0225 Rx 3  05 45 52 
   1176       531.777 DT     023E Rx 8  28 C6 63 95 01 6E 66 FB 
   1177       532.395 DT     0339 Rx 8  00 B1 00 00 00 01 40 0F 
   1178       532.647 DT     01FB Rx 8  00 FF FF FF FF FF FF FF 
   1179       533.092 DT     0288 Rx 8  03 16 54 88 50 00 41 10 
   1180       535.032 DT     0420 Rx 6  28 01 40 4B 00 80 
   1181       536.040 DT     02C1 Rx 8  07 00 14 0D 0E 1D 22 47 
   1182       536.280 DT     0221 Rx 8  41 01 55 00 00 00 60 1A 
   1183       536.523 DT     0263 Rx 8  02 00 00 00 6D 10 00 00 
   1184       536.651 DT     0242 Rx 2  10 95 
   1185       536.863 DT     0283 Rx 6  00 00 00 00 00 00 
   1186       537.107 DT     0677 Rx 8  05 02 00 28 00 00 00 00 
   1187       538.117 DT     0129 Rx 8  35 20 4F 20 00 20 FF 3F 
   1188       538.367 DT     0719 Rx 8  01 00 00 00 00 00 00 00 
   1189       539.173 DT     0798 Rx 8  02 60 76 1F 37 01 30 67 
   1190       540.039 DT     0261 Rx 8  00 10 2C 00 D6 43 40 D6 
   1191       540.238 DT     013D Rx 6  02 20 AA 1A FF 02 
   1192       540.902 DT     0132 Rx 8  E1 89 F7 FF 25 40 FF 0F 
   1193       541.220 DT     03C0 Rx 8  05 00 00 00 00 00 00 00 
   1194       542.034 DT     0201 Rx 8  3E 73 33 03 00 00 00 00 
   1195       542.638 DT     0282 Rx 8  00 00 00 00 EC F3 F2 24 
   1196       543.642 DT     0360 Rx 8  00 00 00 00 00 00 00 00 
   1197       544.048 DT     02E1 Rx 8  10 21 04 00 00 00 26 08 
   1198       544.261 DT     01F9 Rx 6  00 00 00 00 00 00 
   1199       545.105 DT     06C8 Rx 8  01 00 00 00 00 00 00 00 
   1200       545.861 DT     0409 Rx 1  00 
   1201       546.205 DT     0103 Rx 8  11 30 00 00 96 12 11 01 
   1202       546.445 DT     039A Rx 8  FD FD FD FD FD 01 00 00 
   1203       548.061 DT     02C1 Rx 8  80 0C 32 0B 8B 1F 00 00 
   1204       548.297 DT     0129 Rx 8  22 21 4F 20 00 20 FF 3F 
   1205       550.252 DT     0439 Rx 8  00 00 20 00 00 00 43 02 
   1206       550.450 DT     013D Rx 6  02 20 AA 1A FF 02 
   1207       550.686 DT     0102 Rx 8  22 33 00 00 E8 38 11 08 
   1208       550.924 DT     0132 Rx 8  EB 89 F7 FF 27 40 FF 0F 
   1209       551.166 DT     02A8 Rx 8  C2 00 00 00 00 80 70 5C 
   1210       551.409 DT     0123 Rx 8  00 00 48 12 D2 00 00 E0 
   1211       551.643 DT     0243 Rx 8  01 FC 5A 5A 5F 5F 7A 7A 
   1212       551.865 DT     0400 Rx 7  40 60 E0 BF EF FB 00 
   1213       552.109 DT     0677 Rx 8  F8 FF FF FF FF FF FF 3F 
   1214       552.337 DT     03A1 Rx 8  68 63 0D 98 04 34 82 C0 
   1215       552.645 DT     0142 Rx 8  88 00 02 00 00 00 00 00 
   1216       553.063 DT     0340 Rx 8  06 00 00 00 00 00 00 00 
   1217       556.033 DT     0201 Rx 8  40 06 19 00 74 43 06 00 
   1218       556.169 DT     0119 Rx 2  00 00 
   1219       556.358 DT     03A3 Rx 5  00 D0 00 00 08 
   1220       556.602 DT     0545 Rx 8  01 00 00 00 00 10 40 9B 
   1221       557.068 DT     0273 Rx 8  81 A0 30 00 19 02 30 11 
   1222       557.278 DT     0428 Rx 6  00 00 10 10 00 00 
   1223       557.616 DT     0122 Rx 6  00 00 12 12 12 00 
   1224       558.110 DT     0129 Rx 8  C6 22 4F 20 01 20 FF 3F 
   1225       559.980 DT     039D Rx 5  61 58 41 28 00 
   1226       560.220 DT     02C1 Rx 8  01 00 00 14 28 70 64 00 
   1227       560.418 DT     013D Rx 6  02 20 AA 1A FF 02 
   1228       560.653 DT     02E1 Rx 8  29 0A A3 6A 17 00 00 00 
   1229       560.913 DT     0132 Rx 8  E4 89 F8 FF 29 40 FF 0F 
   1230       561.151 DT     0372 Rx 8  10 00 00 00 00 9A E2 2E 
   1231       561.393 DT     0393 Rx 8  06 00 FB D8 07 C0 1E 20 
   1232       562.629 DT     03A2 Rx 8  00 E0 72 0D 05 00 46 6C 
   1233       564.020 DT     0241 Rx 7  32 64 9C 0C 19 57 00 
   1234       564.614 DT     0272 Rx 8  06 00 FD E8 07 C0 1E 20 
   1235       566.034 DT     0381 Rx 8  0D 00 B8 B8 00 00 6A 80 
   1236       566.272 DT     020C Rx 8  00 40 4A 1E 00 B0 07 00 
   1237       566.516 DT     0263 Rx 8  03 10 20 03 00 00 00 00 
   1238       566.982 DT     0797 Rx 8  14 09 00 00 00 00 30 39 
   1239       568.050 DT     0677 Rx 8  01 FF FF FF FF FF FF 00 
   1240       568.290 DT     0129 Rx 8  7C 23 4F 20 00 20 FF 3F 
   1241       568.523 DT     0718 Rx 7  03 FF FF FF FF FF FF 
   1242       570.041 DT     0201 Rx 8  01 64 64 E6 21 02 96 00 
   1243       570.273 DT     075D Rx 8  C9 10 E7 83 B7 89 03 00 
   1244       570.523 DT     031E Rx 8  00 00 00 00 00 00 00 00 
   1245       570.783 DT     013D Rx 6  02 20 AA 1A FF 02 
   1246       571.018 DT     0132 Rx 8  E7 89 F8 FF 29 40 FF 0F 
   1247       571.152 DT     03E3 Rx 2  00 04 
   1248       571.388 DT     021D Rx 8  2C 20 08 14 80 00 40 10 
   1249       571.560 DT     01F8 Rx 4  22 00 00 00 
   1250       571.792 DT     025D Rx 8  DF 8C 01 C3 44 C1 0A E0 
   1251       572.024 DT     023E Rx 8  28 C6 63 95 01 6E 76 0B 
   1252       572.260 DT     02C1 Rx 8  02 74 C4 57 00 80 02 00 
   1253       572.511 DT     027D Rx 8  00 00 00 00 00 00 00 00 
   1254       572.749 DT     0379 Rx 8  04 60 0A 1E 00 00 00 00 
   1255       572.919 DT     029D Rx 4  00 00 00 20 
   1256       573.147 DT     0261 Rx 8  31 48 6A 00 12 4A 5A DA 
   1257       573.317 DT     02BD Rx 4  00 00 00 00 
   1258       573.549 DT     03C2 Rx 8  00 55 55 55 00 00 55 45 
   1259       573.804 DT     03E8 Rx 8  01 00 00 00 00 00 00 00 
   1260       573.922 DT     041D Rx 1  00 
   1261       574.220 DT     043D Rx 6  02 20 AA 1A FF 02 
   1262       574.500 DT     077D Rx 3  12 00 00 
   1263       574.685 DT     07DD Rx 3  FF 00 01 
   1264       575.043 DT     02F1 Rx 8  02 91 16 81 46 80 AE 7F 
   1265       576.043 DT     02E1 Rx 8  02 00 00 00 00 00 01 00 
   1266       576.281 DT     025B Rx 8  D3 C0 02 00 00 00 20 10 
   1267       576.519 DT     039A Rx 8  FC FD FD FD FD FD FD 01 
   1268       576.761 DT     04E3 Rx 8  02 13 07 05 00 00 08 00 
   1269       578.109 DT     0129 Rx 8  57 24 4F 20 01 20 FF 3F 
   1270       578.226 DT     0139 Rx 1  00 
   1271       578.376 DT     0229 Rx 3  43 04 00 
   1272       578.554 DT     0249 Rx 4  D3 04 00 00 
   1273       578.794 DT     03E2 Rx 8  40 15 80 0A 00 00 04 04 
   1274       579.044 DT     054F Rx 8  00 00 00 00 00 00 00 00 
   1275       579.287 DT     07A8 Rx 8  01 00 00 00 FF A1 08 00 
   1276       580.215 DT     013D Rx 6  02 20 AA 1A FF 02 
   1277       580.901 DT     0132 Rx 8  EC 89 F8 FF 28 40 FF 0F 
   1278       581.177 DT     02E3 Rx 7  C4 03 61 00 10 06 00 
   1279       581.413 DT     0243 Rx 8  7A 7D A1 0F 00 00 00 00 
   1280       582.629 DT     01FB Rx 8  01 FE FF B7 6D 0B 00 00 
   1281       584.047 DT     02C1 Rx 8  03 00 40 66 00 F0 34 00 
   1282       584.290 DT     0201 Rx 8  22 0F 20 C0 09 60 11 01 
   1283       584.538 DT     03DA Rx 8  00 00 00 00 00 00 00 00 
   1284       584.784 DT     0677 Rx 8  02 FF FF FF FF 00 00 00 
   1285       585.044 DT     0228 Rx 8  03 16 54 88 50 00 41 B0 
   1286       585.294 DT     055A Rx 8  01 00 00 00 00 00 00 00 
   1287       585.537 DT     0405 Rx 8  10 00 00 00 00 4C 52 57 
   1288       585.781 DT     04E2 Rx 8  02 69 00 00 00 00 08 00 
   1289       585.932 DT     0113 Rx 3  01 97 01 
   1290       586.166 DT     0221 Rx 8  40 41 05 05 00 50 71 6F 
   1291       586.402 DT     0343 Rx 8  00 90 68 7E A1 51 00 00 
   1292       586.644 DT     03F5 Rx 8  00 C8 19 09 00 00 00 00 
   1293       586.878 DT     07FF Rx 8  01 91 45 44 42 4C 7A 00 
   1294       587.114 DT     0318 Rx 8  16 03 0B 0F 11 13 0B 7D 
   1295       587.342 DT     0458 Rx 7  02 02 00 80 00 00 00 
   1296       588.112 DT     0129 Rx 8  84 25 4F 20 FF 1F FF 3F 
   1297       589.051 DT     0545 Rx 8  02 00 20 00 00 00 50 BC 
   1298       590.217 DT     013D Rx 6  02 20 AA 1A FF 02 
   1299       590.463 DT     037A Rx 8  02 00 00 00 00 00 00 00 
   1300       590.909 DT     0132 Rx 8  E7 89 F7 FF 25 40 FF 0F 
   1301       591.143 DT     07B8 Rx 8  7A 1D 00 33 4C 04 30 EC 
   1302       591.387 DT     03C3 Rx 8  00 00 00 00 00 49 00 00 
   1303       592.058 DT     02E1 Rx 8  03 6C 00 02 2C 44 00 00 
   1304       592.270 DT     025A Rx 6  00 00 00 00 00 00 
   1305       592.528 DT     02D2 Rx 8  D9 29 8D 4E 00 00 A1 01 
   1306       592.766 DT     0252 Rx 8  00 00 8C 06 00 00 A0 0F 
   1307       593.002 DT     0212 Rx 8  98 24 D6 0F 02 FF 1F 02 
   1308       593.234 DT     0262 Rx 8  0B 00 D2 0D 00 B0 92 12 
   1309       593.470 DT     0282 Rx 8  4D 05 00 81 04 01 7A 02 
   1310       593.697 DT     0292 Rx 8  4A 57 4D 75 D4 27 9E 01 
   1311       593.827 DT     02F2 Rx 2  12 01 
   1312       596.045 DT     02C1 Rx 8  04 CA 03 03 64 C1 39 53 
   1313       596.281 DT     0263 Rx 8  00 EE 0C F3 E4 3F A8 FA 
   1314       596.523 DT     02B3 Rx 8  0A 2C 00 78 00 00 00 00 
   1315       596.767 DT     0359 Rx 8  04 00 00 00 01 00 00 04 
   1316       597.014 DT     0553 Rx 8  00 00 00 00 00 00 40 98 
   1317       597.256 DT     02A7 Rx 8  00 00 00 00 00 84 05 84 
   1318       597.388 DT     02D1 Rx 2  7F 01 
   1319       597.638 DT     06E8 Rx 8  01 00 00 00 00 00 00 00 
   1320       597.884 DT     078A Rx 8  01 00 01 00 00 00 04 0D 
   1321       598.120 DT     0129 Rx 8  37 26 4F 20 00 20 FF 3F 
   1322       598.356 DT     0201 Rx 8  03 40 18 00 10 89 F5 C1 
   1323       599.046 DT     02A6 Rx 8  00 00 FF 1F 00 00 00 00 
   1324       599.620 DT     0552 Rx 8  00 00 00 00 00 00 40 97 
   1325       599.980 DT     039D Rx 5  62 59 41 28 00 
   1326       600.225 DT     0677 Rx 8  FB FF FF FF FF FF FF 27 
   1327       600.423 DT     013D Rx 6  02 20 AA 1A FF 02 
   1328       600.905 DT     0132 Rx 8  F4 89 F8 FF 29 40 FF 0F 
   1329       601.145 DT     02C7 Rx 8  00 00 00 00 00 47 48 FF 
   1330       601.385 DT     0383 Rx 8  97 00 1E 80 00 00 A0 00 
   1331       602.066 DT     03A1 Rx 8  2B A0 22 01 00 00 90 14 
   1332       602.312 DT     038A Rx 8  03 00 00 00 00 00 00 00 
   1333       602.642 DT     0142 Rx 8  01 00 80 03 00 00 00 00 
   1334       603.042 DT     02E8 Rx 8  C2 00 00 00 00 80 70 9C 
   1335       605.038 DT     0381 Rx 8  0E 00 C8 C8 00 00 3C 12 
   1336       606.030 DT     0261 Rx 8  5A FE 03 C2 8F 5C 65 AE 
   1337       606.236 DT     0423 Rx 6  F0 00 00 00 08 00 
   1338       606.476 DT     039A Rx 8  FD FD FD FD FD 01 00 00 
   1339       606.686 DT     0422 Rx 6  A0 00 10 00 00 00 
   1340       607.323 DT     0284 Rx 5  10 00 00 00 00 
   1341       608.051 DT     0421 Rx 7  00 0A 00 10 00 00 00 
   1342       608.283 DT     0129 Rx 8  8D 27 4F 20 01 20 FF 3F 
   1343       608.525 DT     02C1 Rx 8  A5 00 00 00 E0 00 00 00 
   1344       608.769 DT     02C4 Rx 8  01 00 03 D2 00 00 00 00 
   1345       609.018 DT     0204 Rx 8  81 00 00 46 00 00 00 10 
   1346       609.252 DT     02E1 Rx 8  FC 19 16 3A 9E 16 0A 00 
   1347       609.460 DT     0264 Rx 6  3B 00 00 00 A0 00 
   1348       609.700 DT     0224 Rx 8  04 08 00 40 19 01 10 08 
   1349       609.881 DT     02B4 Rx 5  68 AD 25 C4 00 
   1350       610.123 DT     042A Rx 8  01 90 00 48 00 24 00 02 
   1351       610.321 DT     013D Rx 6  02 20 AA 1A FF 02 
   1352       610.533 DT     0448 Rx 6  00 00 10 10 00 00 
   1353       610.923 DT     0132 Rx 8  E6 89 F8 FF 27 40 FF 0F 
   1354       611.171 DT     0372 Rx 8  11 00 00 00 00 00 00 00 
   1355       611.342 DT     022A Rx 4  00 00 19 16 
   1356       611.578 DT     0243 Rx 8  FC 7F FF 9F A2 02 41 29 
   1357       611.816 DT     02C3 Rx 8  55 1B A8 36 00 00 12 00 
   1358       612.064 DT     0201 Rx 8  04 00 00 00 00 00 00 00 
   1359       612.294 DT     023E Rx 8  28 C6 63 95 01 6E 86 1B 
   1360       612.634 DT     03A2 Rx 8  C3 04 00 00 01 80 21 01 
   1361       613.636 DT     02C2 Rx 8  00 00 00 97 01 00 C0 65 
   1362       614.208 DT     0219 Rx 5  04 74 74 00 00 
   1363       615.086 DT     0789 Rx 8  54 09 00 00 00 00 40 4C 
   1364       616.041 DT     0677 Rx 8  04 0F 00 00 00 00 00 00 
   1365       618.039 DT     0718 Rx 7  04 FF FF 00 00 00 00 
   1366       618.275 DT     0129 Rx 8  F7 28 4F 20 00 20 FF 3F 
   1367       618.391 DT     0419 Rx 1  00 
   1368       619.057 DT     0441 Rx 8  80 C5 44 20 DB 0E 10 5C 
   1369       620.085 DT     02C1 Rx 8  06 00 00 00 40 00 00 00 
   1370       620.284 DT     013D Rx 6  02 20 AA 1A FF 02 
   1371       620.526 DT     02F9 Rx 8  D0 FB 07 10 00 00 00 00 
   1372       620.760 DT     0302 Rx 8  12 E1 F1 C8 23 75 6D 8F 
   1373       620.992 DT     0132 Rx 8  F0 89 F8 FF 27 40 FF 0F 
   1374       621.240 DT     03C8 Rx 8  02 00 00 00 00 00 00 00 
   1375       622.044 DT     0545 Rx 8  80 01 31 F0 A1 0D 6A 04 
   1376       622.662 DT     03C2 Rx 8  29 55 00 00 00 00 00 00 
   1377       624.058 DT     02E1 Rx 8  05 00 00 00 00 00 00 00 
   1378       626.072 DT     0201 Rx 8  05 40 18 00 10 79 B5 C1 
   1379       626.303 DT     0263 Rx 8  01 E9 12 F2 E5 3C A5 FA 
   1380       626.557 DT     03F9 Rx 8  01 00 00 00 00 00 00 00 
   1381       627.095 DT     0788 Rx 8  FE 1E 00 00 00 00 00 00 
   1382       628.113 DT     0129 Rx 8  A2 29 4F 20 00 20 FF 3F 
   1383       628.293 DT     0249 Rx 4  83 05 00 00 
   1384       629.521 DT     01FA Rx 3  22 C0 01 
   1385       630.214 DT     013D Rx 6  02 20 AA 1A FF 02 
   1386       630.908 DT     0132 Rx 8  EC 89 F7 FF 26 40 FF 0F 
   1387       631.114 DT     02A1 Rx 6  00 00 98 3A 00 00 
   1388       631.260 DT     0225 Rx 3  05 45 52 
   1389       632.044 DT     02C1 Rx 8  07 00 14 0D 0E 1D 22 47 
   1390       632.288 DT     0677 Rx 8  05 02 00 28 00 00 00 00 
   1391       632.534 DT     0339 Rx 8  00 B1 00 00 00 01 40 0F 
   1392       632.787 DT     01FB Rx 8  00 FF FF FF FF FF FF FF 
   1393       633.095 DT     0288 Rx 8  03 16 54 88 50 00 51 20 
   1394       635.033 DT     0420 Rx 6  28 01 40 4B 00 90 
   1395       636.047 DT     0221 Rx 8  41 01 55 00 00 00 80 3A 
   1396       636.259 DT     0283 Rx 6  00 00 00 00 00 00 
   1397       636.497 DT     039A Rx 8  FC FD FD FD FD FD FD 01 
   1398       636.625 DT     0242 Rx 2  10 95 
   1399       638.116 DT     0129 Rx 8  7D 2A 4F 20 00 20 FF 3F 
   1400       638.359 DT     0719 Rx 8  00 94 52 00 00 00 00 00 
   1401       639.049 DT     0261 Rx 8  03 00 00 00 00 40 74 F8 
   1402       639.279 DT     0798 Rx 8  73 F6 59 CF 3A 0B 40 1E 
   1403       640.041 DT     0201 Rx 8  3E 73 33 03 00 00 00 00 
   1404       640.239 DT     013D Rx 6  02 20 AA 1A FF 02 
   1405       640.481 DT     02E1 Rx 8  10 21 04 00 00 00 26 08 
   1406       640.661 DT     039D Rx 5  63 5A 41 28 00 
   1407       640.866 DT     020A Rx 6  F6 15 09 82 18 01 
   1408       641.098 DT     0132 Rx 8  EB 89 F8 FF 2B 40 FF 0F 
   1409       641.332 DT     0243 Rx 8  01 FC 5A 5A 5F 5F 7A 7A 
   1410       641.582 DT     03C0 Rx 8  06 00 00 00 00 00 00 00 
   1411       642.648 DT     0282 Rx 8  00 00 00 00 EC F3 F2 24 
   1412       643.644 DT     0360 Rx 8  01 00 00 00 00 00 00 00 
   1413       644.058 DT     02C1 Rx 8  80 0C 32 0B 8B 1F 00 00 
   1414       644.271 DT     01F9 Rx 6  00 00 00 00 00 00 
   1415       644.505 DT     0381 Rx 8  0F 00 00 32 64 36 01 0C 
   1416       645.087 DT     06C8 Rx 8  CC 01 00 2C 00 00 00 00 
   1417       645.869 DT     0409 Rx 1  00 
   1418       646.211 DT     0103 Rx 8  11 30 00 00 96 14 11 01 
   1419       648.055 DT     0677 Rx 8  F8 FF FF FF FF FF FF 3F 
   1420       648.293 DT     0129 Rx 8  8C 2B 4F 20 00 20 FF 3F 
   1421       650.255 DT     0439 Rx 8  00 00 20 00 00 00 43 02 
   1422       650.454 DT     013D Rx 6  02 20 AA 1A FF 02 
   1423       650.690 DT     0102 Rx 8  22 33 00 00 E8 38 11 08 
   1424       650.924 DT     0132 Rx 8  EB 89 F7 FF 27 40 FF 0F 
   1425       651.166 DT     02A8 Rx 8  C2 00 00 00 00 80 80 6C 
   1426       651.408 DT     0123 Rx 8  00 00 48 12 D2 00 00 E0 
   1427       651.630 DT     0400 Rx 7  40 60 E0 BF EF FB 00 
   1428       652.078 DT     03A1 Rx 8  68 63 0D 98 04 30 A2 DC 
   1429       652.638 DT     0142 Rx 8  88 00 02 00 00 00 00 00 
   1430       652.871 DT     023E Rx 8  28 C6 63 95 01 6E 96 2B 
   1431       653.121 DT     0340 Rx 8  07 00 00 00 00 00 00 00 
   1432       654.045 DT     0201 Rx 8  18 06 19 00 74 43 06 00 
   1433       655.049 DT     0545 Rx 8  01 00 00 00 00 10 70 CB 
   1434       656.053 DT     02C1 Rx 8  01 00 00 14 28 70 64 00 
   1435       656.189 DT     0119 Rx 2  00 00 
   1436       656.431 DT     0263 Rx 8  02 00 00 00 6D 10 00 00 
   1437       656.665 DT     02E1 Rx 8  29 0A A3 6A 17 00 00 00 
   1438       656.854 DT     03A3 Rx 5  00 D0 00 00 08 
   1439       657.094 DT     0285 Rx 8  61 02 86 01 01 00 20 00 
   1440       657.304 DT     0428 Rx 6  00 00 10 10 00 00 
   1441       657.618 DT     0122 Rx 6  00 00 12 12 12 00 
   1442       658.108 DT     0129 Rx 8  85 2C 4F 20 FF 1F FF 3F 
   1443       660.216 DT     013D Rx 6  02 20 AA 1A FF 02 
   1444       660.907 DT     0132 Rx 8  F2 89 F7 FF 27 40 FF 0F 
   1445       661.141 DT     0372 Rx 8  12 00 73 DF 69 24 F1 FF 
   1446       661.383 DT     0393 Rx 8  09 80 63 00 00 00 00 00 
   1447       662.631 DT     03A2 Rx 8  00 C0 F2 10 05 00 46 6C 
   1448       664.015 DT     0241 Rx 7  31 64 5C 0C 19 57 00 
   1449       664.265 DT     0677 Rx 8  01 FF FF FF FF FF FF 00 
   1450       664.615 DT     0272 Rx 8  09 80 63 00 00 00 00 00 
   1451       666.206 DT     020C Rx 8  00 40 4A 1E 00 B0 07 00 
   1452       666.446 DT     039A Rx 8  FD FD FD FD FD 01 00 00 
   1453       666.684 DT     03DB Rx 8  00 1D 1A 13 16 00 00 00 
   1454       666.930 DT     043B Rx 8  01 7F 00 FF 00 00 00 00 
   1455       667.170 DT     0797 Rx 8  14 09 00 00 00 00 40 49 
   1456       668.048 DT     02C1 Rx 8  02 74 C4 57 00 80 02 00 
   1457       668.284 DT     0129 Rx 8  FE 2D 4F 20 00 20 FF 3F 
   1458       668.516 DT     0201 Rx 8  01 64 64 E6 21 02 96 00 
   1459       668.745 DT     0718 Rx 7  00 7F 7F 7F FF FF FF 
   1460       670.273 DT     031E Rx 8  01 00 00 00 00 00 00 00 
   1461       670.391 DT     041D Rx 1  00 
   1462       670.815 DT     021D Rx 8  2C 20 08 14 80 00 40 10 
   1463       671.014 DT     013D Rx 6  02 20 AA 1A FF 02 
   1464       671.246 DT     0132 Rx 8  E8 89 F8 FF 27 40 FF 0F 
   1465       671.482 DT     0243 Rx 8  7A 7D A1 0F 00 00 00 00 
   1466       671.654 DT     01F8 Rx 4  22 00 00 00 
   1467       671.886 DT     025D Rx 8  DF 8C 01 C3 44 C1 0A E0 
   1468       672.122 DT     0261 Rx 8  00 10 2D 00 D6 43 80 17 
   1469       672.372 DT     027D Rx 8  00 00 00 00 00 00 00 00 
   1470       672.617 DT     02E1 Rx 8  02 00 00 00 00 00 01 00 
   1471       672.787 DT     029D Rx 4  00 00 00 20 
   1472       673.025 DT     0379 Rx 8  05 E0 2D 0D 92 00 04 00 
   1473       673.257 DT     03C2 Rx 8  00 55 55 55 00 00 55 45 
   1474       673.391 DT     03E3 Rx 2  00 04 
   1475       673.641 DT     03E8 Rx 8  02 00 00 00 00 00 00 00 
   1476       673.839 DT     043D Rx 6  02 20 AA 1A FF 02 
   1477       674.010 DT     02BD Rx 4  00 00 00 00 
   1478       674.164 DT     077D Rx 3  12 00 00 
   1479       674.320 DT     07DD Rx 3  FF 00 01 
   1480       675.032 DT     02F1 Rx 8  03 91 1A 01 46 00 01 00 
   1481       676.072 DT     025B Rx 8  D3 C0 02 00 00 00 30 20 
   1482       676.314 DT     04E3 Rx 8  03 2F 00 00 00 00 08 00 
   1483       678.111 DT     0129 Rx 8  48 2E 4F 20 FF 1F FF 3F 
   1484       678.227 DT     0139 Rx 1  00 
   1485       678.377 DT     0229 Rx 3  41 05 00 
   1486       678.555 DT     0249 Rx 4  4C 06 00 00 
   1487       678.795 DT     03E2 Rx 8  40 15 80 0A 00 00 04 04 
   1488       679.046 DT     054F Rx 8  00 00 00 00 00 00 00 00 
   1489       679.294 DT     07A8 Rx 8  1E 1F 00 70 00 00 00 00 
   1490       680.052 DT     02C1 Rx 8  03 00 40 66 00 F0 34 00 
   1491       680.250 DT     013D Rx 6  02 20 AA 1A FF 02 
   1492       680.430 DT     039D Rx 5  64 5B 41 28 00 
   1493       680.676 DT     0677 Rx 8  02 FF FF FF FF 00 00 00 
   1494       680.910 DT     0132 Rx 8  E7 89 F8 FF 2B 40 FF 0F 
   1495       681.181 DT     02E3 Rx 7  86 0C 00 00 00 00 00 
   1496       682.047 DT     0201 Rx 8  22 0F 20 C0 09 60 11 01 
   1497       682.635 DT     01FB Rx 8  01 FE FF B7 6D 0B 00 00 
   1498       683.041 DT     0381 Rx 8  70 B3 01 2B 04 20 33 11 
   1499       684.259 DT     03DA Rx 8  00 00 00 00 00 00 00 00 
   1500       685.047 DT     0228 Rx 8  03 16 54 88 50 00 51 C0 
   1501       685.217 DT     0113 Rx 3  01 97 01 
   1502       685.451 DT     07FF Rx 8  02 5F 4E AC DE CD D6 30 
   1503       685.693 DT     04E2 Rx 8  03 20 01 00 00 00 08 00 
   1504       685.925 DT     0318 Rx 8  16 03 0B 0F 11 13 0D 7F 
   1505       686.160 DT     0221 Rx 8  40 41 05 05 00 50 91 8F 
   1506       686.404 DT     0263 Rx 8  03 10 20 03 00 00 00 00 
   1507       686.644 DT     02B3 Rx 8  00 82 81 82 82 7D 67 00 
   1508       686.880 DT     0343 Rx 8  00 90 60 AE A1 36 00 00 
   1509       687.122 DT     03F5 Rx 8  00 C8 19 09 00 00 00 00 
   1510       687.348 DT     0458 Rx 7  02 02 00 80 00 00 00 
   1511       688.066 DT     02E1 Rx 8  03 6C 00 02 2C 44 00 00 
   1512       688.305 DT     0129 Rx 8  D0 2F 4F 20 00 20 FF 3F 
   1513       688.547 DT     0545 Rx 8  02 00 26 00 00 00 80 F2 
   1514       690.220 DT     013D Rx 6  02 20 AA 1A FF 02 
   1515       690.468 DT     037A Rx 8  00 00 00 00 00 00 00 00 
   1516       690.910 DT     0132 Rx 8  E7 89 F7 FF 26 40 FF 0F 
   1517       691.142 DT     07B8 Rx 8  CB AF 3F FB 5D 08 40 FB 
   1518       691.379 DT     03C3 Rx 8  55 55 55 01 00 00 00 00 
   1519       691.787 DT     023E Rx 8  28 C6 63 95 01 6E A6 3B 
   1520       692.057 DT     02C1 Rx 8  04 CA 03 03 64 C1 39 53 
   1521       692.637 DT     0262 Rx 8  0B 00 D2 0D 00 B0 92 12 
   1522       692.875 DT     0282 Rx 8  4D 05 00 01 3B 01 7A 02 
   1523       693.483 DT     02D2 Rx 8  D9 29 8D 4E 00 00 A1 01 
   1524       693.721 DT     0252 Rx 8  00 00 8C 06 00 00 A0 0F 
   1525       693.957 DT     0212 Rx 8  98 24 D6 0F 02 FF 1F 02 
   1526       694.184 DT     0292 Rx 8  4A 57 4D 75 D4 27 9E 01 
   1527       694.314 DT     02F2 Rx 2  12 01 
   1528       694.546 DT     03B2 Rx 8  1C 3C 04 55 61 00 3B 01 
   1529       696.042 DT     0201 Rx 8  03 40 18 00 10 89 F5 C1 
   1530       696.289 DT     0359 Rx 8  05 00 00 00 00 00 00 00 
   1531       696.527 DT     039A Rx 8  FC FD FD FD FD FD FD 01 
   1532       696.769 DT     0553 Rx 8  00 00 00 00 00 00 50 A8 
   1533       697.013 DT     0677 Rx 8  FB FF FF FF FF FF FF 27 
   1534       697.255 DT     02A7 Rx 8  00 00 00 00 00 84 05 84 
   1535       697.387 DT     02D1 Rx 2  7F 01 
   1536       697.633 DT     06E8 Rx 8  CC 01 00 2C 00 00 00 00 
   1537       697.873 DT     078A Rx 8  01 00 02 00 00 00 54 5D 
   1538       697.988 DT     024A Rx 1  03 
   1539       698.222 DT     0129 Rx 8  5C 20 4F 20 FF 1F FF 3F 
   1540       698.462 DT     07AA Rx 8  03 82 F9 4E 07 03 00 00 
   1541       699.038 DT     02A6 Rx 8  00 00 FF 1F 00 00 00 00 
   1542       699.622 DT     0552 Rx 8  00 00 00 00 00 00 50 A7 
   1543       700.220 DT     013D Rx 6  02 20 AA 1A FF 02 
   1544       700.907 DT     0132 Rx 8  E6 89 F8 FF 26 40 FF 0F 
   1545       701.147 DT     02C7 Rx 8  00 00 00 00 00 47 48 FF 
   1546       701.383 DT     0243 Rx 8  FC 7F FF 9F A2 02 41 29 
   1547       701.623 DT     0383 Rx 8  97 00 1E 80 00 00 A0 00 
   1548       702.079 DT     03A1 Rx 8  2B A0 22 01 00 00 B0 34 
   1549       702.327 DT     038A Rx 8  00 00 00 00 00 00 00 00 
   1550       702.643 DT     0142 Rx 8  01 00 80 03 00 00 00 00 
   1551       703.050 DT     02E8 Rx 8  C2 00 00 00 00 80 80 AC 
   1552       704.060 DT     02C1 Rx 8  A5 00 00 00 E0 00 00 00 
   1553       704.288 DT     02E1 Rx 8  FC 19 13 3A 9E 11 0A 00 
   1554       705.036 DT     0261 Rx 8  31 48 6D 00 12 4A 9A 1D 
   1555       706.182 DT     0423 Rx 6  F0 00 00 00 08 00 
   1556       706.586 DT     0422 Rx 6  A0 00 10 00 00 00 
   1557       707.046 DT     0313 Rx 8  02 64 64 01 00 00 E0 C1 
   1558       708.060 DT     0421 Rx 7  00 0A 00 10 00 00 00 
   1559       708.293 DT     0129 Rx 8  4B 21 4F 20 FF 1F FF 3F 
   1560       708.533 DT     0285 Rx 8  02 D3 00 00 00 00 0E 00 
   1561       708.775 DT     02C4 Rx 8  02 40 03 D2 00 00 00 00 
   1562       709.023 DT     0204 Rx 8  81 00 00 46 00 00 00 10 
   1563       709.265 DT     042A Rx 8  01 90 00 48 00 24 00 02 
   1564       709.474 DT     0264 Rx 6  3B 00 00 00 A0 00 
   1565       709.714 DT     0224 Rx 8  04 08 00 40 19 01 10 08 
   1566       709.894 DT     02B4 Rx 5  68 AD 25 C4 00 
