;$FILEVERSION=2.0
;$STARTTIME=44637.6825916898
;$COLUMNS=N,O,T,I,d,l,D
;
;   C:\Users\bayerld\Documents\Tesla\20220317-chassis.trc
;   Start time: 17.03.2022 16:22:55.922.0
;   Generated by PCAN-View v4.2.5.569
;-------------------------------------------------------------------------------
;   Connection                 Bit rate
;   PCANLight_USB_15@pcan_usb  500 kBit/s
;-------------------------------------------------------------------------------
;   Message   Time    Type ID     Rx/Tx
;   Number    Offset  |    [hex]  |  Data Length
;   |         [ms]    |    |      |  |  Data [hex] ...
;   |         |       |    |      |  |  |
;---+-- ------+------ +- --+----- +- +- +- +- -- -- -- -- -- -- --
      1         0.253 DT     0399 Rx 8  F0 20 C0 E0 B0 C8 87 4B 
      2         0.403 DT     0413 Rx 3  4B 4B 4B 
      3         2.309 DT     03CB Rx 5  00 00 00 00 01 
      4         4.875 DT     0221 Rx 8  41 01 55 00 00 00 60 1A 
      5         5.253 DT     0405 Rx 8  12 43 33 37 39 34 34 35 
      6         6.549 DT     0129 Rx 8  22 21 4F 20 00 20 FF 3F 
      7        10.188 DT     0409 Rx 1  00 
      8        10.428 DT     026E Rx 8  04 00 FE EF FF FE EF FF 
      9        10.542 DT     0415 Rx 1  45 
     10        10.712 DT     0488 Rx 4  40 00 01 CD 
     11        10.962 DT     0720 Rx 8  00 00 00 00 00 00 00 00 
     12        13.230 DT     02E1 Rx 8  FC 19 11 1A 9E 11 0A 00 
     13        15.230 DT     010A Rx 7  1E AC 52 62 61 51 01 
     14        15.449 DT     010B Rx 7  16 0C 00 00 F0 FF 0F 
     15        15.667 DT     010C Rx 7  8A FC A0 30 21 90 00 
     16        15.885 DT     010D Rx 7  D9 EC 70 71 F0 FF 0F 
     17        16.035 DT     0219 Rx 3  01 00 1C 
     18        16.279 DT     0239 Rx 8  00 00 64 7D 7D 7D F0 80 
     19        16.523 DT     0247 Rx 8  03 00 1B 00 00 40 FC 00 
     20        16.759 DT     0102 Rx 8  22 33 00 00 E8 38 11 08 
     21        16.993 DT     0129 Rx 8  6B 22 4F 20 00 20 FF 3F 
     22        17.241 DT     024A Rx 8  00 00 01 0F 1F 00 00 00 
     23        17.422 DT     039D Rx 5  65 5C 41 28 00 
     24        20.277 DT     02B9 Rx 8  00 00 D8 25 2A 9A 3A B6 
     25        20.733 DT     0103 Rx 8  11 30 00 00 96 14 11 02 
     26        21.339 DT     0545 Rx 8  80 01 31 D0 A1 0C 0A 83 
     27        26.557 DT     0129 Rx 8  7C 23 4F 20 00 20 FF 3F 
     28        28.665 DT     02E1 Rx 8  05 00 00 00 00 00 00 00 
     29        29.652 DT     02A8 Rx 8  C2 00 00 00 00 80 F0 DC 
     30        30.234 DT     0488 Rx 4  40 00 02 CE 
     31        30.464 DT     020E Rx 8  99 C4 E8 62 15 02 C6 94 
     32        30.732 DT     021E Rx 8  00 00 00 00 00 00 80 BB 
     33        30.980 DT     022E Rx 8  6E 66 A0 48 41 C3 D0 C0 
     34        31.250 DT     023E Rx 8  28 C6 63 95 01 6E B6 4B 
     35        31.518 DT     024E Rx 8  00 80 00 04 00 00 00 00 
     36        31.783 DT     025E Rx 8  00 20 00 81 00 20 00 81 
     37        32.045 DT     026E Rx 8  05 00 FE EF FF FE EF FF 
     38        32.253 DT     032E Rx 5  00 5D 30 81 3F 
     39        32.471 DT     033E Rx 5  00 FF FF 81 C0 
     40        32.679 DT     034E Rx 5  59 9E 21 08 71 
     41        32.887 DT     035E Rx 5  28 26 27 08 DE 
     42        33.124 DT     039E Rx 6  FF FF FF FF 58 0A 
     43        35.262 DT     0259 Rx 8  D3 C0 02 00 00 00 A0 90 
     44        35.508 DT     03FE Rx 8  00 40 00 00 00 00 01 42 
     45        36.542 DT     0129 Rx 8  57 24 4F 20 01 20 FF 3F 
     46        37.256 DT     0249 Rx 4  D3 04 00 00 
     47        40.418 DT     025F Rx 8  DF 8C 01 C3 44 C1 0A E0 
     48        41.664 DT     03C2 Rx 8  00 55 55 55 00 00 55 45 
     49        44.639 DT     02E1 Rx 8  10 21 04 00 00 00 26 08 
     50        45.725 DT     035D Rx 8  02 00 00 00 00 C1 07 00 
     51        46.549 DT     0129 Rx 8  ED 25 4F 20 00 20 FF 3F 
     52        50.239 DT     0488 Rx 4  40 00 03 CF 
     53        50.479 DT     026E Rx 8  06 00 FE EF FF FE EF FF 
     54        53.645 DT     0545 Rx 8  01 00 00 00 00 10 10 6B 
     55        54.785 DT     0221 Rx 8  40 41 05 05 00 50 71 6F 
     56        55.140 DT     0228 Rx 2  D0 FA 
     57        55.352 DT     010A Rx 7  1F AD 52 62 61 51 01 
     58        55.566 DT     010B Rx 7  17 0D 00 00 F0 FF 0F 
     59        55.786 DT     010C Rx 7  8B FD A0 30 21 90 00 
     60        56.002 DT     010D Rx 7  DA ED 70 71 F0 FF 0F 
     61        56.152 DT     0219 Rx 3  02 00 1D 
     62        56.336 DT     039D Rx 5  66 5D 41 28 00 
     63        56.566 DT     07FF Rx 8  04 CC 16 54 61 12 B4 2A 
     64        56.803 DT     0129 Rx 8  37 26 4F 20 00 20 FF 3F 
     65        57.035 DT     0318 Rx 8  16 03 38 0F 11 16 1B BD 
     66        57.171 DT     0418 Rx 2  D2 06 
     67        57.287 DT     0128 Rx 1  00 
     68        60.277 DT     02B9 Rx 8  00 00 D8 25 2A 9A 5A D6 
     69        60.525 DT     03FE Rx 8  00 40 00 00 00 00 10 51 
     70        60.894 DT     02E1 Rx 8  29 0A A3 6A 17 00 00 00 
     71        61.148 DT     03C3 Rx 8  00 00 00 00 00 49 00 00 
     72        65.268 DT     05D9 Rx 8  03 00 FF 00 00 00 00 00 
     73        65.418 DT     02D1 Rx 2  7F 01 
     74        66.556 DT     0129 Rx 8  20 27 4F 20 00 20 FF 3F 
     75        70.284 DT     020E Rx 8  99 C4 E8 62 15 02 06 D4 
     76        70.450 DT     0488 Rx 4  40 00 04 D0 
     77        70.698 DT     021E Rx 8  00 00 00 00 00 00 80 CC 
     78        70.948 DT     022E Rx 8  6E 66 A0 48 41 C3 10 00 
     79        71.201 DT     023E Rx 8  28 C6 63 95 01 6E C6 5B 
     80        71.463 DT     026E Rx 8  07 00 FE EF FF FE EF FF 
     81        76.542 DT     0129 Rx 8  5A 28 4F 20 01 20 FF 3F 
     82        76.798 DT     02E1 Rx 8  02 00 00 00 00 00 01 00 
     83        82.326 DT     0419 Rx 1  00 
     84        84.148 DT     02E8 Rx 8  C2 00 00 00 00 80 F0 1C 
     85        86.549 DT     0129 Rx 8  A2 29 4F 20 00 20 FF 3F 
     86        86.797 DT     0545 Rx 8  02 00 18 00 00 00 20 84 
     87        86.965 DT     0249 Rx 4  83 05 00 00 
     88        88.225 DT     027D Rx 3  01 01 81 
     89        90.311 DT     026E Rx 8  08 00 FE EF FF FE EF FF 
     90        90.477 DT     0488 Rx 4  40 00 05 D1 
     91        91.569 DT     03C2 Rx 8  29 55 00 00 00 00 00 00 
     92        92.888 DT     02E1 Rx 8  03 6C 00 02 2C 45 00 00 
     93        95.238 DT     010A Rx 7  20 AE 52 62 61 51 01 
     94        95.456 DT     010B Rx 7  18 0E 00 00 F0 FF 0F 
     95        95.676 DT     010C Rx 7  8C FE A0 30 21 90 00 
     96        95.896 DT     010D Rx 7  DB EE 70 71 F0 FF 0F 
     97        96.046 DT     0219 Rx 3  03 00 1E 
     98        96.228 DT     039D Rx 5  67 5E 41 28 00 
     99        96.546 DT     0129 Rx 8  D0 2A 4F 20 01 20 FF 3F 
    100        99.291 DT     0420 Rx 6  28 01 40 4B 00 10 
    101       100.279 DT     02B9 Rx 8  00 00 D8 25 2A 9A 7A F6 
    102       100.527 DT     03FE Rx 8  00 40 00 00 00 00 20 61 
    103       102.313 DT     03CB Rx 5  00 00 00 00 01 
    104       104.625 DT     0221 Rx 8  41 01 55 00 00 00 80 3A 
    105       106.553 DT     0129 Rx 8  8C 2B 4F 20 00 20 FF 3F 
    106       108.863 DT     02E1 Rx 8  FC 19 13 1A 9E 09 0A 00 
    107       110.281 DT     020E Rx 8  99 C4 E8 62 15 02 46 14 
    108       110.401 DT     0409 Rx 1  00 
    109       110.648 DT     021E Rx 8  00 00 00 00 00 00 80 DD 
    110       110.814 DT     0488 Rx 4  40 00 06 D2 
    111       111.046 DT     022E Rx 8  6E 66 A0 48 41 C3 50 40 
    112       111.296 DT     0720 Rx 8  00 00 00 00 00 00 00 00 
    113       111.528 DT     023E Rx 8  28 C6 63 95 01 6E D6 6B 
    114       111.788 DT     026E Rx 8  09 00 FE EF FF FE EF FF 
    115       115.298 DT     0239 Rx 8  00 00 64 7D 7D 7D F0 90 
    116       115.542 DT     0247 Rx 8  03 00 1B 00 00 40 FC 00 
    117       115.791 DT     024A Rx 8  00 00 01 0F 1F 00 00 00 
    118       116.545 DT     0129 Rx 8  EC 2C 4F 20 00 20 FF 3F 
    119       116.781 DT     0102 Rx 8  22 33 00 00 E8 38 11 08 
    120       117.347 DT     0334 Rx 8  3F 3F C8 00 E2 3F 70 0E 
    121       119.793 DT     0545 Rx 8  80 01 31 50 A1 08 3A 2F 
    122       120.726 DT     0103 Rx 8  11 30 00 00 96 12 11 02 
    123       124.652 DT     02E1 Rx 8  05 00 00 00 00 00 00 00 
    124       126.547 DT     0129 Rx 8  FE 2D 4F 20 00 20 FF 3F 
    125       129.653 DT     02A8 Rx 8  C2 00 00 00 00 80 00 EC 
    126       130.313 DT     024E Rx 8  01 80 00 04 00 00 00 00 
    127       130.482 DT     0488 Rx 4  40 00 07 D3 
    128       130.726 DT     025E Rx 8  01 20 00 81 00 20 00 81 
    129       131.132 DT     026E Rx 8  0A 00 FE EF FF FE EF FF 
    130       131.400 DT     030E Rx 8  00 00 05 01 00 00 50 67 
    131       131.624 DT     031E Rx 6  01 30 9F 15 1A 1E 
    132       131.830 DT     032E Rx 5  00 5D 30 91 4F 
    133       132.042 DT     033E Rx 5  00 FF FF 91 D0 
    134       132.249 DT     034E Rx 5  59 9E 21 09 72 
    135       132.459 DT     035E Rx 5  28 26 27 09 DF 
    136       132.691 DT     039E Rx 6  FF FF FF FF 69 0A 
    137       135.237 DT     010A Rx 7  21 AF 52 62 61 51 01 
    138       135.453 DT     010B Rx 7  19 0F 00 00 F0 FF 0F 
    139       135.673 DT     010C Rx 7  8D FF A0 30 21 90 00 
    140       135.891 DT     010D Rx 7  DC EF 70 71 F0 FF 0F 
    141       136.044 DT     0219 Rx 3  04 00 1F 
    142       136.284 DT     0259 Rx 8  D3 C0 02 00 00 00 B0 A0 
    143       136.466 DT     039D Rx 5  68 5F 41 28 00 
    144       136.704 DT     0129 Rx 8  21 2E 4F 20 00 20 FF 3F 
    145       137.256 DT     0249 Rx 4  4C 06 00 00 
    146       140.286 DT     02B9 Rx 8  00 00 D8 25 2A 9A 9A 16 
    147       140.532 DT     03FE Rx 8  00 40 00 00 00 00 30 71 
    148       140.773 DT     0389 Rx 8  00 00 00 60 00 80 3F AB 
    149       141.015 DT     02E1 Rx 8  10 21 04 00 00 00 26 08 
    150       141.685 DT     03C2 Rx 8  00 55 55 55 00 00 55 45 
    151       142.911 DT     025F Rx 8  DF 8C 01 C3 44 C1 0A E0 
    152       146.773 DT     0129 Rx 8  D0 2F 4F 20 00 20 FF 3F 
    153       150.281 DT     020E Rx 8  99 C4 E8 62 15 02 86 54 
    154       150.447 DT     0488 Rx 4  40 00 08 D4 
    155       150.691 DT     021E Rx 8  00 00 00 00 00 00 80 EE 
    156       150.941 DT     022E Rx 8  6E 66 A0 48 41 C3 90 80 
    157       151.194 DT     023E Rx 8  28 C6 63 95 01 6E E6 7B 
    158       151.456 DT     026E Rx 8  0B 00 FE EF FF FE EF FF 
    159       152.640 DT     0545 Rx 8  01 00 00 00 00 10 40 9B 
    160       154.886 DT     0221 Rx 8  40 41 05 05 00 50 91 8F 
    161       155.142 DT     0228 Rx 2  E0 0A 
    162       155.388 DT     07FF Rx 8  05 08 A0 40 00 00 00 00 
    163       155.625 DT     0318 Rx 8  16 03 38 0F 11 16 1D BF 
    164       155.759 DT     0418 Rx 2  E2 06 
    165       155.875 DT     0128 Rx 1  00 
    166       156.717 DT     0129 Rx 8  35 20 4F 20 00 20 FF 3F 
    167       157.421 DT     02E1 Rx 8  29 0A A3 6A 17 00 00 00 
    168       161.361 DT     03C3 Rx 8  55 55 55 01 00 00 00 00 
    169       165.416 DT     02D1 Rx 2  7F 01 
    170       166.548 DT     0129 Rx 8  22 21 4F 20 00 20 FF 3F 
    171       170.268 DT     05D9 Rx 8  24 07 00 00 00 00 F0 1F 
    172       170.496 DT     026E Rx 8  20 00 7A 77 84 7B 17 7B 
    173       170.662 DT     0488 Rx 4  40 00 09 D5 
    174       172.644 DT     02E1 Rx 8  02 00 00 00 00 00 01 00 
    175       175.236 DT     010A Rx 7  12 A0 52 62 61 51 01 
    176       175.461 DT     010B Rx 7  0A 00 00 00 F0 FF 0F 
    177       175.679 DT     010C Rx 7  7E F0 A0 30 21 90 00 
    178       175.899 DT     010D Rx 7  CD E0 70 71 F0 FF 0F 
    179       176.053 DT     0219 Rx 3  05 00 20 
    180       176.235 DT     039D Rx 5  59 50 41 28 00 
    181       176.543 DT     0129 Rx 8  02 22 4F 20 FF 1F FF 3F 
    182       180.280 DT     02B9 Rx 8  00 00 D8 25 2A 9A BA 36 
    183       180.527 DT     03FE Rx 8  00 40 00 00 00 00 40 81 
    184       182.331 DT     0419 Rx 1  00 
    185       184.145 DT     02E8 Rx 8  C2 00 00 00 00 80 00 2C 
    186       185.819 DT     0545 Rx 8  02 00 15 00 00 00 50 B1 
    187       186.555 DT     0129 Rx 8  7C 23 4F 20 00 20 FF 3F 
    188       186.879 DT     0249 Rx 4  5E 07 00 00 
    189       188.227 DT     027D Rx 3  01 02 82 
    190       188.871 DT     02E1 Rx 8  03 6C 00 02 2C 45 00 00 
    191       190.285 DT     020E Rx 8  99 C4 E8 62 15 02 C6 94 
    192       190.452 DT     0488 Rx 4  40 00 0A D6 
    193       190.700 DT     021E Rx 8  00 00 00 00 00 00 80 FF 
    194       190.948 DT     022E Rx 8  6E 66 A0 48 41 C3 D0 C0 
    195       191.202 DT     023E Rx 8  28 C6 63 95 01 6E F6 8B 
    196       191.454 DT     026E Rx 8  21 00 10 EA 79 2B 0A 86 
    197       192.034 DT     03C2 Rx 8  29 55 00 00 00 00 00 00 
    198       196.547 DT     0129 Rx 8  FA 24 4F 20 00 20 FF 3F 
    199       199.293 DT     0420 Rx 6  28 01 40 4B 00 20 
    200       202.313 DT     03CB Rx 5  00 00 00 00 01 
    201       205.109 DT     0221 Rx 8  41 01 55 00 00 00 A0 5A 
    202       205.345 DT     02E1 Rx 8  FC 19 10 1A 9E 14 0A 00 
    203       206.548 DT     0129 Rx 8  ED 25 4F 20 00 20 FF 3F 
    204       210.188 DT     0409 Rx 1  00 
    205       210.418 DT     026E Rx 8  22 00 B1 D9 87 84 19 8A 
    206       210.586 DT     0488 Rx 4  40 00 0B D7 
    207       210.836 DT     0720 Rx 8  00 00 00 00 00 00 00 00 
    208       215.236 DT     010A Rx 7  13 A1 52 62 61 51 01 
    209       215.454 DT     010B Rx 7  0B 01 00 00 F0 FF 0F 
    210       215.676 DT     010C Rx 7  7F F1 A0 30 21 90 00 
    211       215.892 DT     010D Rx 7  CE E1 70 71 F0 FF 0F 
    212       216.045 DT     0219 Rx 3  06 00 21 
    213       216.287 DT     0239 Rx 8  00 00 64 7D 7D 7D F0 A0 
    214       216.531 DT     0247 Rx 8  03 00 1B 00 00 40 FC 00 
    215       216.767 DT     0102 Rx 8  22 33 00 00 E8 38 11 08 
    216       217.003 DT     0129 Rx 8  37 26 4F 20 00 20 FF 3F 
    217       217.251 DT     024A Rx 8  00 00 01 0F 1F 00 00 00 
    218       217.431 DT     039D Rx 5  5A 51 41 28 00 
    219       218.867 DT     0545 Rx 8  80 01 36 90 A1 0C 6A A8 
    220       220.286 DT     02B9 Rx 8  00 00 D8 25 2A 9A DA 56 
    221       220.530 DT     03FE Rx 8  00 40 00 00 00 00 50 91 
    222       220.778 DT     02E1 Rx 8  05 00 00 00 00 00 00 00 
    223       221.016 DT     0103 Rx 8  11 30 00 00 96 14 11 02 
    224       226.552 DT     0129 Rx 8  20 27 4F 20 00 20 FF 3F 
    225       229.646 DT     02A8 Rx 8  C2 00 00 00 00 80 10 FC 
    226       230.294 DT     020E Rx 8  99 C4 E8 62 15 02 06 D4 
    227       230.462 DT     0488 Rx 4  40 00 0C D8 
    228       230.713 DT     021E Rx 8  00 00 00 00 00 00 80 00 
    229       230.965 DT     022E Rx 8  6E 66 A0 48 41 C3 10 00 
    230       231.241 DT     023E Rx 8  28 C6 63 95 01 6E 06 9B 
    231       231.509 DT     024E Rx 8  02 80 00 04 00 00 00 00 
    232       231.771 DT     025E Rx 8  02 20 00 81 00 20 00 81 
    233       232.031 DT     026E Rx 8  03 00 FE EF FF FE EF FF 
    234       232.240 DT     032E Rx 5  00 5D 30 A1 5F 
    235       232.457 DT     033E Rx 5  00 FF FF A1 E0 
    236       232.661 DT     034E Rx 5  59 9E 21 0A 73 
    237       232.867 DT     035E Rx 5  28 26 27 0A E0 
    238       233.099 DT     039E Rx 6  FF FF FF FF 7A 0A 
    239       234.305 DT     03C9 Rx 7  03 11 43 06 30 38 00 
    240       235.264 DT     0259 Rx 8  D3 C0 02 00 00 00 C0 B0 
    241       236.580 DT     0129 Rx 8  9E 28 4F 20 FF 1F FF 3F 
    242       236.832 DT     02E1 Rx 8  10 21 04 00 00 00 26 08 
    243       237.548 DT     0249 Rx 4  3F 08 00 00 
    244       241.688 DT     03C2 Rx 8  00 55 55 55 00 00 55 45 
    245       242.318 DT     025F Rx 8  DF 8C 01 C3 44 C1 0A E0 
    246       246.551 DT     0129 Rx 8  A2 29 4F 20 00 20 FF 3F 
    247       250.309 DT     026E Rx 8  04 00 FE EF FF FE EF FF 
    248       250.475 DT     0488 Rx 4  40 00 0D D9 
    249       251.813 DT     0545 Rx 8  01 00 00 00 00 10 70 CB 
    250       252.871 DT     02E1 Rx 8  29 0A A3 6A 17 00 00 00 
    251       254.789 DT     0221 Rx 8  40 41 05 05 00 50 B1 AF 
    252       255.235 DT     010A Rx 7  14 A2 52 62 61 51 01 
    253       255.453 DT     010B Rx 7  0C 02 00 00 F0 FF 0F 
    254       255.674 DT     010C Rx 7  80 F2 A0 30 21 90 00 
    255       255.894 DT     010D Rx 7  CF E2 70 71 F0 FF 0F 
    256       256.046 DT     0219 Rx 3  07 00 22 
    257       256.228 DT     039D Rx 5  5B 52 41 28 00 
    258       256.468 DT     0405 Rx 8  10 00 00 00 00 4C 52 57 
    259       256.702 DT     0129 Rx 8  14 2A 4F 20 FF 1F FF 3F 
    260       256.832 DT     0228 Rx 2  F0 1A 
    261       257.069 DT     07FF Rx 8  01 91 45 44 42 4C 7A 00 
    262       257.305 DT     0318 Rx 8  16 03 38 0F 11 16 1F C1 
    263       257.439 DT     0418 Rx 2  F2 06 
    264       257.555 DT     0128 Rx 1  00 
    265       260.283 DT     02B9 Rx 8  00 00 D8 25 2A 9A FA 76 
    266       260.530 DT     03FE Rx 8  00 40 00 00 00 00 60 A1 
    267       260.916 DT     03C3 Rx 8  00 00 00 00 00 49 00 00 
    268       261.128 DT     025A Rx 6  00 00 00 00 00 00 
    269       265.428 DT     02D1 Rx 2  7F 01 
    270       266.550 DT     0129 Rx 8  8C 2B 4F 20 00 20 FF 3F 
    271       267.372 DT     0238 Rx 8  80 3F 14 C1 1F 00 04 F1 
    272       267.566 DT     0284 Rx 5  10 00 00 00 00 
    273       269.051 DT     02E1 Rx 8  02 00 00 00 00 00 01 00 
    274       270.281 DT     020E Rx 8  99 C4 E8 62 15 02 46 14 
    275       270.447 DT     0488 Rx 4  40 00 0E DA 
    276       270.693 DT     021E Rx 8  00 00 00 00 00 00 80 11 
    277       270.945 DT     022E Rx 8  6E 66 A0 48 41 C3 50 40 
    278       271.197 DT     023E Rx 8  28 C6 63 95 01 6E 16 AB 
    279       271.460 DT     026E Rx 8  05 00 FE EF FF FE EF FF 
    280       276.544 DT     0129 Rx 8  41 2C 4F 20 01 20 FF 3F 
    281       282.328 DT     0419 Rx 1  00 
    282       284.154 DT     02E8 Rx 8  C2 00 00 00 00 80 10 3C 
    283       284.640 DT     02E1 Rx 8  03 6C 00 02 2C 45 00 00 
    284       284.882 DT     0545 Rx 8  02 00 12 00 00 00 80 DE 
    285       286.548 DT     0129 Rx 8  FE 2D 4F 20 00 20 FF 3F 
    286       286.874 DT     0249 Rx 4  5E 09 00 00 
    287       288.228 DT     027D Rx 3  01 03 83 
    288       290.310 DT     026E Rx 8  06 00 FE EF FF FE EF FF 
    289       290.478 DT     0488 Rx 4  40 00 0F DB 
    290       291.586 DT     03C2 Rx 8  29 55 00 00 00 00 00 00 
    291       295.238 DT     010A Rx 7  15 A3 52 62 61 51 01 
    292       295.454 DT     010B Rx 7  0D 03 00 00 F0 FF 0F 
    293       295.675 DT     010C Rx 7  81 F3 A0 30 21 90 00 
    294       295.891 DT     010D Rx 7  D0 E3 70 71 F0 FF 0F 
    295       296.041 DT     0219 Rx 3  08 00 23 
    296       296.221 DT     039D Rx 5  5C 53 41 28 00 
    297       296.551 DT     0129 Rx 8  21 2E 4F 20 00 20 FF 3F 
    298       299.295 DT     0420 Rx 6  28 01 40 4B 00 30 
    299       300.281 DT     02B9 Rx 8  00 00 D8 25 2A 9A 1A 96 
    300       300.524 DT     03FE Rx 8  00 40 00 00 00 00 70 B1 
    301       301.020 DT     02E1 Rx 8  FC 19 13 1A 9E 13 0A 00 
    302       302.316 DT     03CB Rx 5  00 00 00 00 01 
    303       304.638 DT     0221 Rx 8  41 01 55 00 00 00 C0 7A 
    304       306.550 DT     0129 Rx 8  D0 2F 4F 20 00 20 FF 3F 
    305       310.286 DT     020E Rx 8  99 C4 E8 62 15 02 86 54 
    306       310.406 DT     0409 Rx 1  00 
    307       310.650 DT     021E Rx 8  00 00 00 00 00 00 80 22 
    308       310.820 DT     0488 Rx 4  40 00 00 CC 
    309       311.050 DT     022E Rx 8  6E 66 A0 48 41 C3 90 80 
    310       311.301 DT     0720 Rx 8  00 00 00 00 00 00 00 00 
    311       311.531 DT     023E Rx 8  28 C6 63 95 01 6E 26 BB 
    312       311.793 DT     026E Rx 8  07 00 FE EF FF FE EF FF 
    313       315.289 DT     0239 Rx 8  00 00 64 7D 7D 7D F0 B0 
    314       315.533 DT     0247 Rx 8  03 00 1B 00 00 40 FC 00 
    315       315.781 DT     024A Rx 8  00 00 01 0F 1F 00 00 00 
    316       316.549 DT     0129 Rx 8  35 20 4F 20 00 20 FF 3F 
    317       316.786 DT     0102 Rx 8  22 33 00 00 E8 38 11 08 
    318       317.050 DT     02E1 Rx 8  05 00 00 00 00 00 00 00 
    319       317.748 DT     0545 Rx 8  80 01 36 40 A1 07 9A 83 
    320       320.722 DT     0103 Rx 8  11 30 00 00 96 12 11 02 
    321       326.544 DT     0129 Rx 8  22 21 4F 20 00 20 FF 3F 
    322       329.651 DT     02A8 Rx 8  C2 00 00 00 00 80 20 0C 
    323       330.307 DT     024E Rx 8  03 80 00 04 00 00 00 00 
    324       330.477 DT     0488 Rx 4  40 00 01 CD 
    325       330.719 DT     025E Rx 8  03 20 00 81 00 20 00 81 
    326       330.981 DT     026E Rx 8  08 00 FE EF FF FE EF FF 
    327       331.203 DT     032E Rx 5  00 5D 30 B1 6F 
    328       331.421 DT     033E Rx 5  00 FF FF B1 F0 
    329       331.626 DT     034E Rx 5  59 9E 21 0B 74 
    330       331.836 DT     035E Rx 5  28 26 27 0B E1 
    331       332.068 DT     039E Rx 6  FF FF FF FF 8B 0A 
    332       332.858 DT     02E1 Rx 8  10 21 04 00 00 00 26 08 
    333       335.236 DT     010A Rx 7  16 A4 52 62 61 51 01 
    334       335.454 DT     010B Rx 7  0E 04 00 00 F0 FF 0F 
    335       335.675 DT     010C Rx 7  82 F4 A0 30 21 90 00 
    336       335.893 DT     010D Rx 7  D1 E4 70 71 F0 FF 0F 
    337       336.041 DT     0219 Rx 3  09 00 24 
    338       336.281 DT     0259 Rx 8  D3 C0 02 00 00 00 D0 C0 
    339       336.461 DT     039D Rx 5  5D 54 41 28 00 
    340       336.695 DT     0129 Rx 8  6B 22 4F 20 00 20 FF 3F 
    341       337.261 DT     0249 Rx 4  E2 0A 00 00 
    342       340.286 DT     02B9 Rx 8  00 00 D8 25 2A 9A 3A B6 
    343       340.533 DT     03FE Rx 8  00 40 00 00 00 00 80 C1 
    344       341.687 DT     03C2 Rx 8  00 55 55 55 00 00 55 45 
    345       342.319 DT     025F Rx 8  DF 8C 01 C3 44 C1 0A E0 
    346       346.561 DT     0129 Rx 8  7C 23 4F 20 00 20 FF 3F 
    347       348.889 DT     02E1 Rx 8  29 0A A3 6A 17 00 00 00 
    348       350.291 DT     020E Rx 8  99 C4 E8 62 05 02 C6 84 
    349       350.459 DT     0488 Rx 4  40 00 02 CE 
    350       350.704 DT     021E Rx 8  00 00 00 00 00 00 80 33 
    351       350.948 DT     0545 Rx 8  01 00 00 00 00 10 A0 FB 
    352       351.176 DT     022E Rx 8  6E 66 A0 48 41 C3 D0 C0 
    353       351.430 DT     023E Rx 8  28 C6 63 95 01 6E 36 CB 
    354       351.690 DT     026E Rx 8  09 00 FE EF FF FE EF FF 
    355       354.784 DT     0221 Rx 8  40 41 05 05 00 50 D1 CF 
    356       355.153 DT     0228 Rx 2  00 2A 
    357       355.387 DT     07FF Rx 8  02 5F 4E AC DE CD D6 30 
    358       355.621 DT     0318 Rx 8  16 03 38 0F 11 16 01 A3 
    359       355.761 DT     0418 Rx 2  02 06 
    360       355.877 DT     0128 Rx 1  00 
    361       356.604 DT     0129 Rx 8  57 24 4F 20 01 20 FF 3F 
    362       360.276 DT     03FE Rx 8  00 40 00 00 00 00 91 D2 
    363       360.880 DT     03C3 Rx 8  55 55 55 01 00 00 00 00 
    364       364.642 DT     02E1 Rx 8  02 00 00 00 00 00 01 00 
    365       365.422 DT     02D1 Rx 2  7F 01 
    366       366.547 DT     0129 Rx 8  ED 25 4F 20 00 20 FF 3F 
    367       370.306 DT     026E Rx 8  0A 00 FE EF FF FE EF FF 
    368       370.481 DT     0488 Rx 4  40 00 03 CF 
    369       375.237 DT     010A Rx 7  17 A5 52 62 61 51 01 
    370       375.457 DT     010B Rx 7  0F 05 00 00 F0 FF 0F 
    371       375.677 DT     010C Rx 7  83 F5 A0 30 21 90 00 
    372       375.895 DT     010D Rx 7  D2 E5 70 71 F0 FF 0F 
    373       376.047 DT     0219 Rx 3  0A 00 25 
    374       376.295 DT     035D Rx 8  00 00 00 00 00 00 00 00 
    375       376.477 DT     039D Rx 5  5E 55 41 28 00 
    376       376.710 DT     0129 Rx 8  5E 26 4F 20 FF 1F FF 3F 
    377       380.286 DT     030E Rx 8  00 00 05 01 00 00 60 77 
    378       380.516 DT     02B9 Rx 8  00 00 D8 25 2A 9A 5A D6 
    379       380.752 DT     02E1 Rx 8  03 6C 00 02 2C 45 00 00 
    380       382.344 DT     0419 Rx 1  00 
    381       383.660 DT     0545 Rx 8  02 00 10 00 00 00 B0 0C 
    382       384.174 DT     02E8 Rx 8  C2 00 00 00 00 80 20 4C 
    383       386.551 DT     0129 Rx 8  20 27 4F 20 00 20 FF 3F 
    384       386.891 DT     0249 Rx 4  28 0B 00 00 
    385       388.227 DT     027D Rx 3  01 04 84 
    386       389.337 DT     032B Rx 8  00 00 00 00 00 00 00 00 
    387       389.587 DT     036C Rx 8  00 00 00 00 00 00 00 00 
    388       389.835 DT     0459 Rx 8  00 00 00 00 00 00 00 00 
    389       390.085 DT     0350 Rx 8  00 00 00 00 00 00 00 00 
    390       390.251 DT     0488 Rx 4  40 00 04 D0 
    391       390.481 DT     020E Rx 8  99 C4 E8 62 05 02 06 C4 
    392       390.748 DT     021E Rx 8  00 00 00 00 00 00 80 44 
    393       391.000 DT     022E Rx 8  6E 66 A0 48 41 C3 10 00 
    394       391.258 DT     023E Rx 8  28 C6 63 95 01 6E 46 DB 
    395       391.520 DT     026E Rx 8  0B 00 FE EF FF FE EF FF 
    396       392.049 DT     03C2 Rx 8  29 55 00 00 00 00 00 00 
    397       396.546 DT     0129 Rx 8  F7 28 4F 20 00 20 FF 3F 
    398       397.012 DT     02E1 Rx 8  FC 19 0E 0A 9E 11 0A 00 
    399       399.296 DT     0420 Rx 6  28 01 40 4B 00 40 
    400       400.272 DT     03FE Rx 8  00 40 00 00 00 00 A1 E2 
    401       402.316 DT     03CB Rx 5  00 00 00 00 01 
    402       404.888 DT     0221 Rx 8  41 01 55 00 00 00 E0 9A 
    403       406.547 DT     0129 Rx 8  A2 29 4F 20 00 20 FF 3F 
    404       410.325 DT     0329 Rx 8  00 00 00 00 00 00 00 00 
    405       410.553 DT     026E Rx 8  20 00 7A 77 84 7B 17 7B 
    406       410.801 DT     0369 Rx 8  00 00 00 00 00 00 00 00 
    407       410.921 DT     0409 Rx 1  00 
    408       411.169 DT     0425 Rx 8  00 00 00 00 00 00 00 00 
    409       411.419 DT     0429 Rx 8  00 00 00 00 00 00 00 00 
    410       411.669 DT     0439 Rx 8  00 00 00 00 00 00 00 00 
    411       411.917 DT     0449 Rx 8  00 00 00 00 00 00 00 00 
    412       412.168 DT     0479 Rx 8  00 00 00 00 00 00 00 00 
    413       412.334 DT     0488 Rx 4  40 00 05 D1 
    414       412.584 DT     0720 Rx 8  00 00 00 00 00 00 00 00 
    415       412.834 DT     02E1 Rx 8  05 00 00 00 00 00 00 00 
    416       415.302 DT     010A Rx 7  18 A6 52 62 61 51 01 
    417       415.518 DT     010B Rx 7  10 06 00 00 F0 FF 0F 
    418       415.734 DT     010C Rx 7  84 F6 A0 30 21 90 00 
    419       415.952 DT     010D Rx 7  D3 E6 70 71 F0 FF 0F 
    420       416.100 DT     0219 Rx 3  0B 00 26 
    421       416.343 DT     0239 Rx 8  00 00 64 7D 7D 7D F0 C0 
    422       416.587 DT     0247 Rx 8  03 00 1B 00 00 40 FC 00 
    423       416.823 DT     0102 Rx 8  22 33 00 00 E8 38 11 08 
    424       417.061 DT     0129 Rx 8  7D 2A 4F 20 00 20 FF 3F 
    425       417.309 DT     024A Rx 8  00 00 01 0F 1F 00 00 00 
    426       417.425 DT     025B Rx 1  03 
    427       417.635 DT     025D Rx 6  00 00 FF 00 00 00 
    428       417.817 DT     039D Rx 5  5F 56 41 28 00 
    429       418.011 DT     03DF Rx 5  00 00 04 00 01 
    430       418.216 DT     03F4 Rx 6  04 16 B1 01 7A 00 
    431       418.442 DT     0293 Rx 8  01 0C 55 91 55 15 C4 B6 
    432       418.686 DT     03FA Rx 8  01 01 02 02 04 02 05 FF 
    433       418.820 DT     0410 Rx 2  45 00 
    434       419.070 DT     0428 Rx 8  00 00 00 00 00 38 1F 00 
    435       419.294 DT     0499 Rx 8  76 77 77 6B 6B 71 70 6D 
    436       419.520 DT     0545 Rx 8  40 01 31 B0 A1 0A CA E1 
    437       419.766 DT     0549 Rx 8  00 03 00 00 00 00 00 00 
    438       420.301 DT     02B9 Rx 8  00 00 D8 25 2A 9A 7A F6 
    439       420.743 DT     0103 Rx 8  11 30 00 00 96 12 11 02 
    440       426.547 DT     0129 Rx 8  21 2B 4F 20 01 20 FF 3F 
    441       428.911 DT     02E1 Rx 8  10 21 04 00 00 00 26 08 
    442       429.667 DT     02A8 Rx 8  C2 00 00 00 00 80 30 1C 
    443       430.295 DT     020E Rx 8  99 C4 E8 62 05 02 46 04 
    444       430.462 DT     0488 Rx 4  40 00 06 D2 
    445       430.708 DT     021E Rx 8  00 00 00 00 00 00 80 55 
    446       430.964 DT     022E Rx 8  6E 66 A0 48 41 C3 50 40 
    447       431.238 DT     023E Rx 8  28 C6 63 95 01 6E 56 EB 
    448       431.506 DT     024E Rx 8  00 80 00 04 00 00 00 00 
    449       431.770 DT     025E Rx 8  00 20 00 81 00 20 00 81 
    450       432.023 DT     026E Rx 8  21 00 10 EA 79 2B 0A 86 
    451       432.231 DT     032E Rx 5  00 5D 30 C1 7F 
    452       432.451 DT     033E Rx 5  00 FF FF C1 00 
    453       432.655 DT     034E Rx 5  59 9E 21 0C 75 
    454       432.861 DT     035E Rx 5  28 26 27 0C E2 
    455       433.094 DT     039E Rx 6  FF FF FF FF 9C 0A 
    456       435.270 DT     0259 Rx 8  D3 C0 02 00 00 00 E0 D0 
    457       436.542 DT     0129 Rx 8  EC 2C 4F 20 00 20 FF 3F 
    458       437.270 DT     0249 Rx 4  3A 0C 00 00 
    459       440.276 DT     03FE Rx 8  00 40 00 00 00 00 B1 F2 
    460       441.840 DT     025F Rx 8  DF 8C 01 C3 44 C1 0A E0 
    461       442.074 DT     03C2 Rx 8  00 55 55 55 00 00 55 45 
    462       445.368 DT     02E1 Rx 8  29 0A A3 6A 17 00 00 00 
    463       446.702 DT     0129 Rx 8  97 2D 4F 20 FF 1F FF 3F 
    464       449.650 DT     0545 Rx 8  01 00 00 00 00 10 D0 2B 
    465       450.298 DT     026E Rx 8  22 00 B1 D9 87 84 19 8A 
    466       450.466 DT     0488 Rx 4  40 00 07 D3 
    467       454.901 DT     0221 Rx 8  40 41 05 05 00 50 F1 EF 
    468       455.155 DT     0228 Rx 2  10 3A 
    469       455.365 DT     010A Rx 7  19 A7 52 62 61 51 01 
    470       455.583 DT     010B Rx 7  11 07 00 00 F0 FF 0F 
    471       455.803 DT     010C Rx 7  85 F7 A0 30 21 90 00 
    472       456.019 DT     010D Rx 7  D4 E7 70 71 F0 FF 0F 
    473       456.167 DT     0219 Rx 3  0C 00 27 
    474       456.349 DT     039D Rx 5  60 57 41 28 00 
    475       456.584 DT     07FF Rx 8  03 31 08 A1 E0 42 16 41 
    476       456.818 DT     0129 Rx 8  48 2E 4F 20 FF 1F FF 3F 
    477       457.052 DT     0318 Rx 8  16 03 38 0F 11 16 03 A5 
    478       457.186 DT     0418 Rx 2  12 06 
    479       457.302 DT     0128 Rx 1  00 
    480       460.284 DT     02B9 Rx 8  00 00 D8 25 2A 9A 9A 16 
    481       460.716 DT     02E1 Rx 8  02 00 00 00 00 00 01 00 
    482       461.199 DT     03C3 Rx 8  00 00 00 00 00 49 00 00 
    483       465.437 DT     02D1 Rx 2  7F 01 
    484       466.549 DT     0129 Rx 8  D0 2F 4F 20 00 20 FF 3F 
    485       470.287 DT     020E Rx 8  99 C4 E8 62 05 02 86 44 
    486       470.453 DT     0488 Rx 4  40 00 08 D4 
    487       470.697 DT     021E Rx 8  00 00 00 00 00 00 80 66 
    488       470.947 DT     022E Rx 8  6E 66 A0 48 41 C3 90 80 
    489       471.204 DT     023E Rx 8  28 C6 63 95 01 6E 66 FB 
    490       471.464 DT     026E Rx 8  03 00 FE EF FF FE EF FF 
    491       476.550 DT     0129 Rx 8  35 20 4F 20 00 20 FF 3F 
    492       476.788 DT     02E1 Rx 8  03 6C 00 02 2C 45 00 00 
    493       480.276 DT     03FE Rx 8  00 40 00 00 00 00 C1 02 
    494       482.332 DT     0419 Rx 1  00 
    495       482.802 DT     0545 Rx 8  02 00 0E 00 00 00 E0 3A 
    496       484.165 DT     02E8 Rx 8  C2 00 00 00 00 80 30 5C 
    497       486.545 DT     0129 Rx 8  22 21 4F 20 00 20 FF 3F 
    498       486.871 DT     0249 Rx 4  13 0D 00 00 
    499       488.231 DT     027D Rx 3  01 05 85 
    500       490.307 DT     026E Rx 8  04 00 FE EF FF FE EF FF 
    501       490.473 DT     0488 Rx 4  40 00 09 D5 
    502       491.582 DT     03C2 Rx 8  29 55 00 00 00 00 00 00 
    503       492.880 DT     02E1 Rx 8  FC 19 10 0A 9E 11 0A 00 
    504       495.242 DT     010A Rx 7  1A A8 52 62 61 51 01 
    505       495.462 DT     010B Rx 7  12 08 00 00 F0 FF 0F 
    506       495.684 DT     010C Rx 7  86 F8 A0 30 21 90 00 
    507       495.902 DT     010D Rx 7  D5 E8 70 71 F0 FF 0F 
    508       496.050 DT     0219 Rx 3  0D 00 28 
    509       496.230 DT     039D Rx 5  61 58 41 28 00 
    510       496.539 DT     0129 Rx 8  6B 22 4F 20 00 20 FF 3F 
    511       499.296 DT     0420 Rx 6  28 01 40 4B 00 50 
    512       500.286 DT     02B9 Rx 8  00 00 D8 25 2A 9A BA 36 
    513       500.516 DT     0399 Rx 8  F0 20 C0 E0 B0 C8 97 5B 
    514       500.664 DT     0413 Rx 3  4B 49 49 
    515       502.320 DT     03CB Rx 5  00 00 00 00 01 
    516       504.898 DT     0221 Rx 8  41 01 55 00 00 00 00 BA 
    517       505.279 DT     0405 Rx 8  11 33 45 37 46 41 30 4D 
    518       506.565 DT     0129 Rx 8  7C 23 4F 20 00 20 FF 3F 
    519       508.673 DT     02E1 Rx 8  05 00 00 00 00 00 00 00 
    520       510.285 DT     020E Rx 8  99 C4 E8 62 15 02 C6 94 
    521       510.405 DT     0409 Rx 1  00 
    522       510.649 DT     021E Rx 8  00 00 00 00 00 00 80 77 
    523       510.765 DT     0415 Rx 1  43 
    524       510.993 DT     022E Rx 8  6E 66 A0 48 41 C3 D0 C0 
    525       511.160 DT     0488 Rx 4  40 00 0A D6 
    526       511.392 DT     023E Rx 8  28 C6 63 95 01 6E 76 0B 
    527       511.642 DT     0720 Rx 8  00 00 00 00 00 00 00 00 
    528       511.882 DT     026E Rx 8  05 00 FE EF FF FE EF FF 
    529       515.292 DT     0239 Rx 8  00 00 64 7D 7D 7D F0 D0 
    530       515.536 DT     0247 Rx 8  03 00 1B 00 00 40 FC 00 
    531       515.784 DT     024A Rx 8  00 00 01 0F 1F 00 00 00 
    532       516.276 DT     0545 Rx 8  80 01 31 A0 A1 0D FA 44 
    533       516.544 DT     0129 Rx 8  FA 24 4F 20 00 20 FF 3F 
    534       516.781 DT     0102 Rx 8  22 33 00 00 E8 38 11 08 
    535       520.273 DT     03FE Rx 8  00 40 00 00 00 00 D1 12 
    536       520.747 DT     0103 Rx 8  11 30 00 00 96 14 11 02 
    537       524.665 DT     02E1 Rx 8  10 21 04 00 00 00 26 08 
    538       526.543 DT     0129 Rx 8  ED 25 4F 20 00 20 FF 3F 
    539       529.660 DT     02A8 Rx 8  C2 00 00 00 00 80 40 2C 
    540       530.312 DT     024E Rx 8  01 80 00 04 00 00 00 00 
    541       530.480 DT     0488 Rx 4  40 00 0B D7 
    542       530.724 DT     025E Rx 8  01 20 00 81 00 20 00 81 
    543       530.986 DT     026E Rx 8  06 00 FE EF FF FE EF FF 
    544       531.202 DT     032E Rx 5  00 5D 30 D1 8F 
    545       531.416 DT     033E Rx 5  00 FF FF D1 10 
    546       531.621 DT     034E Rx 5  59 9E 21 0D 76 
    547       531.829 DT     035E Rx 5  28 26 27 0D E3 
    548       532.061 DT     039E Rx 6  FF FF FF FF AD 0A 
    549       535.241 DT     010A Rx 7  1B A9 52 62 61 51 01 
    550       535.455 DT     010B Rx 7  13 09 00 00 F0 FF 0F 
    551       535.673 DT     010C Rx 7  87 F9 A0 30 21 90 00 
    552       535.894 DT     010D Rx 7  D6 E9 70 71 F0 FF 0F 
    553       536.042 DT     0219 Rx 3  0E 00 29 
    554       536.284 DT     0259 Rx 8  D3 C0 02 00 00 00 F0 E0 
    555       536.464 DT     039D Rx 5  62 59 41 28 00 
    556       536.700 DT     0129 Rx 8  37 26 4F 20 00 20 FF 3F 
    557       537.246 DT     0249 Rx 4  AF 0E 00 00 
    558       540.291 DT     02B9 Rx 8  00 00 D8 25 2A 9A DA 56 
    559       540.525 DT     025F Rx 8  DF 8C 01 C3 44 C1 0A E0 
    560       541.543 DT     02E1 Rx 8  29 0A A3 6A 17 00 00 00 
    561       542.009 DT     03C2 Rx 8  00 55 55 55 00 00 55 45 
    562       546.665 DT     0129 Rx 8  8D 27 4F 20 01 20 FF 3F 
    563       548.921 DT     0545 Rx 8  01 00 00 00 00 10 00 5B 
    564       550.281 DT     020E Rx 8  99 C4 E8 62 15 02 06 D4 
    565       550.450 DT     0488 Rx 4  40 00 0C D8 
    566       550.694 DT     021E Rx 8  00 00 00 00 00 00 80 88 
    567       550.945 DT     022E Rx 8  6E 66 A0 48 41 C3 10 00 
    568       551.197 DT     023E Rx 8  28 C6 63 95 01 6E 86 1B 
    569       551.459 DT     026E Rx 8  07 00 FE EF FF FE EF FF 
    570       555.035 DT     0221 Rx 8  40 41 05 05 00 50 11 0F 
    571       555.167 DT     0228 Rx 2  20 4A 
    572       555.400 DT     07FF Rx 8  04 CC 16 54 61 12 B4 2A 
    573       555.636 DT     0318 Rx 8  16 03 38 0F 11 16 05 A7 
    574       555.772 DT     0418 Rx 2  22 06 
    575       555.888 DT     0128 Rx 1  00 
    576       556.614 DT     0129 Rx 8  5A 28 4F 20 01 20 FF 3F 
    577       556.870 DT     02E1 Rx 8  02 00 00 00 00 00 01 00 
    578       560.275 DT     03FE Rx 8  00 40 00 00 00 00 E1 22 
    579       561.187 DT     03C3 Rx 8  55 55 55 01 00 00 00 00 
    580       565.429 DT     02D1 Rx 2  7F 01 
    581       566.543 DT     0129 Rx 8  A2 29 4F 20 00 20 FF 3F 
    582       567.475 DT     03F3 Rx 3  10 1B 00 
    583       567.713 DT     03F8 Rx 8  03 28 80 00 59 29 15 20 
    584       570.307 DT     026E Rx 8  08 00 FE EF FF FE EF FF 
    585       570.474 DT     0488 Rx 4  40 00 0D D9 
    586       572.650 DT     02E1 Rx 8  03 6C 00 02 2C 45 00 00 
    587       575.246 DT     010A Rx 7  1C AA 52 62 61 51 01 
    588       575.462 DT     010B Rx 7  14 0A 00 00 F0 FF 0F 
    589       575.682 DT     010C Rx 7  88 FA A0 30 21 90 00 
    590       575.900 DT     010D Rx 7  D7 EA 70 71 F0 FF 0F 
    591       576.052 DT     0219 Rx 3  0F 00 2A 
    592       576.232 DT     039D Rx 5  63 5A 41 28 00 
    593       576.546 DT     0129 Rx 8  7D 2A 4F 20 00 20 FF 3F 
    594       580.291 DT     02B9 Rx 8  00 00 D8 25 2A 9A FA 76 
    595       581.823 DT     0545 Rx 8  02 00 0E 00 00 00 10 6A 
    596       582.353 DT     0419 Rx 1  00 
    597       584.163 DT     02E8 Rx 8  C2 00 00 00 00 80 40 6C 
    598       586.547 DT     0129 Rx 8  8C 2B 4F 20 00 20 FF 3F 
    599       586.874 DT     0249 Rx 4  CE 0F 00 00 
    600       588.232 DT     027D Rx 3  01 06 86 
    601       589.038 DT     02E1 Rx 8  FC 19 15 0A 9E 17 0A 00 
    602       590.280 DT     020E Rx 8  99 C4 E8 62 15 02 46 14 
    603       590.446 DT     0488 Rx 4  40 00 0E DA 
    604       590.692 DT     021E Rx 8  00 00 00 00 00 00 80 99 
    605       590.944 DT     022E Rx 8  6E 66 A0 48 41 C3 50 40 
    606       591.198 DT     023E Rx 8  28 C6 63 95 01 6E 96 2B 
    607       591.459 DT     026E Rx 8  09 00 FE EF FF FE EF FF 
    608       592.067 DT     03C2 Rx 8  29 55 00 00 00 00 00 00 
    609       596.535 DT     0129 Rx 8  85 2C 4F 20 FF 1F FF 3F 
    610       599.295 DT     0420 Rx 6  28 01 40 4B 00 60 
    611       600.275 DT     03FE Rx 8  00 40 00 00 00 00 F1 32 
    612       602.319 DT     03CB Rx 5  00 00 00 00 01 
    613       604.658 DT     02E1 Rx 8  05 00 00 00 00 00 00 00 
    614       604.901 DT     0221 Rx 8  41 01 55 00 00 00 20 DA 
    615       606.545 DT     0129 Rx 8  FE 2D 4F 20 00 20 FF 3F 
    616       610.305 DT     026E Rx 8  0A 00 FE EF FF FE EF FF 
    617       610.425 DT     0409 Rx 1  00 
    618       610.593 DT     0488 Rx 4  40 00 0F DB 
    619       610.843 DT     0720 Rx 8  00 00 00 00 00 00 00 00 
    620       614.632 DT     0545 Rx 8  20 02 36 60 A1 05 2A D2 
    621       615.242 DT     010A Rx 7  1D AB 52 62 61 51 01 
    622       615.458 DT     010B Rx 7  15 0B 00 00 F0 FF 0F 
    623       615.680 DT     010C Rx 7  89 FB A0 30 21 90 00 
    624       615.898 DT     010D Rx 7  D8 EB 70 71 F0 FF 0F 
    625       616.048 DT     0219 Rx 3  00 00 1B 
    626       616.292 DT     0239 Rx 8  00 00 64 7D 7D 7D F0 E0 
    627       616.536 DT     0247 Rx 8  03 00 1B 00 00 40 FC 00 
    628       616.772 DT     0102 Rx 8  22 33 00 00 E8 38 11 08 
    629       617.011 DT     0129 Rx 8  21 2E 4F 20 00 20 FF 3F 
    630       617.259 DT     024A Rx 8  00 00 01 0F 1F 00 00 00 
    631       617.439 DT     039D Rx 5  64 5B 41 28 00 
    632       617.669 DT     004F Rx 8  1B 1E E8 02 9C E7 0A 96 
    633       617.917 DT     03B8 Rx 8  00 00 74 74 00 00 00 00 
    634       618.161 DT     0334 Rx 8  3F 3F C8 00 E2 3F 80 1E 
    635       618.408 DT     03FD Rx 8  00 00 00 42 60 01 02 80 
    636       620.290 DT     02B9 Rx 8  00 00 D8 25 2A 9A 1A 96 
    637       620.682 DT     02E1 Rx 8  10 21 04 00 00 00 26 08 
    638       620.920 DT     0103 Rx 8  11 30 00 00 96 14 11 02 
    639       626.534 DT     0129 Rx 8  B9 2F 4F 20 FF 1F FF 3F 
    640       629.661 DT     02A8 Rx 8  C2 00 00 00 00 80 50 3C 
    641       630.289 DT     020E Rx 8  99 C4 E8 62 15 02 86 54 
    642       630.459 DT     0488 Rx 4  40 00 00 CC 
    643       630.703 DT     021E Rx 8  00 00 00 00 00 00 80 AA 
    644       630.955 DT     022E Rx 8  6E 66 A0 48 41 C3 90 80 
    645       631.209 DT     023E Rx 8  28 C6 63 95 01 6E A6 3B 
    646       631.477 DT     024E Rx 8  02 80 00 04 00 00 00 00 
    647       631.740 DT     025E Rx 8  02 20 00 81 00 20 00 81 
    648       632.006 DT     026E Rx 8  0B 00 FE EF FF FE EF FF 
    649       632.272 DT     030E Rx 8  00 00 05 01 00 00 70 87 
    650       632.496 DT     031E Rx 6  01 40 AF 15 1A 1E 
    651       632.766 DT     0326 Rx 8  14 00 00 00 00 00 FF FC 
    652       632.974 DT     032E Rx 5  00 5D 30 E1 9F 
    653       633.200 DT     033E Rx 5  00 FF FF E1 20 
    654       633.407 DT     034E Rx 5  59 9E 21 0E 77 
    655       633.611 DT     035E Rx 5  28 26 27 0E E4 
    656       633.891 DT     037E Rx 8  01 04 00 00 00 00 00 00 
    657       634.127 DT     039E Rx 6  FF FF FF FF BE 0A 
    658       635.271 DT     0259 Rx 8  D3 C0 02 00 00 00 00 F0 
    659       636.546 DT     0129 Rx 8  35 20 4F 20 00 20 FF 3F 
    660       637.262 DT     0249 Rx 4  9B 00 00 00 
    661       637.804 DT     02E1 Rx 8  29 0A A3 6A 17 00 00 00 
    662       640.278 DT     03FE Rx 8  00 40 00 00 00 00 01 42 
    663       640.518 DT     0389 Rx 8  00 00 00 60 00 80 4F BB 
    664       641.032 DT     025F Rx 8  DF 8C 01 C3 44 C1 0A E0 
    665       642.187 DT     03C2 Rx 8  00 55 55 55 00 00 55 45 
    666       646.543 DT     0129 Rx 8  22 21 4F 20 00 20 FF 3F 
    667       647.829 DT     0545 Rx 8  01 00 00 00 00 10 30 8B 
    668       650.303 DT     026E Rx 8  20 00 7A 77 84 7B 17 7B 
    669       650.473 DT     0488 Rx 4  40 00 01 CD 
    670       652.903 DT     02E1 Rx 8  02 00 00 00 00 00 01 00 
    671       654.808 DT     0221 Rx 8  40 41 05 05 00 50 31 2F 
    672       655.242 DT     010A Rx 7  1E AC 52 62 61 51 01 
    673       655.460 DT     010B Rx 7  16 0C 00 00 F0 FF 0F 
    674       655.678 DT     010C Rx 7  8A FC A0 30 21 90 00 
    675       655.896 DT     010D Rx 7  D9 EC 70 71 F0 FF 0F 
    676       656.046 DT     0219 Rx 3  01 00 1C 
    677       656.176 DT     0228 Rx 2  30 5A 
    678       656.356 DT     039D Rx 5  65 5C 41 28 00 
    679       656.601 DT     07FF Rx 8  05 08 A0 40 00 00 00 00 
    680       656.835 DT     0129 Rx 8  02 22 4F 20 FF 1F FF 3F 
    681       657.068 DT     0318 Rx 8  16 03 38 0F 11 16 07 A9 
    682       657.202 DT     0418 Rx 2  32 06 
    683       657.318 DT     0128 Rx 1  00 
    684       660.290 DT     02B9 Rx 8  00 00 D8 25 2A 9A 3A B6 
    685       660.932 DT     03C3 Rx 8  00 00 00 00 00 49 00 00 
    686       665.282 DT     03FE Rx 8  00 40 00 00 00 00 10 51 
    687       665.441 DT     02D1 Rx 2  7F 01 
    688       666.551 DT     0129 Rx 8  7C 23 4F 20 00 20 FF 3F 
    689       667.775 DT     03FD Rx 8  01 00 0A 00 00 00 02 80 
    690       668.873 DT     02E1 Rx 8  03 6C 00 02 2C 45 00 00 
    691       670.273 DT     05D9 Rx 8  02 00 00 00 41 4E 7A 01 
    692       670.503 DT     020E Rx 8  99 C4 E8 62 15 02 C6 94 
    693       670.672 DT     0488 Rx 4  40 00 02 CE 
    694       670.918 DT     021E Rx 8  00 00 00 00 00 00 80 BB 
    695       671.166 DT     022E Rx 8  6E 66 A0 48 41 C3 D0 C0 
    696       671.418 DT     023E Rx 8  28 C6 63 95 01 6E B6 4B 
    697       671.670 DT     026E Rx 8  21 00 10 EA 79 2B 0A 86 
    698       676.544 DT     0129 Rx 8  FA 24 4F 20 00 20 FF 3F 
    699       681.151 DT     0545 Rx 8  02 00 0E 00 00 00 40 9A 
    700       682.335 DT     0419 Rx 1  00 
    701       684.175 DT     02E8 Rx 8  C2 00 00 00 00 80 50 7C 
    702       684.877 DT     02E1 Rx 8  FC 19 13 0A 9E 12 0A 00 
    703       686.541 DT     0129 Rx 8  ED 25 4F 20 00 20 FF 3F 
    704       686.871 DT     0249 Rx 4  E8 01 00 00 
    705       688.237 DT     027D Rx 3  01 07 87 
    706       690.296 DT     026E Rx 8  22 00 B1 D9 87 84 19 8A 
    707       690.470 DT     0488 Rx 4  40 00 03 CF 
    708       691.590 DT     03C2 Rx 8  29 55 00 00 00 00 00 00 
    709       695.246 DT     010A Rx 7  1F AD 52 62 61 51 01 
    710       695.460 DT     010B Rx 7  17 0D 00 00 F0 FF 0F 
    711       695.680 DT     010C Rx 7  8B FD A0 30 21 90 00 
    712       695.896 DT     010D Rx 7  DA ED 70 71 F0 FF 0F 
    713       696.046 DT     0219 Rx 3  02 00 1D 
    714       696.230 DT     039D Rx 5  66 5D 41 28 00 
    715       696.541 DT     0129 Rx 8  37 26 4F 20 00 20 FF 3F 
    716       699.301 DT     0420 Rx 6  28 01 40 4B 00 70 
    717       700.287 DT     02B9 Rx 8  00 00 D8 25 2A 9A 5A D6 
    718       700.681 DT     02E1 Rx 8  05 00 00 00 00 00 00 00 
    719       702.323 DT     03CB Rx 5  00 00 00 00 01 
    720       704.657 DT     0221 Rx 8  41 01 55 00 00 00 40 FA 
    721       705.281 DT     03FE Rx 8  00 40 00 00 00 00 20 61 
    722       705.701 DT     035D Rx 8  01 00 00 00 00 00 00 00 
    723       706.534 DT     0129 Rx 8  8D 27 4F 20 01 20 FF 3F 
    724       710.281 DT     020E Rx 8  99 C4 E8 62 15 02 06 D4 
    725       710.401 DT     0409 Rx 1  00 
    726       710.649 DT     021E Rx 8  00 00 00 00 00 00 80 CC 
    727       710.815 DT     0488 Rx 4  40 00 04 D0 
    728       711.045 DT     022E Rx 8  6E 66 A0 48 41 C3 10 00 
    729       711.295 DT     0720 Rx 8  00 00 00 00 00 00 00 00 
    730       711.525 DT     023E Rx 8  28 C6 63 95 01 6E C6 5B 
    731       711.785 DT     026E Rx 8  03 00 FE EF FF FE EF FF 
    732       713.647 DT     0545 Rx 8  F0 00 2C 80 A1 0B 5A EC 
    733       715.306 DT     0239 Rx 8  00 00 64 7D 7D 7D F0 F0 
    734       715.550 DT     0247 Rx 8  03 00 1B 00 00 40 FC 00 
    735       715.798 DT     024A Rx 8  00 00 01 0F 1F 00 00 00 
    736       716.552 DT     0129 Rx 8  F7 28 4F 20 00 20 FF 3F 
    737       716.788 DT     0102 Rx 8  22 33 00 00 E8 38 11 08 
    738       717.030 DT     02E1 Rx 8  10 21 04 00 00 00 26 08 
    739       717.463 DT     0448 Rx 8  00 00 00 00 00 00 00 4B 
    740       720.739 DT     0103 Rx 8  11 30 00 00 96 12 11 02 
    741       726.541 DT     0129 Rx 8  A2 29 4F 20 00 20 FF 3F 
    742       729.663 DT     02A8 Rx 8  C2 00 00 00 00 80 60 4C 
    743       730.303 DT     024E Rx 8  03 80 00 04 00 00 00 00 
    744       730.470 DT     0488 Rx 4  40 00 05 D1 
    745       730.712 DT     025E Rx 8  03 20 00 81 00 20 00 81 
    746       730.974 DT     026E Rx 8  04 00 FE EF FF FE EF FF 
    747       731.202 DT     032E Rx 5  00 5D 30 F1 AF 
    748       731.418 DT     033E Rx 5  00 FF FF F1 30 
    749       731.624 DT     034E Rx 5  59 9E 21 0F 78 
    750       731.832 DT     035E Rx 5  28 26 27 0F E5 
    751       732.064 DT     039E Rx 6  FF FF FF FF CF 0A 
    752       733.097 DT     02E1 Rx 8  29 0A A3 6A 17 00 00 00 
    753       734.313 DT     03C9 Rx 7  03 11 83 06 30 38 00 
    754       735.247 DT     010A Rx 7  20 AE 52 62 61 51 01 
    755       735.465 DT     010B Rx 7  18 0E 00 00 F0 FF 0F 
    756       735.685 DT     010C Rx 7  8C FE A0 30 21 90 00 
    757       735.905 DT     010D Rx 7  DB EE 70 71 F0 FF 0F 
    758       736.055 DT     0219 Rx 3  03 00 1E 
    759       736.295 DT     0259 Rx 8  D3 C0 02 00 00 00 10 00 
    760       736.477 DT     039D Rx 5  67 5E 41 28 00 
    761       736.716 DT     0129 Rx 8  7D 2A 4F 20 00 20 FF 3F 
    762       737.256 DT     0249 Rx 4  2A 02 00 00 
    763       740.292 DT     02B9 Rx 8  00 00 D8 25 2A 9A 7A F6 
    764       740.526 DT     025F Rx 8  DF 8C 01 C3 44 C1 0A E0 
    765       742.088 DT     03C2 Rx 8  00 55 55 55 00 00 55 45 
    766       745.280 DT     03FE Rx 8  00 40 00 00 00 00 30 71 
    767       746.564 DT     0129 Rx 8  8C 2B 4F 20 00 20 FF 3F 
    768       746.815 DT     0545 Rx 8  01 00 00 00 00 10 60 BB 
    769       748.675 DT     02E1 Rx 8  02 00 00 00 00 00 01 00 
    770       750.277 DT     020E Rx 8  99 C4 E8 62 15 02 46 14 
    771       750.443 DT     0488 Rx 4  40 00 06 D2 
    772       750.689 DT     021E Rx 8  00 00 00 00 00 00 80 DD 
    773       750.941 DT     022E Rx 8  6E 66 A0 48 41 C3 50 40 
    774       751.195 DT     023E Rx 8  28 C6 63 95 01 6E D6 6B 
    775       751.458 DT     026E Rx 8  05 00 FE EF FF FE EF FF 
    776       754.914 DT     0221 Rx 8  40 41 05 05 00 50 51 4F 
    777       755.454 DT     0405 Rx 8  12 43 33 37 39 34 34 35 
    778       755.586 DT     0228 Rx 2  40 6A 
    779       755.825 DT     07FF Rx 8  01 91 45 44 42 4C 7A 00 
    780       756.057 DT     0318 Rx 8  16 03 39 0F 11 16 09 AC 
    781       756.193 DT     0418 Rx 2  42 06 
    782       756.309 DT     0128 Rx 1  00 
    783       756.651 DT     0129 Rx 8  EC 2C 4F 20 00 20 FF 3F 
    784       761.129 DT     03C3 Rx 8  55 55 55 01 00 00 00 00 
    785       764.893 DT     02E1 Rx 8  03 6C 00 02 2C 45 00 00 
    786       765.441 DT     02D1 Rx 2  7F 01 
    787       766.541 DT     0129 Rx 8  FE 2D 4F 20 00 20 FF 3F 
    788       767.487 DT     0238 Rx 8  80 3F 14 C1 1F 00 14 01 
    789       767.681 DT     0284 Rx 5  10 00 00 00 00 
    790       770.307 DT     026E Rx 8  06 00 FE EF FF FE EF FF 
    791       770.476 DT     0488 Rx 4  40 00 07 D3 
    792       775.248 DT     010A Rx 7  21 AF 52 62 61 51 01 
    793       775.464 DT     010B Rx 7  19 0F 00 00 F0 FF 0F 
    794       775.684 DT     010C Rx 7  8D FF A0 30 21 90 00 
    795       775.902 DT     010D Rx 7  DC EF 70 71 F0 FF 0F 
    796       776.054 DT     0219 Rx 3  04 00 1F 
    797       776.236 DT     039D Rx 5  68 5F 41 28 00 
    798       776.545 DT     0129 Rx 8  21 2E 4F 20 00 20 FF 3F 
    799       779.649 DT     0545 Rx 8  02 00 0D 00 00 00 70 C9 
    800       780.291 DT     02B9 Rx 8  00 00 D8 25 2A 9A 9A 16 
    801       781.133 DT     02E1 Rx 8  FC 19 12 0A 9E 13 0A 00 
    802       782.339 DT     0419 Rx 1  00 
    803       784.167 DT     02E8 Rx 8  C2 00 00 00 00 80 60 8C 
    804       785.281 DT     03FE Rx 8  00 40 00 00 00 00 40 81 
    805       786.543 DT     0129 Rx 8  D0 2F 4F 20 00 20 FF 3F 
    806       786.868 DT     0249 Rx 4  D3 03 00 00 
    807       788.232 DT     027D Rx 3  01 08 88 
    808       788.666 DT     0321 Rx 8  F8 D9 A7 7B 02 7A 20 B3 
    809       790.278 DT     020E Rx 8  99 C4 E8 62 15 02 86 54 
    810       790.444 DT     0488 Rx 4  40 00 08 D4 
    811       790.688 DT     021E Rx 8  00 00 00 00 00 00 80 EE 
    812       790.938 DT     022E Rx 8  6E 66 A0 48 41 C3 90 80 
    813       791.190 DT     023E Rx 8  28 C6 63 95 01 6E E6 7B 
    814       791.453 DT     026E Rx 8  07 00 FE EF FF FE EF FF 
    815       792.061 DT     03C2 Rx 8  29 55 00 00 00 00 00 00 
    816       795.281 DT     05D9 Rx 8  10 03 03 00 00 00 00 00 
    817       796.545 DT     0129 Rx 8  35 20 4F 20 00 20 FF 3F 
    818       797.039 DT     02E1 Rx 8  05 00 00 00 00 00 00 00 
    819       799.299 DT     0420 Rx 6  28 01 40 4B 00 80 
    820       802.323 DT     03CB Rx 5  00 00 00 00 01 
    821       804.886 DT     0221 Rx 8  41 01 55 00 00 00 60 1A 
    822       806.542 DT     0129 Rx 8  22 21 4F 20 00 20 FF 3F 
    823       810.306 DT     026E Rx 8  08 00 FE EF FF FE EF FF 
    824       810.426 DT     0409 Rx 1  00 
    825       810.592 DT     0488 Rx 4  40 00 09 D5 
    826       810.842 DT     0720 Rx 8  00 00 00 00 00 00 00 00 
    827       812.820 DT     02E1 Rx 8  10 21 04 00 00 00 26 08 
    828       813.252 DT     0545 Rx 8  80 01 31 80 A1 0B 8A B2 
    829       815.247 DT     010A Rx 7  12 A0 52 62 61 51 01 
    830       815.471 DT     010B Rx 7  0A 00 00 00 F0 FF 0F 
    831       815.689 DT     010C Rx 7  7E F0 A0 30 21 90 00 
    832       815.909 DT     010D Rx 7  CD E0 70 71 F0 FF 0F 
    833       816.063 DT     0219 Rx 3  05 00 20 
    834       816.308 DT     0239 Rx 8  00 00 64 7D 7D 7D F0 00 
    835       816.552 DT     0247 Rx 8  03 00 1B 00 00 40 FC 00 
    836       816.788 DT     0102 Rx 8  22 33 00 00 E8 38 11 08 
    837       817.023 DT     0129 Rx 8  6B 22 4F 20 00 20 FF 3F 
    838       817.271 DT     024A Rx 8  00 00 01 0F 1F 00 00 00 
    839       817.503 DT     0353 Rx 8  7B 0F 39 80 02 0A F8 FB 
    840       817.685 DT     039D Rx 5  59 50 41 28 00 
    841       817.925 DT     02F8 Rx 8  E7 39 29 00 00 DE 00 1F 
    842       820.289 DT     02B9 Rx 8  00 00 D8 25 2A 9A BA 36 
    843       820.769 DT     0103 Rx 8  11 30 00 00 96 14 11 02 
    844       825.279 DT     03FE Rx 8  00 40 00 00 00 00 50 91 
    845       826.541 DT     0129 Rx 8  15 23 4F 20 FF 1F FF 3F 
    846       828.910 DT     02E1 Rx 8  29 0A A3 6A 17 00 00 00 
    847       829.688 DT     02A8 Rx 8  C2 00 00 00 00 80 70 5C 
    848       830.294 DT     020E Rx 8  99 C4 E8 62 15 02 C6 94 
    849       830.460 DT     0488 Rx 4  40 00 0A D6 
    850       830.708 DT     021E Rx 8  00 00 00 00 00 00 80 FF 
    851       830.959 DT     022E Rx 8  6E 66 A0 48 41 C3 D0 C0 
    852       831.113 DT     023E Rx 8  28 C6 63 95 01 6E F6 8B 
    853       831.381 DT     024E Rx 8  00 80 00 04 00 00 00 00 
    854       831.645 DT     025E Rx 8  00 20 00 81 00 20 00 81 
    855       831.905 DT     026E Rx 8  09 00 FE EF FF FE EF FF 
    856       832.115 DT     032E Rx 5  00 5D 30 01 BF 
    857       832.331 DT     033E Rx 5  00 FF FF 01 40 
    858       832.538 DT     034E Rx 5  59 9E 21 00 69 
    859       832.744 DT     035E Rx 5  28 26 27 00 D6 
    860       832.976 DT     039E Rx 6  FF FF FF FF D0 09 
    861       835.174 DT     0259 Rx 8  D3 C0 02 00 00 00 20 10 
    862       836.440 DT     0129 Rx 8  FA 24 4F 20 00 20 FF 3F 
    863       837.171 DT     0249 Rx 4  D3 04 00 00 
    864       840.701 DT     025F Rx 8  DF 8C 01 C3 44 C1 0A E0 
    865       842.095 DT     03C2 Rx 8  00 55 55 55 00 00 55 45 
    866       844.565 DT     02E1 Rx 8  02 00 00 00 00 00 01 00 
    867       845.167 DT     03FC Rx 7  AE 00 00 00 00 00 00 
    868       846.399 DT     0545 Rx 8  01 00 00 00 00 10 90 EB 
    869       846.634 DT     0129 Rx 8  84 25 4F 20 FF 1F FF 3F 
    870       850.204 DT     026E Rx 8  0A 00 FE EF FF FE EF FF 
    871       850.372 DT     0488 Rx 4  40 00 0B D7 
    872       854.810 DT     0221 Rx 8  40 41 05 05 00 50 71 6F 
    873       855.146 DT     010A Rx 7  13 A1 52 62 61 51 01 
    874       855.364 DT     010B Rx 7  0B 01 00 00 F0 FF 0F 
    875       855.586 DT     010C Rx 7  7F F1 A0 30 21 90 00 
    876       855.802 DT     010D Rx 7  CE E1 70 71 F0 FF 0F 
    877       855.955 DT     0219 Rx 3  06 00 21 
    878       856.087 DT     0228 Rx 2  50 7A 
    879       856.267 DT     039D Rx 5  5A 51 41 28 00 
    880       856.499 DT     07FF Rx 8  02 5F 4E AC DE CD D6 30 
    881       856.735 DT     0129 Rx 8  37 26 4F 20 00 20 FF 3F 
    882       856.965 DT     0318 Rx 8  16 03 39 0F 11 16 0B AE 
    883       857.099 DT     0418 Rx 2  52 06 
    884       857.216 DT     0128 Rx 1  00 
    885       860.194 DT     02B9 Rx 8  00 00 D8 25 2A 9A DA 56 
    886       860.568 DT     02E1 Rx 8  03 6C 00 02 2C 45 00 00 
    887       860.820 DT     03C3 Rx 8  00 00 00 00 00 49 00 00 
    888       865.182 DT     03FE Rx 8  00 40 00 00 00 00 60 A1 
    889       865.344 DT     02D1 Rx 2  7F 01 
    890       866.430 DT     0129 Rx 8  8D 27 4F 20 01 20 FF 3F 
    891       867.023 DT     03DC Rx 8  40 73 93 0A 00 00 00 00 
    892       867.271 DT     03D9 Rx 8  02 00 00 90 00 00 00 00 
    893       867.501 DT     02D3 Rx 8  F6 00 A3 02 12 F0 0B 54 
    894       870.180 DT     020E Rx 8  99 C4 E8 52 15 02 06 C4 
    895       870.348 DT     0488 Rx 4  40 00 0C D8 
    896       870.598 DT     021E Rx 8  00 00 00 00 00 00 80 00 
    897       870.848 DT     022E Rx 8  6E 66 A0 48 41 C3 10 00 
    898       871.103 DT     023E Rx 8  28 C6 63 95 01 6E 06 9B 
    899       871.365 DT     026E Rx 8  0B 00 FE EF FF FE EF FF 
    900       876.441 DT     0129 Rx 8  F7 28 4F 20 00 20 FF 3F 
    901       877.389 DT     02E1 Rx 8  FC 19 11 0A 9E 14 0A 00 
    902       878.569 DT     0545 Rx 8  02 00 0D 00 00 00 A0 F9 
    903       880.175 DT     030E Rx 8  00 00 05 01 00 00 80 97 
    904       882.250 DT     0419 Rx 1  00 
    905       884.080 DT     02E8 Rx 8  C2 00 00 00 00 80 70 9C 
    906       886.440 DT     0129 Rx 8  A2 29 4F 20 00 20 FF 3F 
    907       886.766 DT     0249 Rx 4  83 05 00 00 
    908       888.134 DT     027D Rx 3  01 09 89 
    909       890.200 DT     026E Rx 8  20 00 7A 77 84 7B 17 7B 
    910       890.366 DT     0488 Rx 4  40 00 0D D9 
    911       891.505 DT     03C2 Rx 8  29 55 00 00 00 00 00 00 
    912       892.597 DT     02E1 Rx 8  05 00 00 00 00 00 00 00 
    913       895.147 DT     010A Rx 7  14 A2 52 62 61 51 01 
    914       895.365 DT     010B Rx 7  0C 02 00 00 F0 FF 0F 
    915       895.585 DT     010C Rx 7  80 F2 A0 30 21 90 00 
    916       895.805 DT     010D Rx 7  CF E2 70 71 F0 FF 0F 
    917       895.957 DT     0219 Rx 3  07 00 22 
    918       896.139 DT     039D Rx 5  5B 52 41 28 00 
    919       896.443 DT     0129 Rx 8  7D 2A 4F 20 00 20 FF 3F 
    920       899.201 DT     0420 Rx 6  28 01 40 4B 00 90 
    921       900.192 DT     02B9 Rx 8  00 00 D8 25 2A 9A FA 76 
    922       902.226 DT     03CB Rx 5  00 00 00 00 01 
    923       904.798 DT     0221 Rx 8  41 01 55 00 00 00 80 3A 
    924       905.180 DT     03FE Rx 8  00 40 00 00 00 00 70 B1 
    925       906.432 DT     0129 Rx 8  E5 2B 4F 20 FF 1F FF 3F 
    926       908.572 DT     02E1 Rx 8  10 21 04 00 00 00 26 08 
    927       910.184 DT     020E Rx 8  99 C4 E8 52 15 02 46 04 
    928       910.304 DT     0409 Rx 1  00 
    929       910.551 DT     021E Rx 8  00 00 00 00 00 00 80 11 
    930       910.799 DT     0425 Rx 8  00 00 00 00 00 00 00 00 
    931       911.031 DT     022E Rx 8  6E 66 A0 48 41 C3 50 40 
    932       911.197 DT     0488 Rx 4  40 00 0E DA 
    933       911.427 DT     023E Rx 8  28 C6 63 95 01 6E 16 AB 
    934       911.677 DT     0720 Rx 8  00 00 00 00 00 00 00 00 
    935       911.907 DT     026E Rx 8  21 00 0F EA 79 2B 0A 86 
    936       912.135 DT     0545 Rx 8  40 01 31 80 A1 0B BA A2 
    937       915.249 DT     0239 Rx 8  00 00 64 7D 7D 7D F0 10 
    938       915.493 DT     0247 Rx 8  03 00 1B 00 00 40 FC 00 
    939       915.742 DT     024A Rx 8  00 00 01 0F 1F 00 00 00 
    940       915.952 DT     025D Rx 6  00 00 FF 00 00 00 
    941       916.196 DT     03FA Rx 8  01 01 02 02 04 02 05 FF 
    942       916.330 DT     0410 Rx 2  45 00 
    943       916.566 DT     0102 Rx 8  22 33 00 00 E8 38 11 08 
    944       916.800 DT     0129 Rx 8  EC 2C 4F 20 00 20 FF 3F 
    945       917.396 DT     03DF Rx 5  00 00 04 00 01 
    946       917.625 DT     0293 Rx 8  01 0C 55 91 55 15 D4 C6 
    947       920.183 DT     05D9 Rx 8  01 00 00 00 00 08 00 00 
    948       920.645 DT     0103 Rx 8  11 30 00 00 96 12 11 02 
    949       924.800 DT     02E1 Rx 8  29 0A A3 6A 17 00 00 00 
    950       926.438 DT     0129 Rx 8  FE 2D 4F 20 00 20 FF 3F 
    951       929.597 DT     02A8 Rx 8  C2 00 00 00 00 80 80 6C 
    952       930.209 DT     024E Rx 8  01 80 00 04 00 00 00 00 
    953       930.377 DT     0488 Rx 4  40 00 0F DB 
    954       930.621 DT     025E Rx 8  01 20 00 81 00 20 00 81 
    955       930.873 DT     026E Rx 8  22 00 B1 D9 87 84 19 8A 
    956       931.103 DT     032E Rx 5  00 5D 30 11 CF 
    957       931.315 DT     033E Rx 5  00 FF FF 11 50 
    958       931.524 DT     034E Rx 5  59 9E 21 01 6A 
    959       931.732 DT     035E Rx 5  28 26 27 01 D7 
    960       931.968 DT     039E Rx 6  FF FF FF FF E1 09 
    961       935.150 DT     010A Rx 7  15 A3 52 62 61 51 01 
    962       935.366 DT     010B Rx 7  0D 03 00 00 F0 FF 0F 
    963       935.586 DT     010C Rx 7  81 F3 A0 30 21 90 00 
    964       935.802 DT     010D Rx 7  D0 E3 70 71 F0 FF 0F 
    965       935.952 DT     0219 Rx 3  08 00 23 
    966       936.193 DT     0259 Rx 8  D3 C0 02 00 00 00 30 20 
    967       936.373 DT     039D Rx 5  5C 53 41 28 00 
    968       936.611 DT     0129 Rx 8  21 2E 4F 20 00 20 FF 3F 
    969       937.155 DT     0249 Rx 4  4C 06 00 00 
    970       940.195 DT     02B9 Rx 8  00 00 D8 25 2A 9A 1A 96 
    971       940.429 DT     025F Rx 8  DF 8C 01 C3 44 C1 0A E0 
    972       940.985 DT     02E1 Rx 8  02 00 00 00 00 00 01 00 
    973       941.683 DT     03C2 Rx 8  00 55 55 55 00 00 55 45 
    974       944.564 DT     0545 Rx 8  01 00 00 00 00 10 C0 1B 
    975       945.186 DT     03FE Rx 8  00 40 00 00 00 00 80 C1 
    976       946.522 DT     0129 Rx 8  D0 2F 4F 20 00 20 FF 3F 
    977       950.178 DT     020E Rx 8  99 C4 E8 52 15 02 86 44 
    978       950.348 DT     0488 Rx 4  40 00 00 CC 
    979       950.592 DT     021E Rx 8  00 00 00 00 00 00 80 22 
    980       950.842 DT     022E Rx 8  6E 66 A0 48 41 C3 90 80 
    981       951.094 DT     023E Rx 8  28 C6 63 95 01 6E 26 BB 
    982       951.355 DT     026E Rx 8  03 00 FE EF FF FE EF FF 
    983       954.817 DT     0221 Rx 8  40 41 05 05 00 50 91 8F 
    984       955.077 DT     0228 Rx 2  60 8A 
    985       955.313 DT     07FF Rx 8  03 31 08 A1 E0 42 16 41 
    986       955.545 DT     0318 Rx 8  16 03 39 0F 11 16 0D B0 
    987       955.680 DT     0418 Rx 2  62 06 
    988       955.796 DT     0128 Rx 1  00 
    989       956.534 DT     0129 Rx 8  35 20 4F 20 00 20 FF 3F 
    990       956.772 DT     02E1 Rx 8  03 6C 00 02 2C 45 00 00 
    991       961.052 DT     03C3 Rx 8  55 55 55 01 00 00 00 00 
    992       965.183 DT     03FE Rx 8  00 40 00 00 00 00 91 D2 
    993       965.347 DT     02D1 Rx 2  7F 01 
    994       966.437 DT     0129 Rx 8  22 21 4F 20 00 20 FF 3F 
    995       970.205 DT     026E Rx 8  04 00 FE EF FF FE EF FF 
    996       970.375 DT     0488 Rx 4  40 00 01 CD 
    997       972.797 DT     02E1 Rx 8  FC 19 14 0A 9E 16 0A 00 
    998       975.147 DT     010A Rx 7  16 A4 52 62 61 51 01 
    999       975.365 DT     010B Rx 7  0E 04 00 00 F0 FF 0F 
   1000       975.585 DT     010C Rx 7  82 F4 A0 30 21 90 00 
   1001       975.805 DT     010D Rx 7  D1 E4 70 71 F0 FF 0F 
   1002       975.953 DT     0219 Rx 3  09 00 24 
   1003       976.133 DT     039D Rx 5  5D 54 41 28 00 
   1004       976.435 DT     0129 Rx 8  6B 22 4F 20 00 20 FF 3F 
   1005       978.039 DT     0545 Rx 8  02 00 0B 00 00 00 D0 27 
   1006       980.193 DT     02B9 Rx 8  00 00 D8 25 2A 9A 3A B6 
   1007       982.243 DT     0419 Rx 1  00 
   1008       984.088 DT     02E8 Rx 8  C2 00 00 00 00 80 80 AC 
   1009       985.186 DT     03CA Rx 8  00 00 00 00 00 00 00 06 
   1010       986.446 DT     0129 Rx 8  7C 23 4F 20 00 20 FF 3F 
   1011       986.774 DT     0249 Rx 4  5E 07 00 00 
   1012       988.136 DT     027D Rx 3  01 0A 8A 
   1013       989.012 DT     02E1 Rx 8  05 00 00 00 00 00 00 00 
   1014       990.176 DT     020E Rx 8  99 C4 E8 52 15 02 C6 84 
   1015       990.344 DT     0488 Rx 4  40 00 02 CE 
   1016       990.589 DT     021E Rx 8  00 00 00 00 00 00 80 33 
   1017       990.837 DT     022E Rx 8  6E 66 A0 48 41 C3 D0 C0 
   1018       991.091 DT     023E Rx 8  28 C6 63 95 01 6E 36 CB 
   1019       991.353 DT     026E Rx 8  05 00 FE EF FF FE EF FF 
   1020       991.975 DT     03C2 Rx 8  29 55 00 00 00 00 00 00 
   1021       996.438 DT     0129 Rx 8  FA 24 4F 20 00 20 FF 3F 
   1022       999.206 DT     0420 Rx 6  28 01 40 4B 00 A0 
   1023      1000.172 DT     0399 Rx 8  F0 20 C0 E0 B0 C8 A7 6B 
   1024      1000.320 DT     0413 Rx 3  4B 49 49 
   1025      1002.228 DT     03CB Rx 5  00 00 00 00 01 
   1026      1004.572 DT     02E1 Rx 8  10 21 04 00 00 00 26 08 
   1027      1004.810 DT     0221 Rx 8  41 01 55 00 00 00 A0 5A 
   1028      1005.181 DT     03FE Rx 8  00 40 00 00 00 00 A1 E2 
   1029      1005.421 DT     0405 Rx 8  10 00 00 00 00 4C 52 57 
   1030      1006.483 DT     0129 Rx 8  ED 25 4F 20 00 20 FF 3F 
   1031      1010.205 DT     026E Rx 8  06 00 FE EF FF FE EF FF 
   1032      1010.325 DT     0409 Rx 1  00 
   1033      1010.441 DT     0415 Rx 1  43 
   1034      1010.615 DT     0488 Rx 4  40 00 03 CF 
   1035      1010.843 DT     0545 Rx 8  D0 01 31 B0 A1 0A EA 91 
   1036      1011.093 DT     0720 Rx 8  00 00 00 00 00 00 00 00 
   1037      1015.147 DT     010A Rx 7  17 A5 52 62 61 51 01 
   1038      1015.368 DT     010B Rx 7  0F 05 00 00 F0 FF 0F 
   1039      1015.588 DT     010C Rx 7  83 F5 A0 30 21 90 00 
   1040      1015.806 DT     010D Rx 7  D2 E5 70 71 F0 FF 0F 
   1041      1015.958 DT     0219 Rx 3  0A 00 25 
   1042      1016.202 DT     0239 Rx 8  00 00 64 7D 7D 7D F0 20 
   1043      1016.446 DT     0247 Rx 8  03 00 1B 00 00 40 FC 00 
   1044      1016.682 DT     0102 Rx 8  22 33 00 00 E8 38 11 08 
   1045      1016.919 DT     0129 Rx 8  37 26 4F 20 00 20 FF 3F 
   1046      1017.167 DT     024A Rx 8  00 00 01 0F 1F 00 00 00 
   1047      1017.349 DT     039D Rx 5  5E 55 41 28 00 
   1048      1020.197 DT     02B9 Rx 8  00 00 D8 25 2A 9A 5A D6 
   1049      1020.659 DT     0103 Rx 8  11 30 00 00 96 12 11 02 
   1050      1021.055 DT     02E1 Rx 8  29 0A A3 6A 17 00 00 00 
   1051      1026.441 DT     0129 Rx 8  20 27 4F 20 00 20 FF 3F 
   1052      1029.583 DT     02A8 Rx 8  C2 00 00 00 00 80 90 7C 
   1053      1030.189 DT     020E Rx 8  99 C4 E8 4A 15 02 06 BC 
   1054      1030.355 DT     0488 Rx 4  40 00 04 D0 
   1055      1030.601 DT     021E Rx 8  00 00 00 00 00 00 80 44 
   1056      1030.857 DT     022E Rx 8  6E 66 A0 48 41 C3 10 00 
   1057      1031.109 DT     023E Rx 8  28 C6 63 95 01 6E 46 DB 
   1058      1031.377 DT     024E Rx 8  02 80 00 04 00 00 00 00 
   1059      1031.640 DT     025E Rx 8  02 20 00 81 00 20 00 81 
   1060      1031.902 DT     026E Rx 8  07 00 FE EF FF FE EF FF 
   1061      1032.110 DT     032E Rx 5  00 5D 30 21 DF 
   1062      1032.326 DT     033E Rx 5  00 FF FF 21 60 
   1063      1032.530 DT     034E Rx 5  59 9E 21 02 6B 
   1064      1032.736 DT     035E Rx 5  28 26 27 02 D8 
   1065      1032.972 DT     039E Rx 6  FF FF FF FF F2 09 
   1066      1035.181 DT     0259 Rx 8  D3 C0 02 00 00 00 40 30 
   1067      1035.625 DT     035D Rx 8  02 00 00 00 00 C1 07 00 
   1068      1036.439 DT     0129 Rx 8  F7 28 4F 20 00 20 FF 3F 
   1069      1036.691 DT     02E1 Rx 8  02 00 00 00 00 00 01 00 
   1070      1037.163 DT     0249 Rx 4  3F 08 00 00 
   1071      1040.705 DT     025F Rx 8  DF 8C 01 C3 44 C1 0A E0 
   1072      1041.858 DT     03C2 Rx 8  00 55 55 55 00 00 55 45 
   1073      1043.816 DT     0545 Rx 8  01 00 00 00 00 10 F0 4B 
   1074      1045.186 DT     03FE Rx 8  00 40 00 00 00 00 B1 F2 
   1075      1045.432 DT     05D9 Rx 8  03 00 FF 00 00 00 00 00 
   1076      1046.648 DT     0129 Rx 8  A2 29 4F 20 00 20 FF 3F 
   1077      1050.204 DT     026E Rx 8  08 00 FE EF FF FE EF FF 
   1078      1050.370 DT     0488 Rx 4  40 00 05 D1 
   1079      1052.556 DT     02E1 Rx 8  03 6C 00 02 2C 45 00 00 
   1080      1054.823 DT     0221 Rx 8  40 41 05 05 00 50 B1 AF 
   1081      1055.151 DT     010A Rx 7  18 A6 52 62 61 51 01 
   1082      1055.367 DT     010B Rx 7  10 06 00 00 F0 FF 0F 
   1083      1055.583 DT     010C Rx 7  84 F6 A0 30 21 90 00 
   1084      1055.801 DT     010D Rx 7  D3 E6 70 71 F0 FF 0F 
   1085      1055.949 DT     0219 Rx 3  0B 00 26 
   1086      1056.077 DT     0228 Rx 2  70 9A 
   1087      1056.259 DT     039D Rx 5  5F 56 41 28 00 
   1088      1056.489 DT     07FF Rx 8  04 CC 16 54 61 12 B4 2A 
   1089      1056.724 DT     0129 Rx 8  14 2A 4F 20 FF 1F FF 3F 
   1090      1056.958 DT     0318 Rx 8  16 03 39 0F 11 16 0F B2 
   1091      1057.092 DT     0418 Rx 2  72 06 
   1092      1057.208 DT     0128 Rx 1  00 
   1093      1060.198 DT     02B9 Rx 8  00 00 D8 25 2A 9A 7A F6 
   1094      1061.320 DT     03C3 Rx 8  00 00 00 00 00 49 00 00 
   1095      1065.345 DT     02D1 Rx 2  7F 01 
   1096      1066.441 DT     0129 Rx 8  8C 2B 4F 20 00 20 FF 3F 
   1097      1068.957 DT     02E1 Rx 8  FC 19 14 2A 9E 13 0A 00 
   1098      1070.179 DT     020E Rx 8  99 C4 E8 4A 15 02 46 FC 
   1099      1070.345 DT     0488 Rx 4  40 00 06 D2 
   1100      1070.591 DT     021E Rx 8  00 00 00 00 00 00 80 55 
   1101      1070.844 DT     022E Rx 8  6E 66 A0 48 41 C3 50 40 
   1102      1071.096 DT     023E Rx 8  28 C6 63 95 01 6E 56 EB 
   1103      1071.394 DT     026E Rx 8  09 00 FE EF FF FE EF FF 
   1104      1076.434 DT     0129 Rx 8  EC 2C 4F 20 00 20 FF 3F 
   1105      1077.620 DT     0545 Rx 8  02 00 0A 00 00 00 00 56 
   1106      1082.243 DT     0419 Rx 1  00 
   1107      1084.079 DT     02E8 Rx 8  C2 00 00 00 00 80 90 BC 
   1108      1084.582 DT     02E1 Rx 8  05 00 00 00 00 00 00 00 
   1109      1085.186 DT     03FE Rx 8  00 40 00 00 00 00 C1 02 
   1110      1086.438 DT     0129 Rx 8  FE 2D 4F 20 00 20 FF 3F 
   1111      1086.774 DT     0249 Rx 4  5E 09 00 00 
   1112      1088.138 DT     027D Rx 3  01 0B 8B 
   1113      1090.202 DT     026E Rx 8  0A 00 FE EF FF FE EF FF 
   1114      1090.370 DT     0488 Rx 4  40 00 07 D3 
   1115      1091.505 DT     03C2 Rx 8  29 55 00 00 00 00 00 00 
   1116      1095.151 DT     010A Rx 7  19 A7 52 62 61 51 01 
   1117      1095.369 DT     010B Rx 7  11 07 00 00 F0 FF 0F 
   1118      1095.589 DT     010C Rx 7  85 F7 A0 30 21 90 00 
   1119      1095.805 DT     010D Rx 7  D4 E7 70 71 F0 FF 0F 
   1120      1095.953 DT     0219 Rx 3  0C 00 27 
   1121      1096.135 DT     039D Rx 5  60 57 41 28 00 
   1122      1096.441 DT     0129 Rx 8  21 2E 4F 20 00 20 FF 3F 
   1123      1099.202 DT     0420 Rx 6  28 01 40 4B 00 B0 
   1124      1100.196 DT     02B9 Rx 8  00 00 D8 25 2A 9A 9A 16 
   1125      1100.970 DT     02E1 Rx 8  10 21 04 00 00 00 26 08 
   1126      1102.228 DT     03CB Rx 5  00 00 00 00 01 
   1127      1104.816 DT     0221 Rx 8  41 01 55 00 00 00 C0 7A 
   1128      1106.442 DT     0129 Rx 8  D0 2F 4F 20 00 20 FF 3F 
   1129      1109.553 DT     0545 Rx 8  D0 01 31 F0 A1 0D 1A 04 
   1130      1110.177 DT     020E Rx 8  99 C4 E8 4A 15 02 86 3C 
   1131      1110.297 DT     0409 Rx 1  00 
   1132      1110.541 DT     021E Rx 8  00 00 00 00 00 00 80 66 
   1133      1110.707 DT     0488 Rx 4  40 00 08 D4 
   1134      1110.937 DT     022E Rx 8  6E 66 A0 48 41 C3 90 80 
   1135      1111.187 DT     0720 Rx 8  00 00 00 00 00 00 00 00 
   1136      1111.421 DT     023E Rx 8  28 C6 63 95 01 6E 66 FB 
   1137      1111.684 DT     026E Rx 8  0B 00 FE EF FF FE EF FF 
   1138      1115.204 DT     0239 Rx 8  00 00 64 7D 7D 7D F0 30 
   1139      1115.448 DT     0247 Rx 8  03 00 1B 00 00 40 FC 00 
   1140      1115.696 DT     024A Rx 8  00 00 01 0F 1F 00 00 00 
   1141      1116.440 DT     0129 Rx 8  35 20 4F 20 00 20 FF 3F 
   1142      1116.676 DT     0102 Rx 8  22 33 00 00 E8 38 11 08 
   1143      1116.912 DT     02E1 Rx 8  29 0A A3 6A 17 00 00 00 
   1144      1117.150 DT     0334 Rx 8  3F 3F C8 00 E2 3F 90 2E 
   1145      1120.671 DT     0103 Rx 8  11 30 00 00 96 14 11 02 
   1146      1125.183 DT     03FE Rx 8  00 40 00 00 00 00 D1 12 
   1147      1126.431 DT     0129 Rx 8  8F 21 4F 20 01 20 FF 3F 
   1148      1129.591 DT     02A8 Rx 8  C2 00 00 00 00 80 A0 8C 
   1149      1130.201 DT     024E Rx 8  03 80 00 04 00 00 00 00 
   1150      1130.367 DT     0488 Rx 4  40 00 09 D5 
   1151      1130.609 DT     025E Rx 8  03 20 00 81 00 20 00 81 
   1152      1130.860 DT     026E Rx 8  20 00 7A 77 84 7B 17 7B 
   1153      1131.154 DT     030E Rx 8  00 00 05 01 00 00 90 A7 
   1154      1131.380 DT     031E Rx 6  01 50 BF 15 1A 1E 
   1155      1131.588 DT     032E Rx 5  00 5D 30 31 EF 
   1156      1131.800 DT     033E Rx 5  00 FF FF 31 70 
   1157      1132.006 DT     034E Rx 5  59 9E 21 03 6C 
   1158      1132.215 DT     035E Rx 5  28 26 27 03 D9 
   1159      1132.449 DT     039E Rx 6  FF FF FF FF 03 0A 
   1160      1132.785 DT     02E1 Rx 8  02 00 00 00 00 00 01 00 
   1161      1135.151 DT     010A Rx 7  1A A8 52 62 61 51 01 
   1162      1135.372 DT     010B Rx 7  12 08 00 00 F0 FF 0F 
   1163      1135.595 DT     010C Rx 7  86 F8 A0 30 21 90 00 
   1164      1135.813 DT     010D Rx 7  D5 E8 70 71 F0 FF 0F 
   1165      1135.961 DT     0219 Rx 3  0D 00 28 
   1166      1136.201 DT     0259 Rx 8  D3 C0 02 00 00 00 50 40 
   1167      1136.381 DT     039D Rx 5  61 58 41 28 00 
   1168      1136.615 DT     0129 Rx 8  6B 22 4F 20 00 20 FF 3F 
   1169      1137.139 DT     0249 Rx 4  E2 0A 00 00 
   1170      1140.199 DT     02B9 Rx 8  00 00 D8 25 2A 9A BA 36 
   1171      1140.440 DT     0389 Rx 8  00 00 00 60 00 80 5F CB 
   1172      1141.600 DT     03C2 Rx 8  00 55 55 55 00 00 55 45 
   1173      1142.932 DT     0545 Rx 8  01 00 00 00 00 10 20 7B 
   1174      1143.554 DT     025F Rx 8  DF 8C 01 C3 44 C1 0A E0 
   1175      1146.636 DT     0129 Rx 8  7C 23 4F 20 00 20 FF 3F 
   1176      1148.581 DT     02E1 Rx 8  03 6C 00 02 2C 45 00 00 
   1177      1150.185 DT     05D9 Rx 8  24 07 00 00 00 00 F0 1F 
   1178      1150.413 DT     020E Rx 8  99 C4 E8 4A 15 02 C6 7C 
   1179      1150.579 DT     0488 Rx 4  40 00 0A D6 
   1180      1150.823 DT     021E Rx 8  00 00 00 00 00 00 80 77 
   1181      1151.071 DT     022E Rx 8  6E 66 A0 48 41 C3 D0 C0 
   1182      1151.326 DT     023E Rx 8  28 C6 63 95 01 6E 76 0B 
   1183      1151.578 DT     026E Rx 8  21 00 0F EA 79 2B 0A 86 
   1184      1154.706 DT     0221 Rx 8  40 41 05 05 00 50 D1 CF 
   1185      1155.082 DT     0228 Rx 2  80 AA 
   1186      1155.328 DT     07FF Rx 8  05 08 A0 40 00 00 00 00 
   1187      1155.558 DT     0318 Rx 8  16 03 39 0F 11 16 11 B4 
   1188      1155.701 DT     0418 Rx 2  82 06 
   1189      1155.817 DT     0128 Rx 1  00 
   1190      1156.541 DT     0129 Rx 8  FA 24 4F 20 00 20 FF 3F 
   1191      1160.677 DT     03C3 Rx 8  55 55 55 01 00 00 00 00 
   1192      1164.790 DT     02E1 Rx 8  FC 19 16 3A 9E 19 0A 00 
   1193      1165.184 DT     03FE Rx 8  00 40 00 00 00 00 E1 22 
   1194      1165.358 DT     02D1 Rx 2  7F 01 
   1195      1166.428 DT     0129 Rx 8  84 25 4F 20 FF 1F FF 3F 
   1196      1170.200 DT     026E Rx 8  22 00 B1 D9 87 84 19 8A 
   1197      1170.368 DT     0488 Rx 4  40 00 0B D7 
   1198      1175.154 DT     010A Rx 7  1B A9 52 62 61 51 01 
   1199      1175.368 DT     010B Rx 7  13 09 00 00 F0 FF 0F 
   1200      1175.586 DT     010C Rx 7  87 F9 A0 30 21 90 00 
   1201      1175.807 DT     010D Rx 7  D6 E9 70 71 F0 FF 0F 
   1202      1175.955 DT     0219 Rx 3  0E 00 29 
   1203      1176.135 DT     039D Rx 5  62 59 41 28 00 
   1204      1176.373 DT     0545 Rx 8  02 00 09 00 00 00 30 85 
   1205      1176.607 DT     0129 Rx 8  9A 26 4F 20 01 20 FF 3F 
   1206      1180.199 DT     02B9 Rx 8  00 00 D8 25 2A 9A DA 56 
   1207      1180.591 DT     02E1 Rx 8  05 00 00 00 00 00 00 00 
   1208      1182.245 DT     0419 Rx 1  00 
   1209      1184.086 DT     02E8 Rx 8  C2 00 00 00 00 80 A0 CC 
   1210      1186.428 DT     0129 Rx 8  8D 27 4F 20 01 20 FF 3F 
   1211      1186.758 DT     0249 Rx 4  28 0B 00 00 
   1212      1188.138 DT     027D Rx 3  01 0C 8C 
   1213      1190.179 DT     020E Rx 8  99 C4 E8 52 15 02 06 C4 
   1214      1190.347 DT     0488 Rx 4  40 00 0C D8 
   1215      1190.591 DT     021E Rx 8  00 00 00 00 00 00 80 88 
   1216      1190.841 DT     022E Rx 8  6E 66 A0 48 41 C3 10 00 
   1217      1191.094 DT     023E Rx 8  28 C6 63 95 01 6E 86 1B 
   1218      1191.382 DT     026E Rx 8  03 00 FE EF FF FE EF FF 
   1219      1191.990 DT     03C2 Rx 8  29 55 00 00 00 00 00 00 
   1220      1196.430 DT     0129 Rx 8  9E 28 4F 20 FF 1F FF 3F 
   1221      1196.680 DT     02E1 Rx 8  10 21 04 00 00 00 26 08 
   1222      1199.206 DT     0420 Rx 6  28 01 40 4B 00 C0 
   1223      1202.230 DT     03CB Rx 5  00 00 00 00 01 
   1224      1204.801 DT     0221 Rx 8  41 01 55 00 00 00 E0 9A 
   1225      1205.187 DT     03FE Rx 8  00 40 00 00 00 00 F1 32 
   1226      1206.437 DT     0129 Rx 8  A2 29 4F 20 00 20 FF 3F 
   1227      1208.559 DT     0545 Rx 8  40 01 31 90 A1 08 4A 3F 
   1228      1210.203 DT     026E Rx 8  04 00 FE EF FF FE EF FF 
   1229      1210.324 DT     0409 Rx 1  00 
   1230      1210.490 DT     0488 Rx 4  40 00 0D D9 
   1231      1210.740 DT     0720 Rx 8  00 00 00 00 00 00 00 00 
   1232      1213.412 DT     02E1 Rx 8  29 0A A3 6A 17 00 00 00 
   1233      1215.156 DT     010A Rx 7  1C AA 52 62 61 51 01 
   1234      1215.372 DT     010B Rx 7  14 0A 00 00 F0 FF 0F 
   1235      1215.592 DT     010C Rx 7  88 FA A0 30 21 90 00 
   1236      1215.810 DT     010D Rx 7  D7 EA 70 71 F0 FF 0F 
   1237      1215.963 DT     0219 Rx 3  0F 00 2A 
   1238      1216.209 DT     0239 Rx 8  00 00 64 7D 7D 7D F0 40 
   1239      1216.453 DT     0247 Rx 8  03 00 1B 00 00 40 FC 00 
   1240      1216.689 DT     0102 Rx 8  22 33 00 00 E8 38 11 08 
   1241      1216.927 DT     0129 Rx 8  7D 2A 4F 20 00 20 FF 3F 
   1242      1217.175 DT     024A Rx 8  00 00 01 0F 1F 00 00 00 
   1243      1217.355 DT     039D Rx 5  63 5A 41 28 00 
   1244      1220.201 DT     02B9 Rx 8  00 00 D8 25 2A 9A FA 76 
   1245      1220.668 DT     0103 Rx 8  11 30 00 00 96 12 11 02 
   1246      1226.426 DT     0129 Rx 8  E5 2B 4F 20 FF 1F FF 3F 
   1247      1228.586 DT     02E1 Rx 8  02 00 00 00 00 00 01 00 
   1248      1229.602 DT     02A8 Rx 8  C2 00 00 00 00 80 B0 9C 
   1249      1230.192 DT     020E Rx 8  99 C4 E8 52 15 02 46 04 
   1250      1230.359 DT     0488 Rx 4  40 00 0E DA 
   1251      1230.605 DT     021E Rx 8  00 00 00 00 00 00 80 99 
   1252      1230.859 DT     022E Rx 8  6E 66 A0 48 41 C3 50 40 
   1253      1231.135 DT     023E Rx 8  28 C6 63 95 01 6E 96 2B 
   1254      1231.403 DT     024E Rx 8  00 80 00 04 00 00 00 00 
   1255      1231.667 DT     025E Rx 8  00 20 00 81 00 20 00 81 
   1256      1231.930 DT     026E Rx 8  05 00 FE EF FF FE EF FF 
   1257      1232.148 DT     032E Rx 5  00 5D 30 41 FF 
   1258      1232.366 DT     033E Rx 5  00 FF FF 41 80 
   1259      1232.570 DT     034E Rx 5  59 9E 21 04 6D 
   1260      1232.776 DT     035E Rx 5  28 26 27 04 DA 
   1261      1233.010 DT     039E Rx 6  FF FF FF FF 14 0A 
   1262      1234.221 DT     03C9 Rx 7  03 11 C3 06 30 38 00 
   1263      1235.181 DT     0259 Rx 8  D3 C0 02 00 00 00 60 50 
   1264      1236.427 DT     0129 Rx 8  85 2C 4F 20 FF 1F FF 3F 
   1265      1237.155 DT     0249 Rx 4  3A 0C 00 00 
   1266      1241.703 DT     03C2 Rx 8  00 55 55 55 00 00 55 45 
   1267      1242.470 DT     025F Rx 8  DF 8C 01 C3 44 C1 0A E0 
   1268      1242.721 DT     0545 Rx 8  01 00 00 00 00 10 50 AB 
   1269      1244.585 DT     02E1 Rx 8  03 6C 00 02 2C 45 00 00 
   1270      1245.189 DT     03FE Rx 8  00 40 00 00 00 00 01 42 
   1271      1246.435 DT     0129 Rx 8  FE 2D 4F 20 00 20 FF 3F 
   1272      1250.203 DT     026E Rx 8  06 00 FE EF FF FE EF FF 
   1273      1250.371 DT     0488 Rx 4  40 00 0F DB 
   1274      1254.953 DT     0221 Rx 8  40 41 05 05 00 50 F1 EF 
   1275      1255.164 DT     010A Rx 7  1D AB 52 62 61 51 01 
   1276      1255.380 DT     010B Rx 7  15 0B 00 00 F0 FF 0F 
   1277      1255.602 DT     010C Rx 7  89 FB A0 30 21 90 00 
   1278      1255.820 DT     010D Rx 7  D8 EB 70 71 F0 FF 0F 
   1279      1255.970 DT     0219 Rx 3  00 00 1B 
   1280      1256.150 DT     039D Rx 5  64 5B 41 28 00 
   1281      1256.380 DT     0405 Rx 8  11 33 45 37 46 41 30 4D 
   1282      1256.513 DT     0228 Rx 2  90 BA 
   1283      1256.751 DT     0129 Rx 8  21 2E 4F 20 00 20 FF 3F 
   1284      1256.985 DT     07FF Rx 8  01 91 45 44 42 4C 7A 00 
   1285      1257.215 DT     0318 Rx 8  16 03 39 0F 11 16 13 B6 
   1286      1257.349 DT     0418 Rx 2  92 06 
   1287      1257.465 DT     0128 Rx 1  00 
   1288      1260.197 DT     02B9 Rx 8  00 00 D8 25 2A 9A 1A 96 
   1289      1260.823 DT     02E1 Rx 8  FC 19 12 3A 9E 0E 0A 00 
   1290      1261.038 DT     025A Rx 6  00 00 00 00 00 00 
   1291      1261.292 DT     03C3 Rx 8  00 00 00 00 00 49 00 00 
   1292      1265.192 DT     03FE Rx 8  00 40 00 00 00 00 10 51 
   1293      1265.352 DT     02D1 Rx 2  7F 01 
   1294      1266.438 DT     0129 Rx 8  D0 2F 4F 20 00 20 FF 3F 
   1295      1267.180 DT     0238 Rx 8  80 3F 14 C1 1F 00 24 11 
   1296      1267.375 DT     0284 Rx 5  10 00 00 00 00 
   1297      1270.177 DT     020E Rx 8  99 C4 E8 52 15 02 86 44 
   1298      1270.347 DT     0488 Rx 4  40 00 00 CC 
   1299      1270.591 DT     021E Rx 8  00 00 00 00 00 00 80 AA 
   1300      1270.841 DT     022E Rx 8  6E 66 A0 48 41 C3 90 80 
   1301      1271.095 DT     023E Rx 8  28 C6 63 95 01 6E A6 3B 
   1302      1271.357 DT     026E Rx 8  07 00 FE EF FF FE EF FF 
   1303      1274.589 DT     0545 Rx 8  02 00 0A 00 00 00 60 B6 
   1304      1276.440 DT     0129 Rx 8  35 20 4F 20 00 20 FF 3F 
   1305      1276.696 DT     02E1 Rx 8  05 00 00 00 00 00 00 00 
   1306      1282.244 DT     0419 Rx 1  00 
   1307      1284.094 DT     02E8 Rx 8  C2 00 00 00 00 80 B0 DC 
   1308      1286.426 DT     0129 Rx 8  4B 21 4F 20 FF 1F FF 3F 
   1309      1286.756 DT     0249 Rx 4  13 0D 00 00 
   1310      1288.140 DT     027D Rx 3  01 0D 8D 
   1311      1290.202 DT     026E Rx 8  08 00 FE EF FF FE EF FF 
   1312      1290.373 DT     0488 Rx 4  40 00 01 CD 
   1313      1291.513 DT     03C2 Rx 8  29 55 00 00 00 00 00 00 
   1314      1292.599 DT     02E1 Rx 8  10 21 04 00 00 00 26 08 
   1315      1295.152 DT     010A Rx 7  1E AC 52 62 61 51 01 
   1316      1295.370 DT     010B Rx 7  16 0C 00 00 F0 FF 0F 
   1317      1295.588 DT     010C Rx 7  8A FC A0 30 21 90 00 
   1318      1295.806 DT     010D Rx 7  D9 EC 70 71 F0 FF 0F 
   1319      1295.957 DT     0219 Rx 3  01 00 1C 
   1320      1296.137 DT     039D Rx 5  65 5C 41 28 00 
   1321      1296.431 DT     0129 Rx 8  6B 22 4F 20 00 20 FF 3F 
   1322      1299.207 DT     0420 Rx 6  28 01 40 4B 00 D0 
   1323      1300.201 DT     02B9 Rx 8  00 00 D8 25 2A 9A 3A B6 
   1324      1302.233 DT     03CB Rx 5  00 00 00 00 01 
   1325      1304.583 DT     0221 Rx 8  41 01 55 00 00 00 00 BA 
   1326      1305.193 DT     03FE Rx 8  00 40 00 00 00 00 20 61 
   1327      1306.443 DT     0129 Rx 8  7C 23 4F 20 00 20 FF 3F 
   1328      1307.570 DT     0545 Rx 8  40 01 31 B0 A1 0A 7A 91 
   1329      1308.816 DT     02E1 Rx 8  29 0A A3 6A 17 00 00 00 
   1330      1310.176 DT     020E Rx 8  99 C4 E8 52 15 02 C6 84 
   1331      1310.296 DT     0409 Rx 1  00 
   1332      1310.542 DT     021E Rx 8  00 00 00 00 00 00 80 BB 
   1333      1310.710 DT     0488 Rx 4  40 00 02 CE 
   1334      1310.938 DT     022E Rx 8  6E 66 A0 48 41 C3 D0 C0 
   1335      1311.188 DT     0720 Rx 8  00 00 00 00 00 00 00 00 
   1336      1311.418 DT     023E Rx 8  28 C6 63 95 01 6E B6 4B 
   1337      1311.678 DT     026E Rx 8  09 00 FE EF FF FE EF FF 
   1338      1315.207 DT     0239 Rx 8  00 00 64 7D 7D 7D F0 50 
   1339      1315.451 DT     0247 Rx 8  03 00 1B 00 00 40 FC 00 
   1340      1315.699 DT     024A Rx 8  00 00 01 0F 1F 00 00 00 
   1341      1316.455 DT     0129 Rx 8  FA 24 4F 20 00 20 FF 3F 
   1342      1316.691 DT     0102 Rx 8  22 33 00 00 E8 38 11 08 
   1343      1320.666 DT     0103 Rx 8  11 30 00 00 96 14 11 02 
   1344      1325.184 DT     02E1 Rx 8  02 00 00 00 00 00 01 00 
   1345      1326.434 DT     0129 Rx 8  ED 25 4F 20 00 20 FF 3F 
   1346      1329.588 DT     02A8 Rx 8  C2 00 00 00 00 80 C0 AC 
   1347      1330.206 DT     024E Rx 8  01 80 00 04 00 00 00 00 
   1348      1330.380 DT     0488 Rx 4  40 00 03 CF 
   1349      1330.624 DT     025E Rx 8  01 20 00 81 00 20 00 81 
   1350      1330.884 DT     026E Rx 8  0A 00 FE EF FF FE EF FF 
   1351      1331.103 DT     032E Rx 5  00 5D 30 51 0F 
   1352      1331.317 DT     033E Rx 5  00 FF FF 51 90 
   1353      1331.525 DT     034E Rx 5  59 9E 21 05 6E 
   1354      1331.737 DT     035E Rx 5  28 26 27 05 DB 
   1355      1331.969 DT     039E Rx 6  FF FF FF FF 25 0A 
   1356      1335.156 DT     010A Rx 7  1F AD 52 62 61 51 01 
   1357      1335.370 DT     010B Rx 7  17 0D 00 00 F0 FF 0F 
   1358      1335.590 DT     010C Rx 7  8B FD A0 30 21 90 00 
   1359      1335.806 DT     010D Rx 7  DA ED 70 71 F0 FF 0F 
   1360      1335.956 DT     0219 Rx 3  02 00 1D 
   1361      1336.196 DT     0259 Rx 8  D3 C0 02 00 00 00 70 60 
   1362      1336.381 DT     039D Rx 5  66 5D 41 28 00 
   1363      1336.615 DT     0129 Rx 8  9A 26 4F 20 01 20 FF 3F 
   1364      1337.133 DT     0249 Rx 4  AF 0E 00 00 
   1365      1340.197 DT     02B9 Rx 8  00 00 D8 25 2A 9A 5A D6 
   1366      1340.761 DT     02E1 Rx 8  03 6C 00 02 2C 45 00 00 
   1367      1341.599 DT     03C2 Rx 8  00 55 55 55 00 00 55 45 
   1368      1342.229 DT     025F Rx 8  DF 8C 01 C3 44 C1 0A E0 
   1369      1342.484 DT     0545 Rx 8  01 00 00 00 00 10 80 DB 
   1370      1345.192 DT     03FE Rx 8  00 40 00 00 00 00 30 71 
   1371      1346.460 DT     0129 Rx 8  20 27 4F 20 00 20 FF 3F 
   1372      1350.177 DT     020E Rx 8  99 C4 E8 52 15 02 06 C4 
   1373      1350.343 DT     0488 Rx 4  40 00 04 D0 
   1374      1350.591 DT     021E Rx 8  00 00 00 00 00 00 80 CC 
   1375      1350.841 DT     022E Rx 8  6E 66 A0 48 41 C3 10 00 
   1376      1351.093 DT     023E Rx 8  28 C6 63 95 01 6E C6 5B 
   1377      1351.355 DT     026E Rx 8  0B 00 FE EF FF FE EF FF 
   1378      1354.730 DT     0221 Rx 8  40 41 05 05 00 50 11 0F 
   1379      1355.092 DT     0228 Rx 2  A0 CA 
   1380      1355.326 DT     07FF Rx 8  02 5F 4E AC DE CD D6 30 
   1381      1355.556 DT     0318 Rx 8  16 03 39 0F 11 16 15 B8 
   1382      1355.690 DT     0418 Rx 2  A2 06 
   1383      1355.806 DT     0128 Rx 1  00 
   1384      1356.549 DT     0129 Rx 8  F7 28 4F 20 00 20 FF 3F 
   1385      1357.247 DT     02E1 Rx 8  FC 19 12 3A 9E 17 0A 00 
   1386      1360.675 DT     03C3 Rx 8  55 55 55 01 00 00 00 00 
   1387      1365.361 DT     02D1 Rx 2  7F 01 
   1388      1365.609 DT     035D Rx 8  00 00 00 00 00 00 00 00 
   1389      1366.434 DT     0129 Rx 8  A2 29 4F 20 00 20 FF 3F 
   1390      1370.154 DT     0488 Rx 4  40 00 05 D1 
   1391      1370.382 DT     026E Rx 8  20 00 7A 77 84 7B 17 7B 
   1392      1372.586 DT     02E1 Rx 8  05 00 00 00 00 00 00 00 
   1393      1373.568 DT     0545 Rx 8  02 00 0D 00 00 00 90 E9 
   1394      1375.158 DT     010A Rx 7  20 AE 52 62 61 51 01 
   1395      1375.376 DT     010B Rx 7  18 0E 00 00 F0 FF 0F 
   1396      1375.596 DT     010C Rx 7  8C FE A0 30 21 90 00 
   1397      1375.817 DT     010D Rx 7  DB EE 70 71 F0 FF 0F 
   1398      1375.967 DT     0219 Rx 3  03 00 1E 
   1399      1376.201 DT     032D Rx 8  14 05 00 00 7B 5E D8 F0 
   1400      1376.383 DT     039D Rx 5  67 5E 41 28 00 
   1401      1376.617 DT     0129 Rx 8  14 2A 4F 20 FF 1F FF 3F 
   1402      1380.189 DT     030E Rx 8  00 00 05 01 00 00 A0 B7 
   1403      1380.419 DT     02B9 Rx 8  00 00 D8 25 2A 9A 7A F6 
   1404      1382.259 DT     0419 Rx 1  00 
   1405      1384.102 DT     02E8 Rx 8  C2 00 00 00 00 80 C0 EC 
   1406      1385.192 DT     03FE Rx 8  00 40 00 00 00 00 40 81 
   1407      1386.438 DT     0129 Rx 8  21 2B 4F 20 01 20 FF 3F 
   1408      1386.762 DT     0249 Rx 4  CE 0F 00 00 
   1409      1388.144 DT     027D Rx 3  01 0E 8E 
   1410      1388.844 DT     02E1 Rx 8  10 21 04 00 00 00 26 08 
   1411      1389.252 DT     032B Rx 8  00 00 00 00 00 00 00 00 
   1412      1389.502 DT     036C Rx 8  00 00 00 00 00 00 00 00 
   1413      1389.751 DT     0459 Rx 8  00 00 00 00 00 00 00 00 
   1414      1390.001 DT     0350 Rx 8  00 00 00 00 00 00 00 00 
   1415      1390.233 DT     020E Rx 8  99 C4 E8 52 15 02 46 04 
   1416      1390.399 DT     0488 Rx 4  40 00 06 D2 
   1417      1390.645 DT     021E Rx 8  00 00 00 00 00 00 80 DD 
   1418      1390.897 DT     022E Rx 8  6E 66 A0 48 41 C3 50 40 
   1419      1391.153 DT     023E Rx 8  28 C6 63 95 01 6E D6 6B 
   1420      1391.406 DT     026E Rx 8  21 00 0F EA 79 2B 0A 86 
   1421      1391.998 DT     03C2 Rx 8  29 55 00 00 00 00 00 00 
   1422      1396.430 DT     0129 Rx 8  EC 2C 4F 20 00 20 FF 3F 
   1423      1399.208 DT     0420 Rx 6  28 01 40 4B 00 E0 
   1424      1402.235 DT     03CB Rx 5  00 00 00 00 01 
   1425      1404.824 DT     0221 Rx 8  41 01 55 00 00 00 20 DA 
   1426      1405.060 DT     02E1 Rx 8  29 0A A3 6A 17 00 00 00 
   1427      1406.434 DT     0129 Rx 8  FE 2D 4F 20 00 20 FF 3F 
   1428      1406.664 DT     0545 Rx 8  80 01 2C B0 A1 0E AA 00 
   1429      1410.194 DT     026E Rx 8  22 00 B1 D9 87 84 19 8A 
   1430      1410.444 DT     0329 Rx 8  00 00 00 00 00 00 00 00 
   1431      1410.692 DT     0369 Rx 8  00 00 00 00 00 00 00 00 
   1432      1410.812 DT     0409 Rx 1  00 
   1433      1411.060 DT     0425 Rx 8  00 00 00 00 00 00 00 00 
   1434      1411.311 DT     0429 Rx 8  00 00 00 00 00 00 00 00 
   1435      1411.561 DT     0439 Rx 8  00 00 00 00 00 00 00 00 
   1436      1411.809 DT     0449 Rx 8  00 00 00 00 00 00 00 00 
   1437      1412.059 DT     0479 Rx 8  00 00 00 00 00 00 00 00 
   1438      1412.227 DT     0488 Rx 4  40 00 07 D3 
   1439      1412.477 DT     0720 Rx 8  00 00 00 00 00 00 00 00 
   1440      1415.221 DT     010A Rx 7  21 AF 52 62 61 51 01 
   1441      1415.437 DT     010B Rx 7  19 0F 00 00 F0 FF 0F 
   1442      1415.658 DT     010C Rx 7  8D FF A0 30 21 90 00 
   1443      1415.876 DT     010D Rx 7  DC EF 70 71 F0 FF 0F 
   1444      1416.028 DT     0219 Rx 3  04 00 1F 
   1445      1416.270 DT     0239 Rx 8  00 00 64 7D 7D 7D F0 60 
   1446      1416.508 DT     0129 Rx 8  21 2E 4F 20 00 20 FF 3F 
   1447      1416.744 DT     0102 Rx 8  22 33 00 00 E8 38 11 08 
   1448      1416.988 DT     0247 Rx 8  03 00 1B 00 00 40 FC 00 
   1449      1417.236 DT     024A Rx 8  00 00 01 0F 1F 00 00 00 
   1450      1417.355 DT     025B Rx 1  00 
   1451      1417.565 DT     025D Rx 6  00 00 FF 00 00 00 
   1452      1417.747 DT     039D Rx 5  68 5F 41 28 00 
   1453      1417.941 DT     03DF Rx 5  00 00 04 00 01 
   1454      1418.143 DT     03F4 Rx 6  05 19 59 02 C0 00 
   1455      1418.369 DT     0293 Rx 8  01 0C 55 91 55 15 E4 D6 
   1456      1418.613 DT     03FA Rx 8  01 01 02 02 04 02 05 FF 
   1457      1418.747 DT     0410 Rx 2  45 00 
   1458      1418.997 DT     0428 Rx 8  00 00 00 00 00 38 1F 00 
   1459      1419.220 DT     0499 Rx 8  76 77 77 6B 6B 71 71 6D 
   1460      1419.454 DT     0549 Rx 8  01 E4 05 19 26 BF E7 43 
   1461      1420.216 DT     02B9 Rx 8  00 00 D8 25 2A 9A 9A 16 
   1462      1420.684 DT     0103 Rx 8  11 30 00 00 96 12 11 02 
   1463      1421.160 DT     02E1 Rx 8  02 00 00 00 00 00 01 00 
   1464      1425.190 DT     03FE Rx 8  00 40 00 00 00 00 50 91 
   1465      1426.436 DT     0129 Rx 8  D0 2F 4F 20 00 20 FF 3F 
   1466      1429.595 DT     02A8 Rx 8  C2 00 00 00 00 80 D0 BC 
   1467      1430.185 DT     020E Rx 8  99 C4 E8 52 15 02 86 44 
   1468      1430.351 DT     0488 Rx 4  40 00 08 D4 
   1469      1430.595 DT     021E Rx 8  00 00 00 00 00 00 80 EE 
   1470      1430.847 DT     022E Rx 8  6E 66 A0 48 41 C3 90 80 
   1471      1431.099 DT     023E Rx 8  28 C6 63 95 01 6E E6 7B 
   1472      1431.367 DT     024E Rx 8  02 80 00 04 00 00 00 00 
   1473      1431.630 DT     025E Rx 8  02 20 00 81 00 20 00 81 
   1474      1431.890 DT     026E Rx 8  03 00 FE EF FF FE EF FF 
   1475      1432.098 DT     032E Rx 5  00 5D 30 61 1F 
   1476      1432.312 DT     033E Rx 5  00 FF FF 61 A0 
   1477      1432.518 DT     034E Rx 5  59 9E 21 06 6F 
   1478      1432.724 DT     035E Rx 5  28 26 27 06 DC 
   1479      1432.956 DT     039E Rx 6  FF FF FF FF 36 0A 
   1480      1435.185 DT     0259 Rx 8  D3 C0 02 00 00 00 80 70 
   1481      1436.603 DT     0129 Rx 8  35 20 4F 20 00 20 FF 3F 
   1482      1437.563 DT     0249 Rx 4  9B 00 00 00 
   1483      1437.869 DT     02E1 Rx 8  03 6C 00 02 2C 45 00 00 
   1484      1439.583 DT     0545 Rx 8  01 00 00 00 00 10 B0 0B 
   1485      1441.605 DT     03C2 Rx 8  00 55 55 55 00 00 55 45 
   1486      1442.236 DT     025F Rx 8  DF 8C 01 C3 44 C1 0A E0 
   1487      1446.434 DT     0129 Rx 8  22 21 4F 20 00 20 FF 3F 
   1488      1450.202 DT     026E Rx 8  04 00 FE EF FF FE EF FF 
   1489      1450.368 DT     0488 Rx 4  40 00 09 D5 
   1490      1452.798 DT     02E1 Rx 8  FC 19 14 3A 9E 16 0A 00 
   1491      1454.729 DT     0221 Rx 8  40 41 05 05 00 50 31 2F 
   1492      1455.158 DT     010A Rx 7  12 A0 52 62 61 51 01 
   1493      1455.382 DT     010B Rx 7  0A 00 00 00 F0 FF 0F 
   1494      1455.600 DT     010C Rx 7  7E F0 A0 30 21 90 00 
   1495      1455.820 DT     010D Rx 7  CD E0 70 71 F0 FF 0F 
   1496      1455.974 DT     0219 Rx 3  05 00 20 
   1497      1456.102 DT     0228 Rx 2  B0 DA 
   1498      1456.284 DT     039D Rx 5  59 50 41 28 00 
   1499      1456.518 DT     0129 Rx 8  6B 22 4F 20 00 20 FF 3F 
   1500      1456.753 DT     07FF Rx 8  03 31 08 A1 E0 42 16 41 
   1501      1456.983 DT     0318 Rx 8  16 03 39 0F 11 16 17 BA 
   1502      1457.119 DT     0418 Rx 2  B2 06 
   1503      1457.235 DT     0128 Rx 1  00 
   1504      1460.203 DT     02B9 Rx 8  00 00 D8 25 2A 9A BA 36 
   1505      1462.369 DT     03C3 Rx 8  00 00 00 00 00 49 00 00 
   1506      1465.193 DT     03FE Rx 8  00 40 00 00 00 00 60 A1 
   1507      1465.360 DT     02D1 Rx 2  7F 01 
   1508      1466.440 DT     0129 Rx 8  7C 23 4F 20 00 20 FF 3F 
   1509      1468.764 DT     02E1 Rx 8  05 00 00 00 00 00 00 00 
   1510      1470.174 DT     020E Rx 8  99 C4 E8 52 15 02 C6 84 
   1511      1470.340 DT     0488 Rx 4  40 00 0A D6 
   1512      1470.588 DT     021E Rx 8  00 00 00 00 00 00 80 FF 
   1513      1470.838 DT     022E Rx 8  6E 66 A0 48 41 C3 D0 C0 
   1514      1471.092 DT     023E Rx 8  28 C6 63 95 01 6E F6 8B 
   1515      1471.355 DT     026E Rx 8  05 00 FE EF FF FE EF FF 
   1516      1472.585 DT     0545 Rx 8  02 00 10 00 00 00 C0 1C 
   1517      1476.433 DT     0129 Rx 8  FA 24 4F 20 00 20 FF 3F 
   1518      1482.249 DT     0419 Rx 1  00 
   1519      1484.103 DT     02E8 Rx 8  C2 00 00 00 00 80 D0 FC 
   1520      1484.594 DT     02E1 Rx 8  10 21 04 00 00 00 26 08 
   1521      1486.424 DT     0129 Rx 8  84 25 4F 20 FF 1F FF 3F 
   1522      1486.760 DT     0249 Rx 4  E8 01 00 00 
   1523      1488.146 DT     027D Rx 3  01 0F 8F 
   1524      1490.202 DT     026E Rx 8  06 00 FE EF FF FE EF FF 
   1525      1490.370 DT     0488 Rx 4  40 00 0B D7 
   1526      1491.526 DT     03C2 Rx 8  29 55 00 00 00 00 00 00 
   1527      1495.156 DT     010A Rx 7  13 A1 52 62 61 51 01 
   1528      1495.375 DT     010B Rx 7  0B 01 00 00 F0 FF 0F 
   1529      1495.597 DT     010C Rx 7  7F F1 A0 30 21 90 00 
   1530      1495.813 DT     010D Rx 7  CE E1 70 71 F0 FF 0F 
   1531      1495.965 DT     0219 Rx 3  06 00 21 
   1532      1496.145 DT     039D Rx 5  5A 51 41 28 00 
   1533      1496.431 DT     0129 Rx 8  37 26 4F 20 00 20 FF 3F 
   1534      1499.211 DT     0420 Rx 6  28 01 40 4B 00 F0 
   1535      1500.203 DT     02B9 Rx 8  00 00 D8 25 2A 9A DA 56 
   1536      1500.433 DT     0399 Rx 8  F0 20 C0 E0 B0 C8 B7 7B 
   1537      1500.582 DT     0413 Rx 3  4B 49 49 
   1538      1501.130 DT     02E1 Rx 8  29 0A A3 6A 17 00 00 00 
   1539      1502.236 DT     03CB Rx 5  00 00 00 00 01 
   1540      1504.584 DT     0221 Rx 8  41 01 55 00 00 00 40 FA 
   1541      1505.190 DT     03FE Rx 8  00 40 00 00 00 00 70 B1 
   1542      1505.416 DT     0405 Rx 8  12 43 33 37 39 34 34 35 
   1543      1506.240 DT     0545 Rx 8  40 01 31 30 A1 06 DA 6D 
   1544      1506.476 DT     0129 Rx 8  49 27 4F 20 FF 1F FF 3F 
   1545      1510.177 DT     020E Rx 8  99 C4 E8 52 15 02 06 C4 
   1546      1510.298 DT     0409 Rx 1  00 
   1547      1510.548 DT     021E Rx 8  00 00 00 00 00 00 80 00 
   1548      1510.662 DT     0415 Rx 1  45 
   1549      1510.892 DT     022E Rx 8  6E 66 A0 48 41 C3 10 00 
   1550      1511.060 DT     0488 Rx 4  40 00 0C D8 
   1551      1511.292 DT     023E Rx 8  28 C6 63 95 01 6E 06 9B 
   1552      1511.542 DT     0720 Rx 8  00 00 00 00 00 00 00 00 
   1553      1511.782 DT     026E Rx 8  07 00 FE EF FF FE EF FF 
   1554      1515.217 DT     0239 Rx 8  00 00 64 7D 7D 7D F0 70 
   1555      1515.461 DT     0247 Rx 8  03 00 1B 00 00 40 FC 00 
   1556      1515.709 DT     024A Rx 8  00 00 01 0F 1F 00 00 00 
   1557      1516.433 DT     0129 Rx 8  F7 28 4F 20 00 20 FF 3F 
   1558      1516.669 DT     0102 Rx 8  22 33 00 00 E8 38 11 08 
   1559      1516.913 DT     02E1 Rx 8  02 00 00 00 00 00 01 00 
   1560      1520.670 DT     0103 Rx 8  11 30 00 00 96 12 11 02 
   1561      1526.432 DT     0129 Rx 8  A2 29 4F 20 00 20 FF 3F 
   1562      1529.602 DT     02A8 Rx 8  C2 00 00 00 00 80 E0 CC 
   1563      1530.200 DT     024E Rx 8  03 80 00 04 00 00 00 00 
   1564      1530.366 DT     0488 Rx 4  40 00 0D D9 
   1565      1530.608 DT     025E Rx 8  03 20 00 81 00 20 00 81 
   1566      1530.871 DT     026E Rx 8  08 00 FE EF FF FE EF FF 
   1567      1531.097 DT     032E Rx 5  00 5D 30 71 2F 
   1568      1531.311 DT     033E Rx 5  00 FF FF 71 B0 
   1569      1531.519 DT     034E Rx 5  59 9E 21 07 70 
   1570      1531.731 DT     035E Rx 5  28 26 27 07 DD 
   1571      1531.963 DT     039E Rx 6  FF FF FF FF 47 0A 
   1572      1532.792 DT     02E1 Rx 8  03 6C 00 02 2C 45 00 00 
   1573      1535.156 DT     010A Rx 7  14 A2 52 62 61 51 01 
   1574      1535.374 DT     010B Rx 7  0C 02 00 00 F0 FF 0F 
   1575      1535.594 DT     010C Rx 7  80 F2 A0 30 21 90 00 
   1576      1535.814 DT     010D Rx 7  CF E2 70 71 F0 FF 0F 
   1577      1535.966 DT     0219 Rx 3  07 00 22 
   1578      1536.208 DT     0259 Rx 8  D3 C0 02 00 00 00 90 80 
   1579      1536.390 DT     039D Rx 5  5B 52 41 28 00 
   1580      1536.625 DT     0129 Rx 8  14 2A 4F 20 FF 1F FF 3F 
   1581      1537.145 DT     0249 Rx 4  2A 02 00 00 
   1582      1538.849 DT     0545 Rx 8  01 00 00 00 00 10 E0 3B 
   1583      1540.209 DT     02B9 Rx 8  00 00 D8 25 2A 9A FA 76 
   1584      1541.599 DT     03C2 Rx 8  00 55 55 55 00 00 55 45 
   1585      1541.951 DT     025F Rx 8  DF 8C 01 C3 44 C1 0A E0 
   1586      1545.193 DT     03FE Rx 8  00 40 00 00 00 00 80 C1 
   1587      1546.423 DT     0129 Rx 8  E5 2B 4F 20 FF 1F FF 3F 
   1588      1549.056 DT     02E1 Rx 8  FC 19 10 3A 9E 0E 0A 00 
   1589      1550.190 DT     020E Rx 8  99 C4 E8 52 15 02 46 04 
   1590      1550.356 DT     0488 Rx 4  40 00 0E DA 
   1591      1550.602 DT     021E Rx 8  00 00 00 00 00 00 80 11 
   1592      1550.856 DT     022E Rx 8  6E 66 A0 48 41 C3 50 40 
   1593      1551.142 DT     023E Rx 8  28 C6 63 95 01 6E 16 AB 
   1594      1551.452 DT     026E Rx 8  09 00 FE EF FF FE EF FF 
   1595      1554.729 DT     0221 Rx 8  40 41 05 05 00 50 51 4F 
